# GHZ S RI R 50.000000000000
3.950000000000 0.128567594959 -0.479738868117 0.821752401664 0.204000543913 0.812840267698 0.198360859950 0.097064454511 -0.466305610081
3.950422222000 0.126056724262 -0.480037449904 0.824040485378 0.202305973894 0.811956177729 0.197862554926 0.094933720426 -0.467600984759
3.950844444000 0.124594218418 -0.481569499615 0.823609084207 0.200615982196 0.810766657641 0.198524684906 0.092498967438 -0.466182172039
3.951266666000 0.123039815256 -0.481555370018 0.823970651200 0.198041645000 0.810925545505 0.197258453123 0.089924450327 -0.466324070172
3.951688888000 0.121515564184 -0.480989761448 0.823195986641 0.196428881288 0.810405145319 0.196859146422 0.088806869510 -0.465890823761
3.952111111000 0.120460434608 -0.482423900563 0.825657615361 0.193470866440 0.810808178483 0.195945186638 0.087299678466 -0.466987237125
3.952533333000 0.119338226562 -0.481290395655 0.825180962322 0.194122250741 0.810700058490 0.195634572214 0.087736109850 -0.465816217894
3.952955555000 0.118717021117 -0.481587512337 0.825539070278 0.192096720940 0.811596156291 0.194135993612 0.086023822764 -0.466716900519
3.953377777000 0.117546420115 -0.481701034977 0.825550233292 0.189275135982 0.811906590355 0.193214885326 0.084600812794 -0.466724566093
3.953800000000 0.118494300108 -0.480774144950 0.824090317060 0.189990373271 0.812085341131 0.193005447058 0.084175228758 -0.466815210377
3.954222222000 0.115806491035 -0.481621482440 0.826655838328 0.187705617283 0.812823893403 0.191023157830 0.084320610521 -0.467132499774
3.954644444000 0.115371428504 -0.482090846593 0.828236083584 0.184811411326 0.812704003183 0.190272453003 0.082896711315 -0.467263199271
3.955066666000 0.116126356292 -0.481609812436 0.827794484134 0.185193858765 0.813096034550 0.190093039212 0.081805321468 -0.466913523066
3.955488888000 0.114809303415 -0.482443621293 0.829182692710 0.184306772500 0.814743073793 0.187823631136 0.082180399892 -0.466957125915
3.955911111000 0.112996722149 -0.482099630787 0.829945903390 0.182380795409 0.814608146019 0.186316428811 0.081732837391 -0.467254159329
3.956333333000 0.112364562499 -0.481391671421 0.827296547770 0.180633732153 0.815954621583 0.185526311998 0.080814667764 -0.467186966879
3.956755555000 0.112619097135 -0.481502333613 0.831372285232 0.179099660450 0.815451012456 0.185880918025 0.080557284160 -0.467867694561
3.957177777000 0.112273408520 -0.482626932412 0.830802192667 0.179082029105 0.817044682322 0.183760083990 0.079717083817 -0.467405550091
3.957600000000 0.112214336248 -0.482765530829 0.832407130370 0.177032453047 0.816560266122 0.182340121404 0.078264209552 -0.467984698943
3.958022222000 0.111348853366 -0.483647342748 0.833043045955 0.176458178132 0.817137920122 0.181900061227 0.077939235553 -0.467278948587
3.958444444000 0.111559681197 -0.483470700337 0.833781759364 0.174375851058 0.817689587447 0.180994850962 0.076518827710 -0.468660155833
3.958866666000 0.108220051397 -0.483789709113 0.833915479998 0.173400194133 0.818951384283 0.180291285870 0.078410109203 -0.466864073286
3.959288888000 0.109476176963 -0.482666865706 0.834348932508 0.172610467131 0.818679620681 0.178785641225 0.076306321053 -0.468940942608
3.959711111000 0.110188763984 -0.483172278150 0.834630337389 0.172447999661 0.820098817854 0.177740902173 0.075209559918 -0.469094681647
3.960133333000 0.108164694698 -0.483122594439 0.835671306386 0.170164210578 0.820107128178 0.176440188754 0.075670753801 -0.468904547934
3.960555555000 0.108216764399 -0.483088497874 0.836179897447 0.169190482959 0.820319131258 0.175217540154 0.074809985257 -0.469581693555
3.960977777000 0.107445087876 -0.482642506400 0.837063189244 0.166881742124 0.820337401122 0.173878593498 0.072858969803 -0.469534500850
3.961400000000 0.106032241416 -0.483390504396 0.837524359579 0.164660769992 0.820314132824 0.173541476983 0.072934872201 -0.468590605373
3.961822222000 0.106296156252 -0.483293630815 0.837625255141 0.164669981576 0.821068994824 0.172497185378 0.072530867059 -0.469011870080
3.962244444000 0.105250196155 -0.483513193189 0.838500526418 0.163879974222 0.823096450458 0.170434856651 0.072800692247 -0.470521772960
3.962666666000 0.104169209712 -0.483261476457 0.839070142790 0.161796685028 0.821595114706 0.169926287430 0.071687931043 -0.469208522784
3.963088888000 0.104899503076 -0.484155899407 0.839665616915 0.160493474995 0.822956675700 0.168636934029 0.069566555961 -0.470030618305
3.963511111000 0.102895656000 -0.484161810865 0.839938288787 0.158805678560 0.823601112745 0.166623522753 0.069298011921 -0.470099882913
3.963933333000 0.103145656703 -0.483716002551 0.840526015958 0.157693649736 0.823346951280 0.165246544799 0.067347168359 -0.469689840706
3.964355555000 0.102852962442 -0.485158672096 0.841452248931 0.156203551989 0.824731480113 0.165133332037 0.067455544625 -0.470275840740
3.964777777000 0.101606220016 -0.484969461020 0.841220997757 0.155509961453 0.825641342071 0.164387811064 0.067842202887 -0.470349388127
3.965200000000 0.102172382296 -0.485911912262 0.842115130168 0.154073081084 0.826125985512 0.162968155892 0.065861311151 -0.470000966699
3.965622222000 0.100380724260 -0.484117343899 0.842846904844 0.152039473505 0.825738188804 0.161523091323 0.065543503635 -0.471463462723
3.966044444000 0.100691674425 -0.484375599625 0.842570223191 0.150564065150 0.826051192738 0.161369637314 0.064656231554 -0.470654195652
3.966466666000 0.100660623950 -0.485689025215 0.844070454137 0.149411958399 0.826607933922 0.159691250117 0.062823100421 -0.471533828543
3.966888888000 0.098513840463 -0.486455882532 0.844073746657 0.148278465848 0.828090728645 0.157670122852 0.063232940786 -0.470865890858
3.967311111000 0.099092506254 -0.485099832110 0.844611824184 0.146519366540 0.827048086214 0.156831250504 0.062074957382 -0.471373430061
3.967733333000 0.097528706579 -0.485957009328 0.844934963167 0.145250363139 0.828181019102 0.155609190109 0.061484757695 -0.470051178350
3.968155555000 0.096447624642 -0.486134580248 0.845659068978 0.144021980931 0.828588814947 0.153995083975 0.060793241716 -0.470700454474
3.968577777000 0.096444121055 -0.485697026741 0.845872312427 0.142448756503 0.828459347639 0.154273871571 0.060458121442 -0.470985544685
3.969000000000 0.095643586418 -0.485605211073 0.845399400247 0.141161988426 0.832145863179 0.150326932554 0.059972156215 -0.473501642336
3.969422222000 0.094689889225 -0.486135330395 0.847135675169 0.139271378915 0.829651582699 0.150565580181 0.058476568421 -0.471491790684
3.969844444000 0.095551834425 -0.487084192355 0.847360947665 0.138360842746 0.831628347357 0.151458470997 0.058810118800 -0.472917873666
3.970266666000 0.093360849788 -0.486639283208 0.847654249857 0.137011957022 0.830996624353 0.147425895680 0.056116405342 -0.471820631995
3.970688888000 0.092706029476 -0.487321200300 0.848085010504 0.135863462553 0.831016887122 0.147268895267 0.056308699007 -0.471087021470
3.971111111000 0.093088581569 -0.487882705212 0.848616409756 0.134247855963 0.832511413278 0.147161358147 0.055159354269 -0.472009270355
3.971533333000 0.092054252701 -0.486343397196 0.848832249100 0.132805414263 0.831501747928 0.145766694987 0.055699683460 -0.471586578582
3.971955555000 0.091166379183 -0.487912876860 0.849205827158 0.131464346546 0.833911972851 0.143792392167 0.053436086539 -0.472747398234
3.972377777000 0.090111710965 -0.487050249321 0.849523791004 0.129767780091 0.832573258164 0.142648288487 0.053496994735 -0.472026367349
3.972800000000 0.090151849361 -0.488249577378 0.850287579515 0.128683658152 0.833316729906 0.143235018454 0.052824083684 -0.471712767325
3.973222222000 0.089041108496 -0.487632766465 0.850717339494 0.127344105797 0.832670101179 0.141250515674 0.051492106392 -0.471470818262
3.973644444000 0.088024527754 -0.488185770975 0.850780886179 0.125954264729 0.834384514647 0.138996535909 0.050480531001 -0.472229166626
3.974066666000 0.086616645784 -0.487164256774 0.851087550635 0.124019174703 0.834795747469 0.136768528987 0.050529774231 -0.473018515281
3.974488888000 0.087921830461 -0.488726360735 0.851535595579 0.123020327576 0.836272193640 0.137938865632 0.049634395964 -0.473374626674
3.974911111000 0.086496539652 -0.489814298940 0.851726866960 0.121707545100 0.836333026335 0.135551053885 0.048114176290 -0.472534433579
3.975333333000 0.085366898696 -0.488375625739 0.852457746450 0.119916905686 0.836063762584 0.134271316793 0.047813970639 -0.472619167849
3.975755555000 0.084108024267 -0.490247793184 0.852547536167 0.118945085478 0.837152591620 0.132071378704 0.045873611188 -0.472353270323
3.976177777000 0.085048309767 -0.489066782150 0.852745856855 0.117758922909 0.836204933313 0.133295282344 0.046668841494 -0.472084874595
3.976600000000 0.083856298081 -0.489247634177 0.853000888519 0.116787742116 0.835563792248 0.129598635025 0.044147121915 -0.471740701198
3.977022222000 0.083182803526 -0.490319493670 0.853896067816 0.115041109462 0.838101049260 0.130786194752 0.044791005778 -0.472771552494
3.977444444000 0.083057487487 -0.488642398750 0.853931838353 0.113746800857 0.837777784100 0.129120415728 0.044274328615 -0.473955967926
3.977866666000 0.082811514269 -0.490931454576 0.854335046878 0.112109447736 0.839057041878 0.128010464433 0.041902398129 -0.472889460641
3.978288888000 0.080773365407 -0.490165680490 0.854530565802 0.110783937279 0.838514407980 0.125923471192 0.042257695317 -0.472968781131
3.978711111000 0.081087468288 -0.489978108462 0.855003930182 0.109461155843 0.839020158904 0.125876727386 0.042076487743 -0.472929010782
3.979133333000 0.079562236191 -0.492030589584 0.855052700651 0.108310410920 0.840497963804 0.123765861859 0.040701003677 -0.473107156586
3.979555555000 0.079153379379 -0.491923288467 0.855502349823 0.106938754450 0.841733960920 0.123763440453 0.040104512028 -0.472970372699
3.979977777000 0.077699809710 -0.490780614507 0.855716555693 0.105338725023 0.840719065651 0.121543554294 0.040108888781 -0.472614268477
3.980400000000 0.078436118642 -0.491227017802 0.856365243016 0.104404445940 0.841613353113 0.122484976198 0.039207581514 -0.473340115810
3.980822222000 0.077146222263 -0.492393635932 0.857213525015 0.103007407861 0.842960694441 0.119966776664 0.038015321109 -0.473574039136
3.981244444000 0.076449144452 -0.492791616129 0.856979024494 0.101531982730 0.842668101619 0.119474216617 0.037160813524 -0.472683641836
3.981666666000 0.073243437526 -0.492021222603 0.856140083945 0.099865525661 0.841465946719 0.113661719124 0.034694673493 -0.470559563934
3.982088888000 0.074054399592 -0.491572349464 0.856796939677 0.098934549561 0.842407060882 0.115006208521 0.035471720815 -0.472307078812
3.982511111000 0.074987885779 -0.493417862094 0.858133436147 0.097459518914 0.845054082704 0.116037774072 0.035116421791 -0.474033684007
3.982933333000 0.072868933291 -0.493578233062 0.858259479570 0.096079436583 0.844734752845 0.113197347248 0.033464927533 -0.473525247611
3.983355555000 0.071576204985 -0.492099837946 0.857913993504 0.094363605884 0.843334043789 0.111102585813 0.032605468705 -0.472227226121
3.983777777000 0.070579180093 -0.494018273850 0.858488354031 0.092013097489 0.846572082448 0.110097230882 0.031607380661 -0.473182096395
3.984200000000 0.069456580888 -0.491787295169 0.857899354096 0.092039979279 0.844755309865 0.107598282111 0.030271445407 -0.472627531548
3.984622222000 0.069610108653 -0.493134634698 0.858821927357 0.090838533248 0.844477708536 0.107052945220 0.030304637438 -0.472544965451
3.985044444000 0.068567294068 -0.493524520525 0.859049625223 0.088922678780 0.844768680683 0.106038433079 0.029722535652 -0.471596417229
3.985466666000 0.069145418618 -0.494185455986 0.859578276121 0.087647480369 0.846156984186 0.106396318142 0.029342535284 -0.473102968056
3.985888888000 0.066125620200 -0.493942893661 0.859108988645 0.086279981525 0.845889471486 0.102663539624 0.027448125863 -0.471099680455
3.986311111000 0.067498827164 -0.493817606887 0.860563139038 0.085117731644 0.846384194307 0.104321973267 0.028313707959 -0.472606538768
3.986733333000 0.063650600127 -0.495154066159 0.859448548618 0.083016624008 0.848371664515 0.098314688893 0.024743432096 -0.471840579528
3.987155555000 0.065227339155 -0.494027151695 0.860577623639 0.081744542919 0.847016355555 0.100577376202 0.025763882361 -0.472090331527
3.987577777000 0.065361815896 -0.496543160347 0.861665298297 0.081031133531 0.849671037890 0.100120159934 0.025359688937 -0.472719447387
3.988000000000 0.063221675465 -0.496280677867 0.861761589074 0.079271687729 0.849672446780 0.097380554749 0.022614934234 -0.472577475600
3.988422222000 0.063506374559 -0.496566767427 0.862310206222 0.078490621179 0.849712978073 0.097866222566 0.024103930637 -0.472820851772
3.988844444000 0.061379000178 -0.495296675355 0.861198433343 0.077057933214 0.848943147917 0.094622533292 0.022354084542 -0.472132789025
3.989266666000 0.061738589905 -0.496855304767 0.862370115198 0.074418834872 0.851512661148 0.096006634676 0.020703604027 -0.472763226493
3.989688888000 0.059771846233 -0.497439867841 0.862495054327 0.072753725294 0.852487663997 0.092865095466 0.020451455646 -0.472414159082
3.990111111000 0.059484654898 -0.496808172329 0.861306843643 0.071880043858 0.849712881352 0.090400320115 0.018640256895 -0.470989614876
3.990533333000 0.058588813708 -0.496928745464 0.863286850849 0.070642832316 0.850908998128 0.090588758673 0.019121133567 -0.472395521613
3.990955555000 0.056909411764 -0.497890626941 0.863864062947 0.069018536264 0.851961251024 0.088609156647 0.017595655704 -0.471426349039
3.991377777000 0.056349175434 -0.498328822316 0.863600036638 0.066718928437 0.853922486977 0.086594909205 0.015651250640 -0.473050148765
3.991800000000 0.056136976663 -0.498815117840 0.865902976223 0.065294166415 0.853842567646 0.087471294135 0.016760274152 -0.472439669701
3.992222222000 0.055727136458 -0.497266328388 0.864107822113 0.065068665428 0.852657154611 0.085269394085 0.015886087402 -0.472530355331
3.992644444000 0.053928374155 -0.496441138293 0.863517931967 0.062783919655 0.850817170892 0.082214660230 0.013623274372 -0.470432940589
3.993066666000 0.053627579229 -0.498461321780 0.863986824420 0.061999351739 0.853512331354 0.082950756941 0.013565495630 -0.471034382194
3.993488888000 0.051201646198 -0.498482192511 0.864197310238 0.059597093838 0.855651294848 0.079938531995 0.012691451889 -0.471755020363
3.993911111000 0.051816151861 -0.497933062165 0.864728513922 0.059684246999 0.852885310450 0.079723496257 0.013044045336 -0.471104329708
3.994333333000 0.052043142360 -0.500826231920 0.867238204709 0.058789545332 0.856153529879 0.082099282884 0.012474211550 -0.472018832170
3.994755555000 0.049767622465 -0.498389607853 0.865039040454 0.056432903230 0.854742439330 0.077649571148 0.011734024049 -0.470629368125
3.995177777000 0.049308192538 -0.500370831340 0.865787309054 0.054684158970 0.857925146554 0.076335565535 0.009864212603 -0.473069919544
3.995600000000 0.048346844295 -0.500299986927 0.867097759617 0.053764366507 0.857391787627 0.074793181810 0.009060657068 -0.471986196195
3.996022222000 0.046158107584 -0.498191000017 0.865609686050 0.052782220922 0.856580925009 0.072198629598 0.009463642336 -0.471436435062
3.996444444000 0.047430436568 -0.499107327017 0.866596561361 0.051769061403 0.856039336738 0.073253645843 0.008211602718 -0.471883553795
3.996866666000 0.046696696318 -0.499967642861 0.867430049160 0.050444987692 0.858220728767 0.073401752452 0.009005398092 -0.472234707896
3.997288888000 0.045375342488 -0.498847184591 0.866403138066 0.048333546411 0.855714374780 0.069488670210 0.006272755923 -0.470559717814
3.997711111000 0.043963701309 -0.500683763874 0.868399936041 0.046752225123 0.859246534646 0.068145808393 0.005101678685 -0.472341084878
3.998133333000 0.043462359260 -0.498767668519 0.866286372343 0.046252894742 0.855832488431 0.067455146916 0.005798168176 -0.469288002909
3.998555555000 0.039920926487 -0.500547187407 0.866767317201 0.042851539364 0.860723054339 0.061505872798 0.001918724570 -0.471177338798
3.998977777000 0.042055637139 -0.498606712333 0.866950496545 0.043867980282 0.856408087226 0.065037244058 0.004643128492 -0.469901382476
3.999400000000 0.036973058373 -0.499635594791 0.869084586386 0.037947649235 0.857096899050 0.059104618255 0.000187982049 -0.469623882924
3.999822222000 0.039422174360 -0.500869376006 0.868069287741 0.040725409174 0.860936963516 0.061649475974 0.002191640705 -0.471593772284
4.000244444000 0.037903815289 -0.500841063778 0.868332038830 0.038822427709 0.859922086783 0.059779391412 0.001334765540 -0.470201090090
4.000666666000 0.037420899071 -0.500660856225 0.869065884204 0.037313836448 0.858964009941 0.058688681516 0.000198054461 -0.469663220823
4.001088888000 0.036191653005 -0.501585020791 0.868108866551 0.035717242471 0.861939513082 0.057909732908 0.000437428369 -0.470378799490
4.001511111000 0.035476426798 -0.501615022825 0.868144184032 0.033916638333 0.861711713491 0.055875457195 -0.001503850933 -0.469437603385
4.001933333000 0.035794678661 -0.500466857920 0.868485793353 0.033032801957 0.860103828676 0.055905407072 -0.001526742974 -0.469641473191
4.002355555000 0.033668585373 -0.501538546320 0.868750744090 0.031676069179 0.861666713702 0.053530046004 -0.002216701290 -0.469706745063
4.002777777000 0.031514536678 -0.501813471587 0.872719641674 0.029770077378 0.862610427505 0.049558361638 -0.005448835517 -0.471459283345
4.003200000000 0.031747678001 -0.501584298378 0.870956043255 0.027262596861 0.862205669425 0.050879585545 -0.005079799958 -0.470127210649
4.003622222000 0.030527432816 -0.502302153302 0.870776292131 0.026182475329 0.862862032048 0.048850967295 -0.005585387921 -0.469579975257
4.004044444000 0.029037177960 -0.502357041981 0.870544149122 0.025947346042 0.864303992529 0.047778600562 -0.005390049293 -0.470267585955
4.004466666000 0.030040958971 -0.501464276788 0.869201204427 0.025624698928 0.862693374911 0.047868591175 -0.005587861408 -0.468849357906
4.004888888000 0.027821556006 -0.501895063653 0.871139021481 0.023567363381 0.864897242461 0.044276743091 -0.007568791377 -0.470473146947
4.005311111000 0.027097364231 -0.501438446804 0.868608378783 0.020830576260 0.863167012898 0.044444299531 -0.007506592877 -0.468093723134
4.005733333000 0.024811653766 -0.501535127047 0.870148213442 0.020465394328 0.864376263676 0.041274423481 -0.008325561864 -0.469138453958
4.006155555000 0.025658463291 -0.501897783154 0.870366734576 0.018136825773 0.864538549565 0.041618865037 -0.009659062364 -0.468809389775
4.006577777000 0.023767244110 -0.501434674916 0.870883229812 0.016459060358 0.865178376369 0.039122228611 -0.010973304218 -0.469558452551
4.007000000000 0.021685758994 -0.500786603383 0.872668176109 0.013004159426 0.862943780006 0.035546398838 -0.013969009804 -0.468898991555
4.007422222000 0.021201601494 -0.502538902353 0.871061836076 0.014826732483 0.867252111757 0.036299754033 -0.011324264807 -0.469272956768
4.007844444000 0.020849716358 -0.502122089803 0.871443584777 0.012959786854 0.866426125770 0.035465990438 -0.012182175039 -0.468655353849
4.008266666000 0.018683764321 -0.500905655729 0.870025789407 0.009381032278 0.863564120236 0.031782037216 -0.014665608721 -0.466361074779
4.008688888000 0.017518249249 -0.500802903950 0.870843028034 0.010501936167 0.865371076219 0.028488791362 -0.015251680190 -0.467385639566
4.009111111000 0.016150912044 -0.501814366801 0.872596222508 0.010091604632 0.867231328545 0.027340061051 -0.015294416568 -0.468496549910
4.009533333000 0.016200040147 -0.501342255772 0.870470501659 0.005914612086 0.866973732207 0.027921211353 -0.016690523431 -0.467501056497
4.009955555000 0.013713752631 -0.500247289790 0.868312376418 0.002095292209 0.867368220860 0.025732804792 -0.017044598641 -0.466148259178
4.010377777000 0.014154972371 -0.501152103623 0.870915566587 0.003406475223 0.867619692990 0.026155360222 -0.016745886109 -0.467847011531
