# GHZ S RI R 50.000000000000
3.950000000000 -0.036623509063 0.004738699182 0.371894912030 0.909548676659 0.358936778184 0.909608721024 -0.041323542993 0.025432674491
3.950422222000 -0.037171635581 0.003428778728 0.374276295671 0.910280182668 0.359510509066 0.907313179575 -0.042162057700 0.024898993298
3.950844444000 -0.036237113017 0.003283327864 0.373880580172 0.907952618370 0.363054154579 0.906980471753 -0.041637791028 0.025647688598
3.951266666000 -0.037086560452 0.003395101862 0.375812428951 0.907907001361 0.364722068978 0.907590893982 -0.042609881808 0.026583817633
3.951688888000 -0.037699724426 0.003372714171 0.377478345111 0.907657482358 0.361641105781 0.906829532253 -0.042478168147 0.025871277200
3.952111111000 -0.037674322638 0.004047823247 0.380484616059 0.909661583612 0.364521896778 0.907335058985 -0.042089716057 0.027076515035
3.952533333000 -0.038180156762 0.004368547716 0.379689492044 0.905309558284 0.366760046874 0.908038347212 -0.042031363426 0.027176635877
3.952955555000 -0.037889787955 0.003998940344 0.380433595673 0.906735034408 0.368696579841 0.905248191763 -0.041851699812 0.027412776830
3.953377777000 -0.037997910493 0.004138978719 0.382683293698 0.906968034976 0.368511249626 0.906792300764 -0.042805301606 0.027544632758
3.953800000000 -0.036157797637 0.004461986078 0.384486180397 0.903177294001 0.371880572953 0.904873391060 -0.040183233799 0.026794764157
3.954222222000 -0.038393740394 0.004013296705 0.384437634758 0.903990357051 0.371576273841 0.905117216994 -0.041752319124 0.027117333936
3.954644444000 -0.037951909266 0.006107963438 0.388066679366 0.906942188679 0.373748194614 0.906249208509 -0.041091503693 0.029030988551
3.955066666000 -0.038306091703 0.005222788874 0.386708685035 0.903381324110 0.372454424569 0.904544104695 -0.041245728931 0.027270381695
3.955488888000 -0.038627265538 0.005944977782 0.386523129479 0.905890486918 0.375641425939 0.903764233103 -0.040818507614 0.028271556699
3.955911111000 -0.039787026615 0.006298662411 0.390255130738 0.906394257268 0.374500752562 0.904773678431 -0.041482887444 0.029063392574
3.956333333000 -0.038793215250 0.006324002891 0.390243590467 0.905265760762 0.379402756240 0.905167101765 -0.040735818019 0.029705026245
3.956755555000 -0.039328109778 0.006327974822 0.392078153128 0.902488623803 0.377162571905 0.904971283668 -0.041481629699 0.028514508749
3.957177777000 -0.038206286263 0.006806389284 0.394162129935 0.905354142612 0.382074141028 0.903568060964 -0.039873303568 0.029621171262
3.957600000000 -0.038844121498 0.007882998787 0.396184392822 0.904542016739 0.380988916816 0.904814209409 -0.040623139898 0.029512205794
3.958022222000 -0.038493321645 0.007734827306 0.396966119195 0.905599529721 0.383162727899 0.905379884953 -0.040025868427 0.029783038221
3.958444444000 -0.037834822771 0.007310247549 0.398219541541 0.902792309981 0.384147828032 0.903367084160 -0.040032777470 0.028562313991
3.958866666000 -0.039025917534 0.007271409704 0.397782010365 0.903918288995 0.386209027217 0.903957586917 -0.040510835322 0.030104806992
3.959288888000 -0.038559571739 0.008720893762 0.402583218710 0.904902604050 0.386323097934 0.903650555470 -0.039136285319 0.031005721874
3.959711111000 -0.037641490928 0.009327141195 0.403980972432 0.902338509187 0.389345471126 0.905491255901 -0.039109578634 0.030068568683
3.960133333000 -0.038689138955 0.009124315534 0.404574514701 0.903033483979 0.389678027580 0.903837380452 -0.039146618663 0.030988581661
3.960555555000 -0.038366276797 0.010017731385 0.404645035476 0.903500419631 0.390475833409 0.903279409938 -0.038843621134 0.029857457741
3.960977777000 -0.037985891617 0.010498697698 0.408579355270 0.903706829262 0.392829003752 0.903037516928 -0.038284096737 0.030511920087
3.961400000000 -0.037692359548 0.010182087448 0.409499842497 0.903664649319 0.393199123280 0.902444393890 -0.039078718886 0.030770898071
3.961822222000 -0.038456401466 0.010376310098 0.410188917926 0.901819853787 0.394347345275 0.901959740094 -0.038430370105 0.031290825068
3.962244444000 -0.037648941048 0.011155359720 0.413263241454 0.902331593631 0.397935704498 0.903397089604 -0.037464172171 0.031771840404
3.962666666000 -0.038102689517 0.011720891966 0.413069058827 0.901098388673 0.397820133962 0.901809930969 -0.037892926213 0.032039570380
3.963088888000 -0.037737556681 0.011551124175 0.414070493629 0.901969318405 0.399045243652 0.901412837003 -0.037558565979 0.031065070557
3.963511111000 -0.037440606367 0.011409197759 0.416884830213 0.899362934037 0.402192535786 0.901257567708 -0.037739833162 0.031235382828
3.963933333000 -0.037882000260 0.012108367833 0.418568274069 0.900652007122 0.403682668957 0.899846922525 -0.036220055817 0.031805202469
3.964355555000 -0.037178268439 0.012406727180 0.420937088953 0.900638718370 0.403735607461 0.902193242664 -0.037072499549 0.031752288273
3.964777777000 -0.037233028628 0.013063513871 0.420272786629 0.901968642950 0.404977496484 0.902131715147 -0.036420937200 0.031303638754
3.965200000000 -0.036547179239 0.012983957296 0.423735422300 0.900996935206 0.407832567380 0.901255601059 -0.036505577511 0.031567191262
3.965622222000 -0.036895488228 0.013799070682 0.424515120609 0.900114402883 0.408051048257 0.901317378105 -0.037180648948 0.032205852685
3.966044444000 -0.035964116405 0.014029316278 0.427920372571 0.898526101036 0.409863305532 0.900707721307 -0.035276288040 0.032130211611
3.966466666000 -0.035133545535 0.013462575093 0.429794578879 0.897953222052 0.411331727565 0.900172429852 -0.036054503167 0.030573035945
3.966888888000 -0.036288480825 0.013831593695 0.430657800434 0.898193927199 0.413620506997 0.900415584694 -0.035834863137 0.032244663622
3.967311111000 -0.035451110676 0.014205672808 0.433306609546 0.896476514085 0.414820456727 0.898534771036 -0.034457208169 0.032117037538
3.967733333000 -0.036179656861 0.014889430998 0.432898404152 0.898455582272 0.416684741484 0.899241356270 -0.035335919840 0.032591709490
3.968155555000 -0.035782514684 0.014284561353 0.435259398027 0.896344661314 0.418858855277 0.897994840889 -0.035332784996 0.031958448809
3.968577777000 -0.035037175334 0.015226616350 0.438011422526 0.897163443365 0.419018308593 0.899161063175 -0.034692242849 0.032453271953
3.969000000000 -0.035130333009 0.014925070306 0.441231141490 0.895794171887 0.423411650055 0.897511864968 -0.034954820625 0.032866989602
3.969422222000 -0.035359615755 0.015752849932 0.441160855391 0.895112744139 0.422645229373 0.897433503371 -0.034030736385 0.032278958307
3.969844444000 -0.033792573413 0.015583764202 0.442118480308 0.894266236764 0.423734322513 0.899149374217 -0.033857151463 0.032093394252
3.970266666000 -0.034803780609 0.015876035464 0.442714207443 0.894519340641 0.427084019401 0.896933348920 -0.033697667947 0.031676373800
3.970688888000 -0.033984323388 0.015841550785 0.444531242216 0.893704909630 0.428137235590 0.895889913472 -0.033241356423 0.031640110535
3.971111111000 -0.033505512834 0.015918993151 0.446469370185 0.893004854122 0.428972127357 0.897043938183 -0.033094911551 0.030864445338
3.971533333000 -0.034013701307 0.016729698304 0.447842754980 0.893805924394 0.429196628794 0.893963199019 -0.032623170136 0.031270092541
3.971955555000 -0.032975095097 0.016586483648 0.451229155191 0.892676553931 0.432290746582 0.896354269376 -0.032598600104 0.031006745569
3.972377777000 -0.032443490592 0.017094216647 0.453353318694 0.890599599290 0.433976130212 0.894553738156 -0.031612501168 0.031484337834
3.972800000000 -0.032408473168 0.016569622992 0.454307809630 0.890609172953 0.434263685163 0.895616751890 -0.032435324439 0.030723840722
3.973222222000 -0.032002934815 0.018256223458 0.456467994798 0.892585032521 0.436435505481 0.895036520530 -0.031354002104 0.031387811904
3.973644444000 -0.032360563017 0.017372179263 0.456555737262 0.890101348157 0.439066941734 0.894241793847 -0.031859634009 0.031856702677
3.974066666000 -0.032778742239 0.017013622788 0.458286376093 0.887791558852 0.441089204080 0.890781676433 -0.031583877092 0.031960966719
3.974488888000 -0.031328133934 0.018048605129 0.460268021548 0.889259532111 0.441540992589 0.894283092794 -0.030908236420 0.031270317089
3.974911111000 -0.030889550061 0.017564455407 0.461460870354 0.887340015028 0.443946752645 0.893877413230 -0.031390283396 0.031742638305
3.975333333000 -0.031945818777 0.017958569476 0.462204743478 0.887556839311 0.444903333737 0.890957167951 -0.031593956119 0.031645439676
3.975755555000 -0.030274595543 0.017393158487 0.466354724073 0.886255025093 0.448636708950 0.891404502060 -0.030979742781 0.030985494686
3.976177777000 -0.030218058113 0.018300298212 0.466389468333 0.886111740276 0.447505628903 0.890957765167 -0.029988749660 0.031229843855
3.976600000000 -0.030509276130 0.018059806595 0.466925413483 0.883588413421 0.450144625601 0.888098943268 -0.028948874346 0.030251357553
3.977022222000 -0.028914756675 0.018087964549 0.471672350200 0.884520411913 0.452296856913 0.890961960229 -0.030099369174 0.029727290757
3.977444444000 -0.029093558050 0.018913952599 0.472811019659 0.884265278879 0.451726588622 0.888974034173 -0.028929006964 0.030095579246
3.977866666000 -0.028544206214 0.018278952458 0.474856910222 0.882965532150 0.454769278452 0.890537274798 -0.029869990145 0.029710258852
3.978288888000 -0.028850729883 0.018332752146 0.475407827991 0.882324810008 0.456296484447 0.888042378603 -0.029150520377 0.030300106818
3.978711111000 -0.028289744148 0.018545817087 0.477134539562 0.880968908213 0.457456157719 0.887239409038 -0.028913268161 0.030297902593
3.979133333000 -0.027588097871 0.017673992405 0.477619924248 0.879312389899 0.460165399502 0.887505390886 -0.028955070262 0.029157894132
3.979555555000 -0.027052336889 0.018403473373 0.480698351736 0.879982578800 0.462735296761 0.888585275926 -0.028967058772 0.029493263552
3.979977777000 -0.027494994722 0.018794161695 0.482473360052 0.879927515428 0.463219528966 0.885019623997 -0.028360548421 0.028975916731
3.980400000000 -0.026554743882 0.018843900104 0.483531751071 0.878314110776 0.464102241620 0.886664873425 -0.028076577203 0.028543016542
3.980822222000 -0.026354934263 0.017964269386 0.485990256494 0.877462359581 0.467221800937 0.885542897939 -0.028868030699 0.028238657979
3.981244444000 -0.026246600567 0.018281387517 0.486996946417 0.876722351644 0.468504288256 0.886064067978 -0.027898165405 0.028978744841
3.981666666000 -0.026959376605 0.018249246369 0.488690702940 0.874269770377 0.471789959779 0.881900900550 -0.028795842698 0.029349269420
3.982088888000 -0.026644959715 0.018538591836 0.488499268630 0.874982203538 0.471484244703 0.881841062729 -0.027942562144 0.028245815664
3.982511111000 -0.024769738990 0.018361475211 0.491477430560 0.874199228154 0.473352298597 0.884485769950 -0.027559761202 0.027611104708
3.982933333000 -0.024949095348 0.017305097961 0.493349783569 0.872649285854 0.475887897671 0.882661401115 -0.027711820876 0.026939036976
3.983355555000 -0.025425447643 0.018056243028 0.493937511603 0.870972133965 0.476959851219 0.879900403034 -0.028294301744 0.027886785581
3.983777777000 -0.025653975555 0.017575394279 0.495974550334 0.870135135115 0.479469779947 0.880655663523 -0.028456942514 0.027829116225
3.984200000000 -0.025005135013 0.018301932718 0.498322856700 0.870796237553 0.481814216816 0.878328075556 -0.027717828100 0.027345750564
3.984622222000 -0.024523303847 0.017984184810 0.498672135602 0.869422409632 0.481445523151 0.877868140358 -0.026966025019 0.027080581806
3.985044444000 -0.025173372853 0.018151538545 0.499960326187 0.868776272374 0.482604524340 0.876843818900 -0.028218687263 0.027432034170
3.985466666000 -0.023381255274 0.018461586925 0.502375234350 0.868417952990 0.483687730289 0.877888496426 -0.026948454252 0.026525523388
3.985888888000 -0.023871149927 0.017019102676 0.503607600717 0.864617583496 0.487846908254 0.875231203989 -0.027829854867 0.026881401296
3.986311111000 -0.023115999566 0.018023225229 0.505343377753 0.865818618835 0.486619761832 0.875066520347 -0.027269470733 0.025952555820
3.986733333000 -0.023392076894 0.016917181616 0.507500262922 0.864154384430 0.492849940818 0.873429717658 -0.027595920332 0.025869224791
3.987155555000 -0.023306900054 0.017851792801 0.508320377067 0.862992190390 0.490074699886 0.872851638861 -0.027346688761 0.025799184703
3.987577777000 -0.022165915587 0.018569629660 0.510626782885 0.864487447370 0.493026814790 0.874986461921 -0.027623605119 0.026441353917
3.988000000000 -0.022541094795 0.016589594060 0.512390802510 0.862484035358 0.496382132866 0.873408865268 -0.028192777872 0.024471504300
3.988422222000 -0.021050066268 0.017362168278 0.513922384504 0.861308649796 0.495929021655 0.872821306158 -0.026555176699 0.024616775333
3.988844444000 -0.021515247837 0.016847446695 0.514331430973 0.859103528655 0.498310591544 0.871108922171 -0.026951697280 0.024807232364
3.989266666000 -0.021389192335 0.016135315808 0.517420814113 0.858620383230 0.500628784098 0.872840350775 -0.027902692935 0.024099300648
3.989688888000 -0.021422139961 0.016686270605 0.518937036289 0.857552934062 0.502534950478 0.869644972968 -0.027600431706 0.024221754073
3.990111111000 -0.020452958155 0.017201293320 0.520761619173 0.857259425158 0.502052883728 0.868921404888 -0.026289690625 0.024329641177
3.990533333000 -0.020891844180 0.016438426781 0.521013153535 0.856756649177 0.503905725816 0.868700244303 -0.027137030449 0.023887683839
3.990955555000 -0.021021809646 0.015642435048 0.523367540035 0.854683148465 0.507860366281 0.866779565711 -0.028424707642 0.023588195844
3.991377777000 -0.020569493688 0.015828909975 0.525311775427 0.853507085922 0.507887100437 0.866861648246 -0.028292557337 0.023429000969
3.991800000000 -0.020426005428 0.015771995231 0.526835563898 0.852551515373 0.510101574928 0.864772875598 -0.027614359658 0.023097287055
3.992222222000 -0.020534190057 0.016322947544 0.526711488415 0.852678021349 0.508488091911 0.863907231929 -0.027269546813 0.023553809262
3.992644444000 -0.020960864670 0.015821100385 0.528366478481 0.850280254522 0.511088541222 0.861455073585 -0.028061917110 0.024220327244
3.993066666000 -0.019801283237 0.015176867486 0.530486806709 0.849586196487 0.514108205879 0.863630729906 -0.027614592846 0.023391543776
3.993488888000 -0.020178632864 0.015088960921 0.531303476634 0.847818433822 0.516751393273 0.860805139624 -0.028745769664 0.023655564046
3.993911111000 -0.019286668272 0.015756769327 0.532326571862 0.849124988106 0.515988712457 0.860295741694 -0.027229205606 0.023241958497
3.994333333000 -0.018790699899 0.013371760229 0.535184546936 0.846119282374 0.519032473860 0.863192504253 -0.028073172420 0.020644165206
3.994755555000 -0.019755573925 0.015120745570 0.534890105974 0.845189029605 0.519403955122 0.857964973256 -0.027928438306 0.022808919228
3.995177777000 -0.018745198120 0.014371038280 0.537616514063 0.845395196859 0.521470749294 0.860168290431 -0.027607432572 0.021581757179
3.995600000000 -0.019236547318 0.014098262760 0.538752545820 0.843580452622 0.523672219560 0.857655549622 -0.028570086988 0.021645817590
3.996022222000 -0.019576958293 0.013948993792 0.538342013222 0.841638405944 0.524580202000 0.854848558934 -0.028180126897 0.022533522024
3.996444444000 -0.018686191938 0.014541134380 0.541551851064 0.842617999128 0.524422868596 0.856539875125 -0.028091463413 0.022045421369
3.996866666000 -0.019590038079 0.015125074552 0.542541463220 0.841696227814 0.526653599268 0.854587854534 -0.028731784734 0.021751290814
3.997288888000 -0.018854072654 0.014726053985 0.543401254365 0.840108007667 0.527185229335 0.852936632730 -0.028056077701 0.022070817520
3.997711111000 -0.018871546123 0.013424067135 0.546152282144 0.839346006569 0.531319167871 0.852377289779 -0.028643407787 0.020968307558
3.998133333000 -0.018784431144 0.013720178089 0.545511500544 0.837370165572 0.531747637670 0.850430717566 -0.028157905253 0.021678798790
3.998555555000 -0.018835402307 0.012989877514 0.548463553953 0.835642850493 0.536484747311 0.848981790728 -0.029681660460 0.021338620430
3.998977777000 -0.018695542103 0.013981341782 0.548455599455 0.835534715159 0.532605829483 0.847574286918 -0.028269666120 0.021802724933
3.999400000000 -0.020064758351 0.013115871018 0.554804327323 0.835235462693 0.538278838569 0.842069428588 -0.030332577610 0.021138991501
3.999822222000 -0.018191682492 0.012303494208 0.552414408699 0.833283641094 0.538534503963 0.846463056369 -0.028495144099 0.020651805905
4.000244444000 -0.017661630591 0.012729299575 0.553257871760 0.832717033556 0.541111383640 0.846935445353 -0.028788012040 0.021085509215
4.000666666000 -0.019032061591 0.012350353546 0.554585126482 0.831133619689 0.540169325432 0.844038644315 -0.029276037531 0.020530905482
4.001088888000 -0.017790096330 0.012159939544 0.555602423725 0.830492343630 0.542901651298 0.844007851745 -0.028568205813 0.021006958081
4.001511111000 -0.018603770327 0.012693499481 0.556140179461 0.829029409617 0.543683817729 0.843819432159 -0.029636488565 0.021039901974
4.001933333000 -0.018248836907 0.013027702799 0.557989216257 0.828678334885 0.543555791335 0.841971746375 -0.029596899593 0.020880280746
4.002355555000 -0.017691860430 0.012340990572 0.558829877473 0.825896641926 0.545909877432 0.842225465084 -0.029114421991 0.020957973097
4.002777777000 -0.018792407181 0.011248581796 0.561943450066 0.827431166256 0.550231653306 0.839622145362 -0.029677204444 0.019354737986
4.003200000000 -0.018719842680 0.011549350794 0.563705855746 0.824696983870 0.549679872527 0.836418490576 -0.030216404264 0.020137619170
4.003622222000 -0.018052181015 0.011880881194 0.563458016724 0.824252328272 0.551216774294 0.837289388885 -0.030008509590 0.020999918836
4.004044444000 -0.017855256648 0.010994160668 0.564115338166 0.822805591157 0.553459741369 0.836604240294 -0.029381068787 0.020615747902
4.004466666000 -0.018612694595 0.012126623350 0.564817263203 0.821534352286 0.551290842271 0.835325386405 -0.030278213371 0.021011801449
4.004888888000 -0.018874760915 0.010905646175 0.566396062030 0.821406928225 0.556003053352 0.834188206934 -0.030148677544 0.019705953017
4.005311111000 -0.018548680544 0.011840326484 0.567178190093 0.818369376004 0.553790432453 0.833847493848 -0.029994016066 0.020666246124
4.005733333000 -0.018841175207 0.010824406566 0.568316593853 0.818579933901 0.557557080496 0.833037376812 -0.029819699123 0.020263819118
4.006155555000 -0.018119295491 0.011492905317 0.568865422588 0.817291395039 0.557666137358 0.833359981024 -0.030359778500 0.020919014049
4.006577777000 -0.018796097432 0.010229498201 0.571943562408 0.815586756173 0.559775773446 0.829423130419 -0.030575069014 0.020137194401
4.007000000000 -0.018889743843 0.011492405141 0.577971311167 0.816388856046 0.562169757964 0.824961799796 -0.030905469495 0.021336924331
4.007422222000 -0.018780967878 0.010697732315 0.573398608183 0.813725690451 0.562476965892 0.827439173436 -0.030229905503 0.021066565488
4.007844444000 -0.019752913405 0.010538603909 0.574129660182 0.812876175922 0.563277740650 0.826646274697 -0.030307322801 0.019939587619
4.008266666000 -0.019321329203 0.011002760358 0.577232864085 0.809679088240 0.562757336418 0.824857376065 -0.030838448834 0.020854580888
4.008688888000 -0.019931482503 0.010355246940 0.576296071258 0.809254374609 0.565686540147 0.822862436841 -0.030742244128 0.020803112545
4.009111111000 -0.020530593037 0.009458938640 0.577827305803 0.809726795380 0.569629406425 0.819583751271 -0.031079342873 0.020168717957
4.009533333000 -0.018661457597 0.010258077859 0.579952210318 0.806006614553 0.568186056610 0.823131113186 -0.030750369663 0.021041664356
4.009955555000 -0.019714305248 0.009971397713 0.580118918577 0.804755496953 0.571111960742 0.819235912280 -0.032107122175 0.021234938266
4.010377777000 -0.019781316942 0.010070270601 0.581754705661 0.805949515910 0.572200465485 0.820370099755 -0.031590332316 0.020968102559
