# GHZ S RI R 50.000000000000
3.950000000000 -0.069232210571 -0.332210311515 0.803974542352 -0.341863918499 0.799583124740 -0.334931418652 -0.139584318299 -0.303915115134
3.950422222000 -0.069192582109 -0.331898306355 0.804052290827 -0.342522324362 0.799352977983 -0.336138167061 -0.141543794949 -0.303532772657
3.950844444000 -0.070200712717 -0.331263142857 0.803719042423 -0.342483269399 0.798688593127 -0.338236747045 -0.143370563437 -0.302943922774
3.951266666000 -0.070285321570 -0.330601459727 0.803887822127 -0.343260875975 0.799139186554 -0.338092195430 -0.143224515374 -0.302360090784
3.951688888000 -0.071464425646 -0.330182611416 0.802919080565 -0.344208231470 0.799172223591 -0.339149932097 -0.143824492864 -0.301494985059
3.952111111000 -0.072195856601 -0.329369649198 0.802379353966 -0.347646965490 0.796341855500 -0.339009150379 -0.145131722213 -0.299886623664
3.952533333000 -0.072210827560 -0.329743436252 0.802064586872 -0.348245904843 0.797761151785 -0.341094384309 -0.145560235561 -0.299771708114
3.952955555000 -0.072135605576 -0.329513539421 0.801356571029 -0.349750158523 0.799666209368 -0.341265730079 -0.145042121735 -0.300025894116
3.953377777000 -0.072908344453 -0.328911217565 0.800790705690 -0.351917447470 0.796774493784 -0.343163453875 -0.146313712037 -0.297974649784
3.953800000000 -0.073332376647 -0.328824266235 0.800657352900 -0.353988419654 0.794848799603 -0.345698704880 -0.148067666235 -0.297283506868
3.954222222000 -0.073852864160 -0.327956336934 0.800459722801 -0.354154895302 0.797196758622 -0.345866544540 -0.146568486674 -0.298218073175
3.954644444000 -0.074451980268 -0.327933052017 0.799588132245 -0.355668431173 0.795992345655 -0.348633541153 -0.147968426176 -0.296900429277
3.955066666000 -0.074245787489 -0.327095835209 0.799591434138 -0.356839115248 0.794425459884 -0.347778263623 -0.147587673962 -0.295310525348
3.955488888000 -0.074749566423 -0.326971004868 0.798549640198 -0.358535877042 0.795836193515 -0.349204242898 -0.147751404445 -0.295923129785
3.955911111000 -0.074685345154 -0.326721909659 0.798277124204 -0.359246135014 0.796627373509 -0.350107612516 -0.147726027639 -0.295445013230
3.956333333000 -0.074972410557 -0.325551543105 0.798689667369 -0.361412820744 0.794172728881 -0.352753053439 -0.149240802639 -0.294851525837
3.956755555000 -0.075916051592 -0.325434913662 0.797949825407 -0.363059005662 0.792236489410 -0.353774594222 -0.149770276269 -0.293320103895
3.957177777000 -0.075687271297 -0.325131862971 0.798060439050 -0.363197709900 0.792756340419 -0.355299424541 -0.149527868311 -0.292981100486
3.957600000000 -0.076434183558 -0.325648190968 0.796882233114 -0.365462855405 0.793586782300 -0.356926062729 -0.150075280761 -0.292802066434
3.958022222000 -0.075999209129 -0.324618633092 0.796581041978 -0.366714017612 0.793330004922 -0.356121820312 -0.149980078174 -0.292197490464
3.958444444000 -0.077073240385 -0.324470838835 0.795872545195 -0.367652915747 0.793350518509 -0.360825720805 -0.151723034634 -0.291743648922
3.958866666000 -0.077290679176 -0.324002590488 0.795512619108 -0.369779990606 0.790941814788 -0.359653988930 -0.151264820448 -0.290896220876
3.959288888000 -0.077843211084 -0.323057078607 0.796211828557 -0.370067159580 0.790592945837 -0.361721815334 -0.151424149548 -0.290520128361
3.959711111000 -0.077587969417 -0.323380171107 0.795776105493 -0.371727896702 0.792240341915 -0.362983677205 -0.151215891596 -0.290229896539
3.960133333000 -0.078309548586 -0.322619190812 0.794888682512 -0.373876988533 0.789617318981 -0.364973001965 -0.152150734888 -0.289339788929
3.960555555000 -0.078624165640 -0.322892748581 0.794733044347 -0.375182063114 0.789140326287 -0.364755519809 -0.152174601790 -0.287911663310
3.960977777000 -0.079489673894 -0.322019079312 0.794122814928 -0.375985691996 0.787490309399 -0.368227329084 -0.153688982946 -0.286650880416
3.961400000000 -0.078504399057 -0.322908527914 0.792644779133 -0.378459429373 0.790234782905 -0.367705418795 -0.153617574469 -0.287173216390
3.961822222000 -0.079776453110 -0.321900608480 0.793228389582 -0.378881599665 0.789782961619 -0.371390406350 -0.153878563511 -0.287328046561
3.962244444000 -0.079502674381 -0.321935925990 0.792882651777 -0.381156889678 0.791127958775 -0.370685601196 -0.153411408493 -0.287722989086
3.962666666000 -0.079825198621 -0.320522147429 0.792296388971 -0.382344268137 0.789075648894 -0.372182463009 -0.154806609964 -0.286809153196
3.963088888000 -0.080216047381 -0.320579665671 0.791846231274 -0.383236545610 0.787878129334 -0.373561351305 -0.154700808329 -0.285628634851
3.963511111000 -0.080520262026 -0.320531031115 0.792141487998 -0.384750086776 0.787719911303 -0.375069869237 -0.154556657111 -0.284827672480
3.963933333000 -0.080482777147 -0.320572117594 0.791684370960 -0.386505788436 0.788846013999 -0.376873823537 -0.155453481290 -0.285106534541
3.964355555000 -0.081542216645 -0.319922734073 0.789795865643 -0.387655236218 0.786155707238 -0.377559961210 -0.155267656434 -0.283466286618
3.964777777000 -0.081529425646 -0.319876417333 0.790397607393 -0.388826773295 0.788150439618 -0.380051573103 -0.155817529907 -0.283604141018
3.965200000000 -0.082330551843 -0.318836946619 0.789272294154 -0.390335373884 0.784414789083 -0.380561930956 -0.155949864525 -0.281565896983
3.965622222000 -0.083198406742 -0.318201543054 0.789408223088 -0.390294416614 0.784672303680 -0.383032809096 -0.156493579942 -0.281606716733
3.966044444000 -0.082508207107 -0.319314544540 0.789126345340 -0.392794254537 0.787200799817 -0.383513033354 -0.156734029675 -0.281759580326
3.966466666000 -0.083203863459 -0.317777445197 0.787847159354 -0.394123450292 0.784677742354 -0.387065422871 -0.158602669140 -0.280679390366
3.966888888000 -0.082997613353 -0.317394942794 0.788241134312 -0.395825993880 0.783787450266 -0.385075105919 -0.156675644700 -0.280271378120
3.967311111000 -0.083480384113 -0.317411630051 0.788262346651 -0.397775726086 0.783671954873 -0.386648884246 -0.157483599127 -0.279930623119
3.967733333000 -0.083286487069 -0.317646096433 0.787420792839 -0.398684517842 0.784954285643 -0.386601453636 -0.157270958288 -0.279790355048
3.968155555000 -0.083536984090 -0.317475906277 0.787101542488 -0.400070185783 0.785968427135 -0.387214137118 -0.156968177881 -0.279934102397
3.968577777000 -0.084431826326 -0.316526618773 0.786037955138 -0.401312521595 0.782784015451 -0.388585118813 -0.157387901825 -0.278369845829
3.969000000000 -0.086112689926 -0.315709169586 0.785819249069 -0.399746628446 0.778156892060 -0.391709042893 -0.157378790224 -0.276111630579
3.969422222000 -0.086345834914 -0.315591237454 0.784997455908 -0.403916027001 0.781149208404 -0.394043826192 -0.158469442809 -0.276948558020
3.969844444000 -0.085147311421 -0.315917628006 0.784902187409 -0.406349021878 0.780851655220 -0.392431196702 -0.158116447448 -0.276008850687
3.970266666000 -0.085896522741 -0.315502181598 0.785075056347 -0.406908419924 0.781933147610 -0.394872485957 -0.158651849339 -0.276284345718
3.970688888000 -0.086272928353 -0.315195346452 0.784501078176 -0.408218829848 0.780252973603 -0.397919290123 -0.159542070129 -0.275470034823
3.971111111000 -0.086557114912 -0.315138781529 0.783665952304 -0.410191606224 0.781612043518 -0.397506988758 -0.159507929929 -0.275193710525
3.971533333000 -0.086824030026 -0.314221043549 0.783488633662 -0.410940216679 0.780520496128 -0.399868835235 -0.160076480336 -0.274458380251
3.971955555000 -0.087468580931 -0.313996728944 0.782548585576 -0.412615677112 0.780101247849 -0.401476082271 -0.160512360992 -0.274076791029
3.972377777000 -0.087549972052 -0.314113378232 0.782610739362 -0.414162015773 0.778679517458 -0.401551768214 -0.159815187645 -0.273370394623
3.972800000000 -0.088018837214 -0.313655991917 0.782644811690 -0.414404926153 0.779750321767 -0.403087705141 -0.160135626585 -0.273248048993
3.973222222000 -0.087758687209 -0.312673597917 0.780825619757 -0.416280775790 0.777791931045 -0.403770624584 -0.160507669448 -0.271537480398
3.973644444000 -0.088826989688 -0.312866204814 0.781605738407 -0.418075023980 0.778274396226 -0.406189875583 -0.160919094012 -0.271982901102
3.974066666000 -0.089528203673 -0.312537293091 0.780587857467 -0.419432433305 0.777871661989 -0.408498533923 -0.161633585308 -0.270397682056
3.974488888000 -0.089321623810 -0.311926820813 0.780114221240 -0.421041579637 0.777811426671 -0.408765592145 -0.161831560560 -0.270930711762
3.974911111000 -0.090158109928 -0.311593497910 0.779297609865 -0.422109702675 0.776061085302 -0.409297792026 -0.161634728387 -0.269857636056
3.975333333000 -0.089974207357 -0.312349581114 0.779658891924 -0.423706401486 0.777784676017 -0.411064353713 -0.161976154044 -0.270027714528
3.975755555000 -0.090706340226 -0.311760206380 0.779001635504 -0.425746974039 0.777824889738 -0.411616357138 -0.162089692742 -0.270038875940
3.976177777000 -0.091010413461 -0.311260568025 0.778786525317 -0.426848223038 0.776517744048 -0.413957055790 -0.163174256357 -0.268823312367
3.976600000000 -0.092263893050 -0.311622038821 0.778596908073 -0.427100250846 0.775704044500 -0.415610549389 -0.161891848655 -0.268569406052
3.977022222000 -0.092337882141 -0.310635967991 0.776296787750 -0.429883183770 0.775261223938 -0.417655326617 -0.163750051353 -0.267237444059
3.977444444000 -0.092213004994 -0.310305896930 0.777075624622 -0.430182929705 0.774296582217 -0.417138202482 -0.162872036226 -0.267639516373
3.977866666000 -0.092697715217 -0.310419598789 0.775778454204 -0.433442731799 0.774787396444 -0.420760365490 -0.164401535764 -0.266182014021
3.978288888000 -0.092488973859 -0.309707999730 0.775333182908 -0.433719062385 0.774711809317 -0.420798906362 -0.163953105764 -0.266129908195
3.978711111000 -0.093662557742 -0.309584110567 0.775330945153 -0.434801977795 0.774246872144 -0.423044119566 -0.164578497820 -0.265443531480
3.979133333000 -0.093820701846 -0.309306143920 0.774490257159 -0.436017958601 0.772238999783 -0.423926175923 -0.164146130629 -0.264264039973
3.979555555000 -0.094016159945 -0.309035683880 0.773918880665 -0.437932411054 0.774517154293 -0.425910214592 -0.165591061093 -0.264583703255
3.979977777000 -0.094585158329 -0.308469481995 0.773644946957 -0.439117129878 0.772452111687 -0.426899071012 -0.164826399434 -0.263972695064
3.980400000000 -0.094686549619 -0.308291124631 0.773581605604 -0.440092861592 0.772712761721 -0.428174150445 -0.165237707657 -0.264002870925
3.980822222000 -0.095795783373 -0.308047176064 0.772380973164 -0.442348176062 0.771935751047 -0.430087916418 -0.165812820923 -0.262547754360
3.981244444000 -0.095746421191 -0.307583413840 0.771799788740 -0.444137288459 0.771923956047 -0.431802090926 -0.166293689001 -0.261970991989
3.981666666000 -0.096910353273 -0.307723779497 0.771725983406 -0.445346965242 0.772745575226 -0.433542672187 -0.165598606720 -0.262652736790
3.982088888000 -0.096732005845 -0.306440447626 0.771155167487 -0.447007783901 0.769177967934 -0.434861351287 -0.166649587047 -0.260700502084
3.982511111000 -0.097236745928 -0.306343323930 0.770045798306 -0.448795177973 0.770601344344 -0.435275550230 -0.167098600253 -0.260980471231
3.982933333000 -0.097253463719 -0.306769476431 0.770071120928 -0.449156779968 0.770237575637 -0.437305414602 -0.166505074551 -0.260245876322
3.983355555000 -0.098234473015 -0.305827726622 0.769506565839 -0.451352162533 0.768515910015 -0.438367265278 -0.167130624222 -0.259664463279
3.983777777000 -0.098607596209 -0.306025394935 0.768958696888 -0.453164712575 0.770288789851 -0.439749760630 -0.167422906556 -0.259462109683
3.984200000000 -0.096955538201 -0.304511712901 0.770648377114 -0.451563388313 0.767106937905 -0.436786682740 -0.165670466002 -0.260539216215
3.984622222000 -0.099155561436 -0.304672063784 0.768749173260 -0.454668029286 0.766718250781 -0.441691302050 -0.167219376984 -0.257894980215
3.985044444000 -0.099556258109 -0.304339788649 0.767678537745 -0.456428296637 0.767039127692 -0.443180919576 -0.168019271663 -0.257679260355
3.985466666000 -0.100096030126 -0.304284328570 0.767732985419 -0.458293366480 0.766530063255 -0.445436157949 -0.167868543061 -0.256921366152
3.985888888000 -0.100561162005 -0.303596487214 0.764962553432 -0.459074444520 0.765245277500 -0.448454207485 -0.168665008333 -0.255806810866
3.986311111000 -0.100742040941 -0.304076913563 0.766285481888 -0.460663327283 0.767413503831 -0.446860792397 -0.168201368171 -0.256466972081
3.986733333000 -0.100905627601 -0.303066136359 0.767148149848 -0.461280676989 0.765325978278 -0.447419459892 -0.167723929126 -0.256049128534
3.987155555000 -0.101802137396 -0.303253570327 0.764652561486 -0.463006831186 0.764518592160 -0.451022687360 -0.169018946175 -0.254871645596
3.987577777000 -0.101996950645 -0.302881458267 0.765128182828 -0.464852199225 0.764634748096 -0.451285830526 -0.169031160320 -0.254931330256
3.988000000000 -0.102202020907 -0.302363390687 0.764373112735 -0.465725983514 0.764276948273 -0.452455596185 -0.169022735203 -0.254175285561
3.988422222000 -0.102853582974 -0.302433852297 0.763702608617 -0.466525508057 0.764631857554 -0.454554627767 -0.169416788832 -0.254230563668
3.988844444000 -0.103203154382 -0.301877446156 0.762662983219 -0.469639584667 0.762781683633 -0.455191158798 -0.169345427202 -0.252659619402
3.989266666000 -0.104002916520 -0.301775496932 0.761528966483 -0.471504775281 0.765110831451 -0.458880058787 -0.170782342336 -0.252576728772
3.989688888000 -0.104137006156 -0.301303939932 0.760377132793 -0.471738745025 0.763672064287 -0.459033395897 -0.170727608454 -0.252493331940
3.990111111000 -0.105519258750 -0.300918159293 0.759523670960 -0.475838469906 0.763827939730 -0.463313532684 -0.171798464452 -0.251957606125
3.990533333000 -0.105200864494 -0.300634615259 0.760510487107 -0.474056416623 0.761377753245 -0.461416997251 -0.170546068497 -0.251254242195
3.990955555000 -0.106093861975 -0.300266664000 0.759941001531 -0.477405787483 0.761580560675 -0.464232392683 -0.171479154159 -0.250627641370
3.991377777000 -0.106176826556 -0.299919250333 0.759790653642 -0.476875395576 0.761233906789 -0.465332203796 -0.171140559714 -0.250710404317
3.991800000000 -0.106337202900 -0.299126252208 0.757302734470 -0.478908522311 0.759678926356 -0.466431588057 -0.171597672028 -0.250096775271
3.992222222000 -0.106689374661 -0.299135418080 0.757571061042 -0.480971992576 0.759964884442 -0.468331654347 -0.171914325733 -0.248817284978
3.992644444000 -0.107541053768 -0.298803246275 0.756579300932 -0.481755714631 0.758741303248 -0.469959028664 -0.171652690537 -0.248227356789
3.993066666000 -0.108308463567 -0.298703807082 0.755223645979 -0.484187807641 0.760729955825 -0.472517546516 -0.172792628429 -0.248008786232
3.993488888000 -0.108447776397 -0.297759619281 0.755404732531 -0.485437306270 0.757847854395 -0.471348926520 -0.172221668379 -0.247708897987
3.993911111000 -0.109367476226 -0.297319615300 0.755234763103 -0.487687270628 0.758464460626 -0.475596894183 -0.173465597463 -0.246993247918
3.994333333000 -0.109443087283 -0.295551155104 0.751559919871 -0.489011531782 0.755006065966 -0.478139140563 -0.174366639957 -0.245404124406
3.994755555000 -0.110266946575 -0.297124727101 0.753020647574 -0.490044725317 0.756857593335 -0.478343826634 -0.173315111354 -0.245614222245
3.995177777000 -0.110704945706 -0.296648011207 0.753417152301 -0.493498535814 0.755780151815 -0.478325547362 -0.173820583551 -0.245025002483
3.995600000000 -0.111365966734 -0.296880734944 0.753532182312 -0.495449981196 0.757992678586 -0.480703415004 -0.174599179005 -0.245203091530
3.996022222000 -0.111390056053 -0.295523992395 0.751100156615 -0.494058316639 0.753810976856 -0.482288959227 -0.173460617436 -0.243510475451
3.996444444000 -0.111699775295 -0.295452201883 0.750540518717 -0.495346795238 0.755359243968 -0.483096834176 -0.173861688042 -0.244087929598
3.996866666000 -0.111646619047 -0.295407952985 0.750671551077 -0.496696780628 0.755237065473 -0.483588657766 -0.174174589153 -0.244351904352
3.997288888000 -0.113103425334 -0.294511275265 0.748760912764 -0.499018051252 0.752813458649 -0.486774414623 -0.174490159635 -0.242260932625
3.997711111000 -0.114256927084 -0.294605607782 0.747554814688 -0.500961553740 0.755318037046 -0.490014262270 -0.175090403711 -0.242644482621
3.998133333000 -0.114605384980 -0.293568056642 0.748693039491 -0.502347974960 0.752349438439 -0.489597310825 -0.175223660677 -0.241375802018
3.998555555000 -0.114178380307 -0.293123413169 0.746682502362 -0.503615676890 0.751092361538 -0.490990550695 -0.175179640255 -0.240873625095
3.998977777000 -0.115558053761 -0.293272677388 0.746837646071 -0.504817413248 0.751659608235 -0.493046538819 -0.175808960427 -0.240832967688
3.999400000000 -0.115700206755 -0.293296316737 0.743959737885 -0.507004925736 0.751294246103 -0.495459120656 -0.176531271845 -0.239446036262
3.999822222000 -0.115789986727 -0.291966083883 0.743761391162 -0.509787453070 0.748875033422 -0.495190785551 -0.175828505310 -0.239098934810
4.000244444000 -0.117096274081 -0.291746926491 0.744948119647 -0.509987130385 0.750655023129 -0.498191174581 -0.176261306355 -0.239220323143
4.000666666000 -0.117772506818 -0.291804121903 0.744886919006 -0.510457289190 0.748956650592 -0.501724010233 -0.177536331335 -0.238666060586
4.001088888000 -0.117665824544 -0.290984636544 0.745103416455 -0.514517886739 0.749369536109 -0.501355331655 -0.177543361537 -0.238214616337
4.001511111000 -0.117154117196 -0.290697352416 0.740990612977 -0.512658580957 0.748215342825 -0.500544469722 -0.176334627850 -0.237126143321
4.001933333000 -0.118735030274 -0.289719751509 0.737999651343 -0.516710929822 0.746182230365 -0.503996776237 -0.177267859291 -0.236589731630
4.002355555000 -0.119047345292 -0.289134673010 0.741413164288 -0.516987087390 0.745318408742 -0.506788710839 -0.177896489499 -0.236105082434
4.002777777000 -0.119107857609 -0.288911117036 0.738519298456 -0.516589000983 0.745790965809 -0.506098802608 -0.177251708754 -0.236120969401
4.003200000000 -0.119480821638 -0.288371260705 0.738244204602 -0.521931073370 0.744827873618 -0.507281481316 -0.177662904965 -0.234044859300
4.003622222000 -0.121181132648 -0.288359541346 0.738385968914 -0.520583309502 0.746253761218 -0.511240332458 -0.178014281158 -0.235653902789
4.004044444000 -0.121819830514 -0.287385388110 0.736945945524 -0.524649433575 0.743598851882 -0.511964652624 -0.179013805635 -0.233870454141
4.004466666000 -0.121551259712 -0.287639335102 0.736386754233 -0.526369255179 0.742556675480 -0.514237324182 -0.178779661565 -0.233698671914
4.004888888000 -0.122563259914 -0.286510985637 0.736619259050 -0.527320700466 0.742293392643 -0.514368302395 -0.178629452573 -0.233463174130
4.005311111000 -0.122982556397 -0.286272801074 0.733835344316 -0.527991718340 0.740352376293 -0.517596028229 -0.179154480954 -0.231910684560
4.005733333000 -0.123085382306 -0.285661017601 0.733624564241 -0.529233876632 0.739648760093 -0.519748331454 -0.179495781648 -0.231215437117
4.006155555000 -0.123633904008 -0.285056722432 0.730944040966 -0.531972583386 0.740052666819 -0.520497673001 -0.179362051527 -0.231054466364
4.006577777000 -0.124159471340 -0.284391122300 0.730600954790 -0.532941373694 0.738091746440 -0.521382970053 -0.179135122585 -0.230223642498
4.007000000000 -0.121516117267 -0.283771371088 0.727810137942 -0.533029547665 0.738866181183 -0.518737791903 -0.178001352083 -0.227515564667
4.007422222000 -0.125991144732 -0.284075473111 0.731490953975 -0.534954008415 0.739257532547 -0.526314356743 -0.180964105111 -0.230432724637
4.007844444000 -0.125657624894 -0.282591679371 0.729802195048 -0.539850149477 0.735064178541 -0.525807610353 -0.180815438515 -0.227614043974
4.008266666000 -0.125046405607 -0.283613519012 0.730514715491 -0.534111684273 0.737135744509 -0.526067112240 -0.179655870678 -0.230008968937
4.008688888000 -0.126336839427 -0.281715695975 0.727051518723 -0.538007361886 0.734951637777 -0.529135011536 -0.180050373244 -0.228335509656
