# GHZ S RI R 50.000000000000
3.950000000000 -0.031293295239 0.001418350037 0.386744672930 0.897376806697 0.382562031141 0.895125144151 -0.028317775285 0.021422792622
3.950422222000 -0.032903405354 0.001734724187 0.384019937973 0.898049256564 0.380361513496 0.896355651411 -0.030531109470 0.021607326690
3.950844444000 -0.033192264801 0.000636159049 0.386791989419 0.897148485999 0.383416943553 0.894710989292 -0.029762042133 0.022399540321
3.951266666000 -0.033928966325 0.000677230461 0.385398458271 0.898544638635 0.383010047292 0.895720998346 -0.030648268555 0.022706468284
3.951688888000 -0.034466062070 0.001853611799 0.386682730541 0.897939096469 0.384024323116 0.895796476648 -0.030155655044 0.023711120582
3.952111111000 -0.033880367038 0.002445803387 0.390752281883 0.898475826451 0.384917746140 0.895068517128 -0.030106998401 0.024083120866
3.952533333000 -0.034168892943 0.000868977412 0.391956542632 0.895207774362 0.386503982965 0.894237684238 -0.030271751310 0.023612682969
3.952955555000 -0.034544768033 0.002490608743 0.392672882030 0.897800506130 0.387511247017 0.896953680524 -0.030514991422 0.025014486316
3.953377777000 -0.033986144162 0.001999673696 0.393433654715 0.894838189797 0.387635493633 0.893206559353 -0.029901966759 0.023129347905
3.953800000000 -0.035963689022 0.002856394438 0.393172878176 0.898576494080 0.386642615932 0.891343956600 -0.031018187318 0.024492911531
3.954222222000 -0.034525005770 0.003141294982 0.397258148845 0.897794760124 0.391098201345 0.893240912948 -0.029268398266 0.025605986628
3.954644444000 -0.033974483303 0.003035718741 0.399985630484 0.895665990041 0.393359854383 0.894697629273 -0.029589417809 0.025068900163
3.955066666000 -0.034956778834 0.003679845932 0.398626758379 0.896217742396 0.391996978262 0.893362021692 -0.029334129121 0.025106718596
3.955488888000 -0.034772543527 0.003386482787 0.401205826317 0.893748910898 0.393919545865 0.892490491568 -0.029304646931 0.025138865719
3.955911111000 -0.033689135882 0.004165722308 0.402266967303 0.896264580691 0.396558888565 0.893698145310 -0.028493497031 0.025929706920
3.956333333000 -0.034183291464 0.004193513281 0.403876452626 0.893294684849 0.396024491990 0.892916877032 -0.028977277211 0.024040371410
3.956755555000 -0.034645987303 0.005024639748 0.406609896901 0.893779028483 0.398936809558 0.891397040159 -0.028086904915 0.025984159522
3.957177777000 -0.034767341221 0.004519418106 0.405606840931 0.894208116225 0.398557609969 0.891843056450 -0.028123844485 0.025103878314
3.957600000000 -0.034529767818 0.005394394336 0.409818111449 0.892724753443 0.401780273243 0.893746143760 -0.028219048778 0.026022595419
3.958022222000 -0.035271930749 0.005577322016 0.407440089332 0.892975997159 0.399269321878 0.891110519332 -0.028229638287 0.025264116882
3.958444444000 -0.033611797902 0.006759112595 0.411184456636 0.893079073567 0.404607812162 0.892647278373 -0.027182422698 0.026582923840
3.958866666000 -0.034776642415 0.007956195376 0.412564301728 0.896148491469 0.402663382598 0.893220312931 -0.028640571278 0.027584038312
3.959288888000 -0.035117110646 0.007496404785 0.411419898078 0.894817369144 0.406300689099 0.890887567984 -0.027336190642 0.027489197604
3.959711111000 -0.033828244645 0.007812925782 0.416218788441 0.892794249387 0.408309367307 0.893553929029 -0.027637338889 0.026462850998
3.960133333000 -0.033421878935 0.008309902313 0.418501942153 0.893638996554 0.410214859030 0.890981234587 -0.027127492166 0.026442656897
3.960555555000 -0.034906456204 0.009008229208 0.417606603685 0.894886542356 0.409053060039 0.891310007885 -0.026961791191 0.027616091079
3.960977777000 -0.033963452372 0.009277997375 0.419256453117 0.892634842053 0.412182483212 0.890975794026 -0.026013588523 0.027789864575
3.961400000000 -0.032876598199 0.009030399313 0.421601474715 0.892654137211 0.411576894665 0.889171128087 -0.025869003657 0.026740909363
3.961822222000 -0.033264632789 0.008524840474 0.422756422360 0.892076053187 0.415617956842 0.890272445085 -0.026034075739 0.026969366352
3.962244444000 -0.032746718839 0.009566856717 0.423277032004 0.892559702230 0.417299675117 0.889573167220 -0.025938398469 0.027326220546
3.962666666000 -0.033339696208 0.010508611589 0.427180278682 0.891290406742 0.418201939979 0.889308702818 -0.024701873663 0.027879123914
3.963088888000 -0.033127477150 0.010883520401 0.427460518914 0.891484747700 0.420243366251 0.889994307771 -0.025285382567 0.028250635168
3.963511111000 -0.032737788020 0.010334265443 0.429701589076 0.891483361777 0.421913898798 0.888909430144 -0.024665252742 0.026919983505
3.963933333000 -0.032324562157 0.009215547033 0.431064313468 0.887757969267 0.423887865580 0.889056968256 -0.025493032887 0.026651562896
3.964355555000 -0.032899861241 0.010687083058 0.432280779522 0.889784007966 0.423839924736 0.887861952425 -0.025123104030 0.027687893707
3.964777777000 -0.031805182888 0.011281720189 0.433469302633 0.890822398416 0.426143665948 0.890833204733 -0.024431212241 0.027060733293
3.965200000000 -0.031903232652 0.011475178239 0.436939108011 0.889002540840 0.427441313607 0.887345012488 -0.023925574166 0.027170415059
3.965622222000 -0.031714796313 0.011834356978 0.439464876817 0.888285170978 0.429369269253 0.887910629624 -0.023109732661 0.027865424523
3.966044444000 -0.030736194191 0.011940524436 0.440129005373 0.888598130418 0.431509488834 0.888311102775 -0.023311778617 0.027294374415
3.966466666000 -0.031375494104 0.012882993338 0.441191370349 0.887301632169 0.432742473464 0.886698807343 -0.022659672330 0.027961874396
3.966888888000 -0.030996553809 0.012030300787 0.441865541049 0.887533599336 0.433106442121 0.885589665731 -0.023300691911 0.026675912332
3.967311111000 -0.031227904546 0.013252168173 0.444212327968 0.887694667262 0.434641217348 0.887677315061 -0.023173817118 0.027679804433
3.967733333000 -0.031418398709 0.013057951429 0.446268444434 0.887100708235 0.435648184960 0.887675156361 -0.023145775498 0.027650680184
3.968155555000 -0.030472962521 0.013154646250 0.446826512004 0.886393504429 0.435674039578 0.887663911327 -0.022722235859 0.026365172134
3.968577777000 -0.029983590062 0.013924886728 0.449167225291 0.886269468465 0.438898058935 0.885730179167 -0.022558998446 0.028039707239
3.969000000000 -0.030681502099 0.014235102875 0.452545458911 0.888538756799 0.441298030699 0.888340170210 -0.023285603622 0.028919059491
3.969422222000 -0.030182347380 0.013457157065 0.451303209275 0.885526769193 0.442499338997 0.883414432190 -0.021826659605 0.027721720149
3.969844444000 -0.029339452084 0.013762829137 0.455654944067 0.884719529889 0.443091844456 0.884079012641 -0.021148023171 0.026630978634
3.970266666000 -0.029736107231 0.014747888605 0.454198788294 0.884693358055 0.445394158697 0.884144400394 -0.021067030459 0.027371845209
3.970688888000 -0.029087616400 0.014675703333 0.457883150497 0.883936622335 0.447693496679 0.883503640909 -0.021412300786 0.026757047514
3.971111111000 -0.029410716115 0.014665814471 0.457452484357 0.882916441080 0.448081258997 0.883105030004 -0.020978107970 0.026922233764
3.971533333000 -0.029090373467 0.014871095906 0.458758368493 0.883381957951 0.449920257116 0.882047646326 -0.020040261060 0.026547396804
3.971955555000 -0.027886693315 0.015151930329 0.462989904418 0.882110480747 0.451749511665 0.883084796359 -0.020642838407 0.026475873491
3.972377777000 -0.028416872508 0.014764311509 0.464012291322 0.880749750399 0.453256877134 0.881768231097 -0.021029089081 0.025860574074
3.972800000000 -0.027299203851 0.016073648601 0.466728756569 0.881203950041 0.455117708856 0.882866523507 -0.019755158559 0.025729341038
3.973222222000 -0.027093440150 0.016067723464 0.467330876225 0.880034478811 0.455299498667 0.881458506551 -0.019231173830 0.025511529165
3.973644444000 -0.026995034868 0.015112022821 0.468133612220 0.878628195388 0.458798133219 0.880770127065 -0.019733989756 0.025643669954
3.974066666000 -0.026651594878 0.015530913616 0.470964078362 0.877434167165 0.460113789407 0.880686672427 -0.018678774594 0.025535019177
3.974488888000 -0.026273951187 0.015584987988 0.473402197686 0.876957221517 0.462093542311 0.879516042404 -0.019237050724 0.025469965221
3.974911111000 -0.026818637181 0.016155092888 0.473551404577 0.877259919944 0.463321241360 0.878507862012 -0.018843114533 0.026342225793
3.975333333000 -0.025465602393 0.016021457458 0.476637328923 0.876541363808 0.465227158422 0.878932823027 -0.019200538850 0.025264662840
3.975755555000 -0.025952164130 0.016071084378 0.476991171689 0.875341651115 0.465517227322 0.878450070651 -0.019122993333 0.025175637452
3.976177777000 -0.025413100310 0.016559383798 0.478464630989 0.875267231043 0.468565844184 0.878103040960 -0.018811439633 0.025760238337
3.976600000000 -0.024320283771 0.016017084614 0.483088058965 0.875063509826 0.471455635486 0.879207612322 -0.019840270296 0.024815482400
3.977022222000 -0.025246888290 0.016296085353 0.482023332972 0.873196797201 0.471947158638 0.876404745947 -0.019066904149 0.025409430535
3.977444444000 -0.024273399060 0.016762821232 0.486041095094 0.872699210413 0.473382539423 0.876979641956 -0.019145820189 0.024530793440
3.977866666000 -0.024731831849 0.016254454813 0.484422378310 0.871916678712 0.474646883231 0.875646623799 -0.018793573138 0.024134374641
3.978288888000 -0.024020471294 0.016405603317 0.486500029475 0.871276594067 0.476896823081 0.874648926215 -0.018122556537 0.023875781080
3.978711111000 -0.023816078841 0.016192603503 0.487773124958 0.870023815533 0.478484046349 0.874389102713 -0.017720002058 0.024328961756
3.979133333000 -0.023549759689 0.016715794943 0.490307372247 0.870376061292 0.480397091844 0.873227026155 -0.017696581356 0.023814594688
3.979555555000 -0.022408868888 0.016871687369 0.492910274126 0.868441146828 0.481600786653 0.873141931907 -0.017039132073 0.024075164634
3.979977777000 -0.022418974540 0.016679350411 0.493226198527 0.868323413625 0.483614892423 0.872866159447 -0.017677440483 0.023136893953
3.980400000000 -0.022550499323 0.016366977018 0.494467685228 0.866035460134 0.485020206448 0.872040069364 -0.017971714270 0.023005595732
3.980822222000 -0.022008806302 0.016504235221 0.497569398405 0.866120852612 0.486853608056 0.871453278464 -0.017257440523 0.023166731680
3.981244444000 -0.021959558338 0.016352989230 0.497567447749 0.865054065050 0.488399002466 0.870302593131 -0.017077186885 0.022319458513
3.981666666000 -0.021685985175 0.015580586217 0.500067562698 0.863072959574 0.490909600863 0.870387168159 -0.018108789351 0.021811129924
3.982088888000 -0.021840088627 0.016231376957 0.501476009601 0.864275407253 0.491977681630 0.867411827208 -0.017058099805 0.022169269371
3.982511111000 -0.021537216201 0.016311795452 0.502683059390 0.862316461436 0.492454487417 0.867930920809 -0.017105641062 0.022698678746
3.982933333000 -0.020870078079 0.016012570164 0.503810897148 0.861753620302 0.495283895088 0.868412187223 -0.017325275556 0.021168604214
3.983355555000 -0.020886750730 0.016394802752 0.506514161256 0.861024406616 0.495691177741 0.866017245763 -0.016784824201 0.021712584228
3.983777777000 -0.020201748287 0.016013880840 0.507706543010 0.860126036900 0.498240698654 0.866387575095 -0.016619614943 0.020888220966
3.984200000000 -0.020621160544 0.016941884701 0.507946580416 0.861649294137 0.497601545907 0.863978178995 -0.016652583884 0.020765027616
3.984622222000 -0.020048990366 0.016042844330 0.509591200338 0.858296897590 0.500836170509 0.863732267360 -0.016414680555 0.020826074924
3.985044444000 -0.019939745739 0.015901204879 0.511522007732 0.857339655576 0.502588941286 0.862128303855 -0.016201660901 0.021497052183
3.985466666000 -0.019170803088 0.015386224903 0.513794260213 0.855666054904 0.504607338146 0.862394935980 -0.016458873068 0.019957190163
3.985888888000 -0.019784312970 0.015839483854 0.514184022853 0.856478465867 0.505508529977 0.861405213983 -0.016310726692 0.020290074803
3.986311111000 -0.019037142775 0.015749910756 0.516303232630 0.854504832905 0.507058760534 0.861756263999 -0.016091238564 0.020081912554
3.986733333000 -0.019023069148 0.015361979451 0.516772087437 0.853105279745 0.509013661599 0.858346121183 -0.015515229085 0.020008196305
3.987155555000 -0.018711221257 0.015478336731 0.519793852510 0.853221659368 0.511374819203 0.858590852093 -0.016762511006 0.019802048244
3.987577777000 -0.018444663047 0.015372258338 0.521249542240 0.851382550220 0.511678211725 0.857266810998 -0.016251808181 0.019116010939
3.988000000000 -0.017707672466 0.015412358980 0.522046919944 0.850250768759 0.513309817652 0.857794232335 -0.015805070802 0.019565681379
3.988422222000 -0.017596958370 0.015700551354 0.524270814549 0.850354774245 0.515267703810 0.856825304781 -0.016319769010 0.019102633186
3.988844444000 -0.017658826693 0.015023281396 0.525490535891 0.848707260335 0.516268267021 0.855939753126 -0.016101644098 0.018864888801
3.989266666000 -0.017544072977 0.014565306900 0.526654034198 0.848405530214 0.520146838675 0.855411707845 -0.016165249881 0.018135281017
3.989688888000 -0.017018968359 0.015480550056 0.527772746091 0.847009747155 0.519702048099 0.855528413596 -0.016784993325 0.018747329854
3.990111111000 -0.016751913642 0.014133496359 0.530620633406 0.846027136852 0.522880095792 0.854428998936 -0.017087613712 0.017505179052
3.990533333000 -0.016647250654 0.014788295232 0.531609103256 0.845218009778 0.523888603560 0.852160967579 -0.016577331197 0.018411899387
3.990955555000 -0.016070736022 0.014545350288 0.533903948010 0.843769181420 0.525445314016 0.851104620810 -0.016747245780 0.017988216250
3.991377777000 -0.016158675916 0.014314421521 0.534743265261 0.842950627040 0.526955258279 0.850497566962 -0.016694301148 0.017436481456
3.991800000000 -0.016330147027 0.014187946605 0.534852288794 0.840421818008 0.526175515656 0.850716927910 -0.017954058475 0.017536231816
3.992222222000 -0.015331776731 0.013819490692 0.538198814476 0.840312228854 0.530353691063 0.849794048376 -0.016649836818 0.016469349426
3.992644444000 -0.015898728347 0.013672826974 0.539254500111 0.839035238686 0.530712219771 0.848451541217 -0.017274465383 0.016579755590
3.993066666000 -0.015450817160 0.013849262827 0.539863679882 0.839296068577 0.534023006265 0.847985612999 -0.016700610235 0.016921222962
3.993488888000 -0.016031051539 0.013939690868 0.540990190237 0.837488956392 0.533834836917 0.845462156274 -0.017311934450 0.016901092937
3.993911111000 -0.015386424639 0.013225329229 0.542800968484 0.836512310064 0.535184639831 0.845585978246 -0.017096428400 0.016459865593
3.994333333000 -0.016107303570 0.014035857190 0.543376312112 0.837158421186 0.536530694991 0.842627232349 -0.016917171677 0.017100441646
3.994755555000 -0.014991076543 0.013025434427 0.546157669569 0.834114141896 0.538732914037 0.843845195701 -0.017435150209 0.015719175792
3.995177777000 -0.015608175471 0.012931693670 0.547388443583 0.833549522782 0.539591775672 0.841364140166 -0.017792261371 0.015937821864
3.995600000000 -0.014947716274 0.012989606776 0.548663700908 0.833064159182 0.542095744928 0.841577006085 -0.017625077262 0.015150896773
3.996022222000 -0.015180786133 0.012853633995 0.549504659551 0.831629308143 0.542910683976 0.838167799113 -0.017605665672 0.015514277970
3.996444444000 -0.014732191937 0.012326166356 0.551096854759 0.830293457611 0.544006223622 0.839852051339 -0.017531489990 0.015473501191
3.996866666000 -0.014364606399 0.012576528995 0.552622498291 0.829145664453 0.544190586005 0.838929101579 -0.018101694257 0.014927725933
3.997288888000 -0.014369569103 0.012274170427 0.555009517661 0.827910067388 0.547934053121 0.836686398417 -0.018230765540 0.014730539398
3.997711111000 -0.014593500222 0.011827391378 0.554519380769 0.826162512109 0.549174093866 0.837807680323 -0.018495536957 0.014626964638
3.998133333000 -0.014773259061 0.011481656467 0.556480053212 0.825998237738 0.551528333526 0.834713997753 -0.017996846214 0.014943043668
3.998555555000 -0.014959619469 0.012296761143 0.557026968064 0.825808267494 0.550781158950 0.833644814504 -0.018115247616 0.014779254757
3.998977777000 -0.014367758934 0.011868785577 0.559725088569 0.823663127554 0.552655195215 0.832397839252 -0.018904525404 0.014529137898
3.999400000000 -0.014123643422 0.011310115011 0.559974777363 0.822281506584 0.555863987095 0.832495077054 -0.019654440583 0.014831234720
3.999822222000 -0.014985936261 0.011616793358 0.562828650080 0.821534446403 0.554930175966 0.829661112088 -0.019321646298 0.013932347151
4.000244444000 -0.014073087952 0.010864493266 0.562798896168 0.821091227389 0.557970770988 0.830593117968 -0.018182218489 0.013907281800
4.000666666000 -0.014322197397 0.010847239426 0.565135593876 0.820508712432 0.560585745578 0.829384342241 -0.019208290349 0.013802738134
4.001088888000 -0.014309269129 0.011172902881 0.565539673369 0.820613433595 0.559648826273 0.828467788654 -0.018533829279 0.013382395964
4.001511111000 -0.014401726999 0.010616145312 0.566308914631 0.817099165731 0.559253712611 0.825946207214 -0.018474362010 0.014228551007
4.001933333000 -0.015413997851 0.011415579512 0.568510292883 0.814879496805 0.560967975356 0.823316240763 -0.020944021288 0.014093284001
4.002355555000 -0.014532437378 0.010803907137 0.568194480440 0.815750487433 0.564957111522 0.825410364889 -0.019664310215 0.013761781955
4.002777777000 -0.014643417658 0.010387887001 0.569981672595 0.813072378025 0.564105673499 0.822594306636 -0.019785958031 0.013998219480
4.003200000000 -0.014241243428 0.010341864231 0.571788588300 0.812898825350 0.566190907234 0.822864694639 -0.019157065880 0.013725588674
4.003622222000 -0.014721115041 0.010127610711 0.571481844472 0.811865762160 0.569870974116 0.820934313477 -0.020113779210 0.013373242048
4.004044444000 -0.014172031285 0.010511827285 0.574596251211 0.810532640040 0.569480334894 0.820409307549 -0.020471876758 0.014197946461
4.004466666000 -0.015048587765 0.009726332717 0.576022753277 0.811234132454 0.573132659296 0.818917265299 -0.021033717567 0.012263587384
4.004888888000 -0.014964344450 0.009746170273 0.577484188869 0.808628685553 0.571152336885 0.816374515868 -0.020191803996 0.012917164336
4.005311111000 -0.015260119997 0.009240720705 0.578155862992 0.805984348312 0.574051190385 0.815513497211 -0.021409818275 0.012977299775
4.005733333000 -0.014988225731 0.009109454012 0.578315756922 0.807084226732 0.576832233433 0.815308725901 -0.020691936472 0.013063401415
4.006155555000 -0.014906396194 0.009093579410 0.581288512086 0.805121527295 0.577304079007 0.813214275222 -0.020936896495 0.012778144105
4.006577777000 -0.014952176301 0.008972344269 0.581529488234 0.803640613673 0.578572633344 0.812645064287 -0.021089593239 0.012984814502
4.007000000000 -0.014263445000 0.006907646970 0.580576684158 0.800476809930 0.577412791068 0.809975137514 -0.018207368603 0.013299345722
4.007422222000 -0.015185371947 0.008880801871 0.583389856280 0.802291244953 0.581513323515 0.810548209635 -0.021332037585 0.013142119928
4.007844444000 -0.014805126193 0.009016918510 0.585202825908 0.800438622824 0.581850753835 0.809851309879 -0.021278544847 0.013223582147
4.008266666000 -0.014059800016 0.009820773005 0.581630918590 0.802165350472 0.582119342588 0.809140555888 -0.021300583518 0.013578661424
4.008688888000 -0.014286604892 0.009346507510 0.583587342261 0.800085163038 0.584663660372 0.806210025142 -0.021778493672 0.014052456665
4.009111111000 -0.014603670430 0.010160881320 0.583918480053 0.799298606645 0.582857406729 0.806057607850 -0.022023047717 0.014352627296
4.009533333000 -0.014527354677 0.009136852970 0.585178849402 0.799329699970 0.588320120734 0.806199247476 -0.021870893791 0.012714319123
4.009955555000 -0.014369342022 0.008157004978 0.586607053629 0.798673665852 0.589561856891 0.805467144969 -0.020903472083 0.012486007804
4.010377777000 -0.014959598393 0.008536717195 0.587401496417 0.798033977225 0.590380669559 0.804154361833 -0.021861346162 0.012102173318
