# GHZ S RI R 50.000000000000
3.950000000000 -0.033990964492 0.004227190188 0.377262216429 0.905913575835 0.376069509956 0.903482185422 -0.032802111412 0.023295725642
3.950422222000 -0.034076422855 0.004642835871 0.380170081906 0.904169908702 0.376575616443 0.904104544627 -0.033242003300 0.023764856814
3.950844444000 -0.035557698391 0.003175169261 0.377571027693 0.903310835067 0.375660298450 0.901864594895 -0.034672136670 0.023646900825
3.951266666000 -0.035272780062 0.003910759672 0.381265354957 0.905251474116 0.377949908582 0.904663458587 -0.034419142612 0.025046406721
3.951688888000 -0.035964601220 0.004290223166 0.379044274326 0.903183226496 0.377820212824 0.902046589903 -0.034207958759 0.025034094530
3.952111111000 -0.035689201798 0.005084881368 0.383752738231 0.904523416224 0.377850961162 0.901688070550 -0.034173827491 0.025480558503
3.952533333000 -0.035870502973 0.003590767658 0.385683214652 0.901762087289 0.379292444629 0.901952172974 -0.034556962617 0.025173878395
3.952955555000 -0.036149991663 0.004365182361 0.383725407305 0.903201908533 0.380465345993 0.900262643053 -0.034115927929 0.025589796442
3.953377777000 -0.035233331897 0.004812610325 0.388249472052 0.900016375250 0.382370354348 0.901302059591 -0.033825341135 0.025110733357
3.953800000000 -0.036867919658 0.005728385497 0.392277640382 0.903046237525 0.381053593036 0.900475673565 -0.034222986182 0.026045465899
3.954222222000 -0.036291816449 0.005390164433 0.389797412629 0.901579915135 0.384355003165 0.900001390341 -0.033456183520 0.026235195943
3.954644444000 -0.035571407156 0.005189842357 0.392724886287 0.900390049744 0.386677977394 0.900369626715 -0.033453640194 0.025696668329
3.955066666000 -0.035826237757 0.005991334462 0.394572725199 0.902089905277 0.385859863033 0.898567453606 -0.031890093907 0.026121363950
3.955488888000 -0.036243070460 0.006371280586 0.395639741868 0.900735926836 0.387338344031 0.900488338394 -0.033210085087 0.026731069205
3.955911111000 -0.035345878943 0.005857265174 0.397338960955 0.897634541341 0.388842146021 0.900192389646 -0.032104582548 0.025721320888
3.956333333000 -0.035813309007 0.007479965277 0.399120169730 0.903273723838 0.388268151224 0.901101987369 -0.032767389289 0.026215451436
3.956755555000 -0.036235424110 0.007981459286 0.400121517672 0.900376602000 0.392100270099 0.899425581070 -0.032160710004 0.027563458999
3.957177777000 -0.035610247931 0.006952433050 0.400468267009 0.899201181874 0.394183863761 0.898436390140 -0.031274575660 0.026717932768
3.957600000000 -0.036315824847 0.007822183022 0.401825545052 0.899586015681 0.395553681882 0.899377482508 -0.031743348120 0.027624521104
3.958022222000 -0.035790771751 0.008466240594 0.404829947008 0.898505650141 0.395153894190 0.899539712776 -0.030984244248 0.027257275405
3.958444444000 -0.035615183622 0.009183611841 0.402520054842 0.898692610723 0.397329184222 0.899836316818 -0.031512645736 0.027537156452
3.958866666000 -0.035087896566 0.009488904731 0.408669288169 0.898127771012 0.398877427100 0.897775088332 -0.030659309583 0.028357449114
3.959288888000 -0.036215716839 0.010001523086 0.407885491945 0.899261116530 0.399871924493 0.898810087369 -0.030772959202 0.028152464933
3.959711111000 -0.035404091584 0.010054561250 0.409509065735 0.898965718091 0.401493962885 0.898948322909 -0.030483590936 0.027333312694
3.960133333000 -0.034581279131 0.010485857356 0.413822932378 0.898790061299 0.403680547246 0.897090732689 -0.029870990362 0.027176072603
3.960555555000 -0.035630666045 0.011087694014 0.412576685487 0.898463795738 0.405054687629 0.897714739597 -0.029635037218 0.028852767597
3.960977777000 -0.034557485503 0.011686318949 0.415113939705 0.898500900237 0.407723131242 0.897106410717 -0.028401641255 0.029391016336
3.961400000000 -0.035065461370 0.011111828235 0.412839078918 0.898363881908 0.403333689454 0.895168629666 -0.029820906252 0.027132351528
3.961822222000 -0.034179425604 0.010545486536 0.416900683005 0.896829987721 0.410803785392 0.896530503860 -0.028997942016 0.028450589532
3.962244444000 -0.033374224435 0.011266043458 0.419555863565 0.894083032593 0.411794995451 0.896796314816 -0.029062138850 0.027501599766
3.962666666000 -0.034688017091 0.012922503439 0.421960278634 0.897504437795 0.411659318461 0.896430744419 -0.027840781559 0.028925212964
3.963088888000 -0.034306171961 0.013404330489 0.422262339823 0.897284879559 0.414159733073 0.897667595633 -0.028461897603 0.029537258447
3.963511111000 -0.033690772337 0.011927193593 0.424788452418 0.894375845358 0.415373447388 0.894911567420 -0.027411430357 0.027248653909
3.963933333000 -0.033741261765 0.011865682139 0.427111477214 0.895207180485 0.415690905152 0.896431628584 -0.028310604640 0.027382403263
3.964355555000 -0.034238771661 0.013113865685 0.426353983354 0.895186073000 0.417489935074 0.895633395436 -0.028628326598 0.028985610496
3.964777777000 -0.032952312955 0.013361944180 0.428533670619 0.895559026761 0.419621392470 0.897547138678 -0.027375802933 0.027677697110
3.965200000000 -0.032699963272 0.013574964208 0.433126589325 0.892646654422 0.421309533035 0.894849362170 -0.026940902599 0.027740340725
3.965622222000 -0.032718979199 0.014201472433 0.433087892482 0.894867852385 0.424397243056 0.894400954299 -0.025695585755 0.029920054119
3.966044444000 -0.032053745929 0.014103341257 0.434193528813 0.893678435224 0.424812156323 0.895539659483 -0.026370236407 0.028268864354
3.966466666000 -0.032263884550 0.015657408293 0.437168775583 0.894825731441 0.426658955932 0.893998591937 -0.025115880707 0.029324543444
3.966888888000 -0.031445261815 0.014516102730 0.440539779943 0.894433890740 0.425802240406 0.892495926668 -0.024989679259 0.027240232993
3.967311111000 -0.032212470475 0.014822417831 0.439380525234 0.892276879320 0.427939289921 0.893153737769 -0.025238191507 0.028163170337
3.967733333000 -0.032012948772 0.015319370856 0.441780963686 0.892188633418 0.430875665156 0.894998010817 -0.025793715739 0.028990616050
3.968155555000 -0.030545306326 0.015139803236 0.444349485171 0.889895456155 0.430635696596 0.895181020721 -0.025265084191 0.026839695583
3.968577777000 -0.030960892118 0.015900622717 0.444251979602 0.890943165510 0.432627231888 0.892677720829 -0.025001988822 0.028785298630
3.969000000000 -0.034096495914 0.014405057314 0.436665685397 0.891088241297 0.433500554630 0.891447368927 -0.026398393255 0.029531783505
3.969422222000 -0.030781167008 0.015844546613 0.447386882026 0.892201515006 0.436658980222 0.890633693830 -0.023929483520 0.028981103899
3.969844444000 -0.030508611684 0.016166801759 0.449895657517 0.889748563457 0.436804943782 0.893071177226 -0.024766861000 0.027758329339
3.970266666000 -0.030303036771 0.016976712968 0.450332408700 0.890092403491 0.439738736299 0.891710755886 -0.023374317698 0.028486472873
3.970688888000 -0.030329879554 0.016448159005 0.451661378144 0.888058502418 0.441282690478 0.890668394350 -0.024513874253 0.027443422358
3.971111111000 -0.029949375147 0.016886347603 0.453438333432 0.888621525834 0.442346786257 0.890997384360 -0.023499060844 0.027657171975
3.971533333000 -0.029329148058 0.017295342968 0.455585133444 0.888775831576 0.444782942757 0.890608825538 -0.022997601873 0.027760625462
3.971955555000 -0.029223924942 0.016948424716 0.456122652130 0.887405488230 0.445247304707 0.890272983561 -0.023456187136 0.027369504024
3.972377777000 -0.029551250931 0.016766945584 0.457468480136 0.886598815588 0.447826443839 0.888747185478 -0.023694240800 0.027421240591
3.972800000000 -0.028152952293 0.017967291517 0.460873277489 0.886597815308 0.449627146984 0.889792743228 -0.022107670481 0.027193116078
3.973222222000 -0.028519234326 0.018302896636 0.460134039936 0.886457529133 0.448987322202 0.888954629399 -0.022191481295 0.026575970833
3.973644444000 -0.027820572407 0.017415042126 0.463607111507 0.885148485159 0.452757602545 0.888496775702 -0.022130174199 0.026939851427
3.974066666000 -0.027813142640 0.017641314781 0.464265512895 0.884461753612 0.454472563968 0.887934785650 -0.021122737713 0.027138968444
3.974488888000 -0.027684060356 0.017680011867 0.466935827364 0.883773281638 0.455706233843 0.886298470284 -0.021294592466 0.026283077462
3.974911111000 -0.027328947214 0.018072955824 0.468742216211 0.882905568773 0.458041950018 0.886340691750 -0.021561873278 0.027370780519
3.975333333000 -0.026515088011 0.017852339909 0.470609089824 0.881774066954 0.459300701164 0.886218431865 -0.021676068499 0.026177747673
3.975755555000 -0.026185175781 0.018360869406 0.473717107692 0.881411115104 0.460533050001 0.886354153504 -0.021415477190 0.026286573910
3.976177777000 -0.026011903805 0.018581485639 0.473272880962 0.880565893861 0.463211528333 0.886072409682 -0.021624000725 0.027123160151
3.976600000000 -0.025446835907 0.018682413095 0.478321637333 0.882872310590 0.464967727249 0.886976656945 -0.021941049911 0.025347648604
3.977022222000 -0.025943520228 0.018543997280 0.477673987758 0.879766228058 0.466028905633 0.884085134260 -0.021006614830 0.026119503965
3.977444444000 -0.025602701072 0.018000445706 0.478295868205 0.877497821909 0.467385385612 0.884030411459 -0.021719192661 0.025642516947
3.977866666000 -0.025023230546 0.018245173629 0.480434349522 0.877529198975 0.469322648366 0.883666590793 -0.020825090893 0.025134555938
3.978288888000 -0.024281357371 0.018117167175 0.482457813470 0.876195294374 0.471460036691 0.882516922014 -0.020312616216 0.024964839213
3.978711111000 -0.024228801977 0.018234521311 0.483596419435 0.876026835850 0.472833640860 0.882209794748 -0.020160205961 0.025301082700
3.979133333000 -0.024037835019 0.018196196187 0.485396445931 0.875037064722 0.474654440729 0.881270396966 -0.020125138568 0.024610429581
3.979555555000 -0.023538605225 0.018427648665 0.486235375345 0.874035459600 0.475853032685 0.880847254694 -0.019275971664 0.025107041370
3.979977777000 -0.023119994781 0.018369297884 0.488406330433 0.873917396421 0.477599111899 0.880562525166 -0.019444921851 0.023907465037
3.980400000000 -0.023456773419 0.018535701246 0.488963441211 0.873213340825 0.479279885681 0.880000314456 -0.019781627951 0.023891450205
3.980822222000 -0.022826332367 0.018080917995 0.492028103990 0.871825958551 0.481003696001 0.879106195450 -0.019354442758 0.024056476430
3.981244444000 -0.022295344384 0.018301466007 0.493625495579 0.871291563540 0.483048359812 0.878339038626 -0.019135981375 0.023462738819
3.981666666000 -0.022785997093 0.018028739811 0.494742059273 0.871906479037 0.485317596476 0.878250345467 -0.019486905148 0.022854604021
3.982088888000 -0.022268294099 0.017961969373 0.497359448105 0.869736816784 0.486137187770 0.875515974635 -0.018889586767 0.023076128190
3.982511111000 -0.022299830562 0.017812311362 0.497234482126 0.867749344216 0.486624150733 0.875878374322 -0.019084561718 0.023689651209
3.982933333000 -0.021492824322 0.018080005412 0.499141689972 0.868338426273 0.489368869256 0.876583365837 -0.018948114010 0.021963144502
3.983355555000 -0.021620585530 0.018218689956 0.501255729266 0.867403862359 0.490254620979 0.873998635664 -0.018521681000 0.022845899945
3.983777777000 -0.020846845271 0.017630481247 0.502841331463 0.866084577699 0.492275586330 0.874560799048 -0.018405151827 0.021826756604
3.984200000000 -0.020895683088 0.017413153970 0.502269933643 0.864199536985 0.491838499240 0.872223866879 -0.019071971556 0.022059535031
3.984622222000 -0.020039309037 0.017704922143 0.506010865138 0.864044566914 0.495895505250 0.871797250584 -0.017732305403 0.021620311247
3.985044444000 -0.020477966198 0.017647495295 0.506797134185 0.863614192508 0.497025679401 0.870340754064 -0.018016866060 0.022545876749
3.985466666000 -0.020155985647 0.017464277700 0.508212393584 0.863106660561 0.499203663863 0.870578793704 -0.017878470116 0.020883408179
3.985888888000 -0.020004755265 0.017417985029 0.509842934291 0.861885226922 0.499971568457 0.869690139723 -0.018168809386 0.021338968034
3.986311111000 -0.019353155258 0.017592934534 0.512029597489 0.861204495169 0.501827185418 0.869957359040 -0.017373189840 0.021036894661
3.986733333000 -0.019857396498 0.017372942935 0.511579418101 0.860511914400 0.503278522948 0.866738935918 -0.016929217488 0.021172468210
3.987155555000 -0.019324976303 0.016931406728 0.514396816908 0.859297377226 0.505774529010 0.867205704755 -0.018039397946 0.020841557784
3.987577777000 -0.019159371747 0.017166325784 0.516098129146 0.858679942195 0.505927153296 0.865903052570 -0.017575468873 0.020467971127
3.988000000000 -0.017813761476 0.017020435623 0.518452504415 0.856534439323 0.507895122477 0.865860309415 -0.017279720868 0.020090322971
3.988422222000 -0.017990265663 0.017034698802 0.519372553075 0.855833200675 0.509544804737 0.865351370967 -0.017688964435 0.019912053105
3.988844444000 -0.017986922064 0.016755567996 0.521121736327 0.855383879577 0.511040492390 0.864472188221 -0.017022395932 0.019742690414
3.989266666000 -0.017145572810 0.015603865080 0.523508419875 0.852571131436 0.514305162393 0.863871433633 -0.017580537823 0.018737823500
3.989688888000 -0.017112206263 0.016960999508 0.524536216408 0.852861534470 0.513751549454 0.863399107418 -0.018002821303 0.019246377789
3.990111111000 -0.016858742712 0.015640622124 0.526785452248 0.852441663780 0.518234589444 0.862672530381 -0.017981484936 0.018257132603
3.990533333000 -0.016876424451 0.016252647687 0.527166240822 0.851206024524 0.518386055659 0.860457885296 -0.017693703873 0.019097971801
3.990955555000 -0.016582471059 0.015905504589 0.529148014534 0.850130720479 0.519963873961 0.859678788061 -0.017880079723 0.018943696186
3.991377777000 -0.016374090252 0.015551600577 0.529958390648 0.849139868199 0.521871207746 0.859321529644 -0.017663764485 0.018296092805
3.991800000000 -0.017042583874 0.015323731987 0.529722750636 0.847202749408 0.521827023579 0.859007008374 -0.018777928470 0.018275342332
3.992222222000 -0.016126985979 0.014994283856 0.532891330845 0.847295757851 0.525489512036 0.857863953770 -0.017699777775 0.017362426670
3.992644444000 -0.016201234034 0.015193760241 0.534494777234 0.845819642175 0.526517890793 0.856782294330 -0.017989643192 0.017036726501
3.993066666000 -0.015489716808 0.014928701649 0.535880084730 0.844729619399 0.528458522176 0.856501411254 -0.017791017276 0.017532121957
3.993488888000 -0.016001785526 0.015139898980 0.537337111484 0.843135935779 0.528393960339 0.853387108392 -0.018392667393 0.017474814118
3.993911111000 -0.015591935148 0.014307682012 0.538867014382 0.842547021639 0.530487341958 0.852963369056 -0.017968112751 0.016865048278
3.994333333000 -0.016219640462 0.014746296562 0.538756648671 0.842416753883 0.530641968047 0.851673693973 -0.017853492470 0.017896364333
3.994755555000 -0.015589273330 0.014112680614 0.541543339344 0.840573661979 0.533512215688 0.852081106272 -0.018167757233 0.016496374804
3.995177777000 -0.015651468880 0.014304133513 0.543676765529 0.839892239173 0.534487933042 0.849906454782 -0.018405971321 0.016434204032
3.995600000000 -0.015004893019 0.014010702182 0.545051008845 0.838855633772 0.536732281656 0.849889128423 -0.018416098025 0.015740882700
3.996022222000 -0.015208016984 0.013435701620 0.544886297292 0.837021000595 0.538003033575 0.847098912565 -0.018306915639 0.016197652680
3.996444444000 -0.014944826720 0.013345980452 0.546962731282 0.836298393574 0.539693863737 0.847074247954 -0.018242860785 0.015647053803
3.996866666000 -0.014759767513 0.013300014891 0.548094442832 0.835368663778 0.539974264168 0.847614575247 -0.018534181735 0.015443254676
3.997288888000 -0.015117492978 0.012935654912 0.550082705951 0.834676827052 0.543359253267 0.845484879082 -0.018714720666 0.015661945570
3.997711111000 -0.014797986720 0.012714994684 0.550909841660 0.832509963200 0.545249505278 0.844993629052 -0.018994671157 0.014914748305
3.998133333000 -0.014686351929 0.012487844923 0.552752174920 0.831748853482 0.545901682413 0.843359051101 -0.018540823617 0.015481168124
3.998555555000 -0.014914856965 0.013273178183 0.553892409705 0.831562943225 0.545445256399 0.841295198098 -0.018826200398 0.015229754747
3.998977777000 -0.014374318001 0.012437533983 0.555902041973 0.829458394420 0.549629718941 0.840940941097 -0.019232955994 0.014882288162
3.999400000000 -0.015085168072 0.013056149185 0.556309218714 0.829094020207 0.549199484264 0.841355254832 -0.020089867434 0.015703794245
3.999822222000 -0.015025242506 0.011980208315 0.559183314737 0.827131503536 0.550587627622 0.837808533699 -0.019754896632 0.014287805640
4.000244444000 -0.013812376701 0.012132389590 0.559556298168 0.826949994392 0.552431247133 0.840120623486 -0.018458779941 0.014370942648
4.000666666000 -0.014614986978 0.011145292993 0.561337643614 0.826490261401 0.556476903658 0.836321429219 -0.019698370857 0.014077563562
4.001088888000 -0.014238395146 0.011357006591 0.562043079919 0.826225460086 0.555434791897 0.835910865160 -0.018887345364 0.013750739622
4.001511111000 -0.014252792708 0.011421807416 0.562858414092 0.822988205551 0.555487416880 0.834861167033 -0.018606370759 0.014398716096
4.001933333000 -0.015129540206 0.012161141701 0.564933360806 0.820948623184 0.557779092493 0.831882879074 -0.021148421835 0.014300794114
4.002355555000 -0.014638664305 0.011327255092 0.564740025698 0.821594149221 0.559969392573 0.833165911487 -0.019876272274 0.014019423034
4.002777777000 -0.014397271914 0.011067449677 0.566197058173 0.819137283165 0.560353978966 0.832002713919 -0.019877656878 0.014302987502
4.003200000000 -0.014089240285 0.010945449283 0.567711241568 0.819015928381 0.561034536373 0.832028407914 -0.019277848024 0.014136022015
4.003622222000 -0.014809406893 0.010760763564 0.567489782306 0.817801625205 0.563806359085 0.829229381261 -0.020321882482 0.013845117860
4.004044444000 -0.014176715496 0.010549706931 0.570974780128 0.816721521320 0.565673496820 0.828109114863 -0.020478414471 0.014424052957
4.004466666000 -0.015075387197 0.010635553212 0.572419872574 0.817026590628 0.567239864950 0.828369621351 -0.020998453140 0.012688631705
4.004888888000 -0.015069206976 0.009964792117 0.573871092586 0.814912421693 0.567274752002 0.825026588897 -0.020129773400 0.013242994221
4.005311111000 -0.015346403826 0.010028178670 0.574345245649 0.812348202694 0.568942085402 0.823707408995 -0.021424103669 0.013251814296
4.005733333000 -0.014909986483 0.009569272840 0.574729956229 0.813259537972 0.572290426348 0.824532925540 -0.020572071362 0.013286732656
4.006155555000 -0.014918615448 0.009938450671 0.577444579333 0.811229980718 0.571528354272 0.822771811684 -0.020895229312 0.012999986945
4.006577777000 -0.015226333408 0.009496684500 0.577905012723 0.809860301859 0.573211203667 0.821012749283 -0.021038090012 0.013260259762
4.007000000000 -0.014146596099 0.007732720477 0.576404531822 0.806821263736 0.572293002555 0.820383629997 -0.017956690664 0.013655835880
4.007422222000 -0.015128249639 0.009446713300 0.579533980322 0.808845773316 0.576847985777 0.819099878763 -0.021153877214 0.013443556861
4.007844444000 -0.014892352469 0.009394437221 0.581460200329 0.806742217269 0.578000971456 0.817395623985 -0.020991840656 0.013377570836
4.008266666000 -0.014487868802 0.010111591665 0.578473549354 0.808344948561 0.576786079512 0.817673928756 -0.021039919136 0.013664267366
4.008688888000 -0.014554319302 0.009337286977 0.580442943834 0.805937376083 0.580608885489 0.814017678802 -0.021618984505 0.014085249921
4.009111111000 -0.014843332471 0.009799134170 0.581210715984 0.805198969409 0.579048118775 0.814172575954 -0.021870761251 0.014279253468
4.009533333000 -0.014944012691 0.008832813232 0.581707563201 0.805543680141 0.584122670881 0.813075825722 -0.021627499915 0.012902529718
4.009955555000 -0.014559928136 0.008569637015 0.582676112558 0.805138355144 0.584622372073 0.813314388134 -0.020511347749 0.012833583289
4.010377777000 -0.015395133155 0.009058057646 0.584027608052 0.803874345715 0.585488438670 0.812473963119 -0.021524076848 0.012291755637
