# GHZ S RI R 50.000000000000
3.950000000000 0.667451393484 -0.295096431787 -0.303161120694 -0.546134046219 -0.300825949826 -0.548085964940 0.604007930718 -0.392688506041
3.950422222000 0.664972057509 -0.296187570243 -0.303204367521 -0.546303234902 -0.302437844962 -0.546432452725 0.602950515191 -0.394292849862
3.950844444000 0.663286148040 -0.295649358426 -0.301354129610 -0.546540142159 -0.301794745700 -0.545415920081 0.600311390791 -0.394989552115
3.951266666000 0.660561230752 -0.297874733582 -0.301634776474 -0.545145795273 -0.303950650696 -0.544402743731 0.598752431696 -0.395162747938
3.951688888000 0.658084889001 -0.299507115659 -0.304112097940 -0.544891389094 -0.306699312692 -0.542760979960 0.598102670682 -0.397948884947
3.952111111000 0.657033749423 -0.300917640060 -0.305443127583 -0.544166730292 -0.307078369081 -0.542905588934 0.595269676633 -0.397564725106
3.952533333000 0.657745672135 -0.299016257058 -0.304354929453 -0.545411282854 -0.309455406845 -0.543073394927 0.592841397428 -0.399451540972
3.952955555000 0.655641571653 -0.302713408805 -0.308964940455 -0.546135125040 -0.311620911710 -0.542358023712 0.592690418736 -0.400051281145
3.953377777000 0.652342813960 -0.305459860305 -0.310986106083 -0.544940930942 -0.313569166479 -0.541577747978 0.591253518035 -0.399699920139
3.953800000000 0.648384410871 -0.300566604475 -0.310275322055 -0.542276598682 -0.313609588476 -0.540201370886 0.590426444248 -0.401566152331
3.954222222000 0.648643616276 -0.307218257521 -0.315409705621 -0.544556123050 -0.317775238206 -0.541091364135 0.588517090932 -0.400247662491
3.954644444000 0.647779044618 -0.305944665790 -0.315476572499 -0.545922046378 -0.319052039786 -0.541029330728 0.585492760947 -0.400760778973
3.955066666000 0.645829140454 -0.307631927907 -0.318171016580 -0.544842133010 -0.321067239744 -0.540673854968 0.582494469583 -0.400662183649
3.955488888000 0.643681480639 -0.308409491878 -0.322218864744 -0.544441013127 -0.324044356975 -0.540883457866 0.581075214727 -0.401995538996
3.955911111000 0.638656188814 -0.309968850235 -0.325269131872 -0.543649806423 -0.327496602115 -0.539785743162 0.578800376908 -0.401853026952
3.956333333000 0.635902854573 -0.312221730907 -0.329292251968 -0.542319152400 -0.332358460453 -0.539055976918 0.575741397606 -0.401083383039
3.956755555000 0.634608782075 -0.312536975084 -0.332175157303 -0.543972627611 -0.334589704299 -0.538752638453 0.572213608329 -0.400306534435
3.957177777000 0.628413505569 -0.312418591654 -0.336941955166 -0.541628132346 -0.338498082154 -0.537427131924 0.570406658808 -0.400422928619
3.957600000000 0.625200981496 -0.311336379421 -0.340102221116 -0.542111288580 -0.343494137493 -0.535584836522 0.566268577981 -0.401162496271
3.958022222000 0.621609951053 -0.313804632854 -0.347147159648 -0.541424232706 -0.349331504586 -0.533328549935 0.561484653123 -0.399516656663
3.958444444000 0.615524074249 -0.315883479723 -0.354961421200 -0.538062787237 -0.355336198533 -0.532025457583 0.554893610922 -0.398144908778
3.958866666000 0.608310235603 -0.312903030861 -0.360276076796 -0.534777592662 -0.360034294374 -0.528380950735 0.548016655209 -0.396495537146
3.959288888000 0.598524752579 -0.312561682339 -0.370172341362 -0.529923476921 -0.369915543047 -0.524367032697 0.544311780000 -0.393808640364
3.959711111000 0.589641166918 -0.310365346406 -0.379787021320 -0.525615357246 -0.378997724161 -0.520623110437 0.538216538011 -0.386014889067
3.960133333000 0.578897522326 -0.303318403370 -0.390228470340 -0.516511352751 -0.389528750014 -0.511841234330 0.529879130954 -0.379943671979
3.960555555000 0.567183869523 -0.294660170763 -0.402279568478 -0.505339555775 -0.400226176712 -0.499836438543 0.522422671285 -0.369308324567
3.960977777000 0.552747739760 -0.278365213025 -0.412309179189 -0.485545806228 -0.411134035410 -0.481297584140 0.514944937298 -0.353140494338
3.961400000000 0.542825246276 -0.255043700023 -0.421010608725 -0.460060950026 -0.419535569677 -0.455743939674 0.512433414753 -0.331228157182
3.961822222000 0.539841496229 -0.221437911869 -0.420697929656 -0.426618214207 -0.418224140226 -0.423708927419 0.518328943674 -0.304642393935
3.962244444000 0.552075884279 -0.184042568219 -0.405006545636 -0.389339521871 -0.403245414847 -0.386864719080 0.538444607690 -0.275973755463
3.962666666000 0.586278984836 -0.149807718811 -0.370540748706 -0.361238705939 -0.367336588201 -0.359558865378 0.572692373690 -0.259135471772
3.963088888000 0.630267032671 -0.137883080421 -0.326724835690 -0.353445480548 -0.324703985492 -0.352443597877 0.613693314921 -0.258198569800
3.963511111000 0.673432973421 -0.144638028775 -0.288195810130 -0.366102598377 -0.286760113173 -0.363935888893 0.644687738985 -0.273671108599
3.963933333000 0.702337449888 -0.163438826238 -0.263114445719 -0.387746985336 -0.262664367369 -0.384900442997 0.664576970751 -0.297166401947
3.964355555000 0.718428093073 -0.185566470090 -0.250521013858 -0.409709806555 -0.249747830212 -0.407512431184 0.673136252819 -0.318780251950
3.964777777000 0.729816909104 -0.204631014438 -0.244957282257 -0.430290969596 -0.243226356673 -0.426904590642 0.674528337716 -0.337352724254
3.965200000000 0.733191852417 -0.221550665558 -0.244126480575 -0.446697757742 -0.244227856564 -0.442477988327 0.673480084997 -0.352667762397
3.965622222000 0.732923430534 -0.235453432588 -0.245670995386 -0.458719174332 -0.245353258999 -0.454352997882 0.671084300904 -0.363925923171
3.966044444000 0.733979107388 -0.247749886711 -0.248505738543 -0.469457277501 -0.247994555742 -0.464601705624 0.666745088506 -0.373832808577
3.966466666000 0.734202500102 -0.256831788177 -0.250961466768 -0.477820954597 -0.250828493219 -0.472542039087 0.662102524554 -0.380922433161
3.966888888000 0.730463764780 -0.265978098987 -0.255260245689 -0.483682418931 -0.254256410354 -0.478108768230 0.660196401142 -0.385613341358
3.967311111000 0.728117041119 -0.273625192416 -0.258751977675 -0.488399909576 -0.257627597976 -0.484201693041 0.658026015947 -0.390296023565
3.967733333000 0.725806398459 -0.278161647741 -0.261422971940 -0.493122373060 -0.260949065688 -0.487016482492 0.655074920450 -0.394893777342
3.968155555000 0.723928058049 -0.283582314584 -0.264671251896 -0.496532444966 -0.263027939921 -0.490375791769 0.651917304654 -0.398267059981
3.968577777000 0.722853988224 -0.287242527510 -0.267261753875 -0.498950525611 -0.265964231483 -0.493039380061 0.649553494385 -0.402777308331
3.969000000000 0.718010294915 -0.285660422010 -0.268960147097 -0.501555388328 -0.265653113986 -0.493684018783 0.651717056780 -0.405607787234
3.969422222000 0.719820505408 -0.294138929076 -0.272564266952 -0.503960028305 -0.271042845570 -0.497680078709 0.645401474607 -0.408215708393
3.969844444000 0.720656630664 -0.301432712356 -0.276013803409 -0.506581035226 -0.274386518253 -0.499609574812 0.643017942100 -0.409151119368
3.970266666000 0.718072585791 -0.301693777296 -0.277413738340 -0.506544450557 -0.275654430349 -0.500524635669 0.641472201695 -0.411731960990
3.970688888000 0.716115954624 -0.306217219450 -0.280030458316 -0.508840545073 -0.277429584805 -0.501576605620 0.639845096145 -0.412312585127
3.971111111000 0.714766367475 -0.307870116627 -0.282255689155 -0.509532667269 -0.279788419268 -0.502616298415 0.638316716163 -0.415672435131
3.971533333000 0.715038469605 -0.309349884984 -0.283577552894 -0.510216617380 -0.280992117002 -0.503008519159 0.636568361834 -0.416737400483
3.971955555000 0.712968774399 -0.314186843052 -0.286238689168 -0.511905050233 -0.283851816782 -0.504106094794 0.635849873267 -0.418459241309
3.972377777000 0.712154988562 -0.315834568154 -0.288306823500 -0.512007586131 -0.285708943547 -0.505020499412 0.634760420869 -0.420959587407
3.972800000000 0.712133186700 -0.317964447322 -0.290276700750 -0.512600173903 -0.286225016975 -0.505566106992 0.632962428996 -0.420932118097
3.973222222000 0.711171382908 -0.318598247710 -0.291648407728 -0.513684313927 -0.288635150452 -0.505347018188 0.629948006258 -0.424061596168
3.973644444000 0.710541518222 -0.320807389412 -0.293577751595 -0.514238533451 -0.289089572121 -0.506300155077 0.630877131068 -0.425251193633
3.974066666000 0.709679827361 -0.323436047852 -0.294794106871 -0.514015825121 -0.290850026696 -0.506176237321 0.629412435487 -0.424232626648
3.974488888000 0.709998812035 -0.325456109466 -0.296504755328 -0.514899385225 -0.293274467273 -0.507478440502 0.628691000137 -0.427903343988
3.974911111000 0.708156040872 -0.326232705135 -0.298363772964 -0.515252162785 -0.293490915997 -0.507157633974 0.628025384496 -0.428434637607
3.975333333000 0.709531702449 -0.329095951339 -0.299996296326 -0.516129350409 -0.295377028766 -0.507312711810 0.627095510693 -0.430334006156
3.975755555000 0.709454031928 -0.331259717603 -0.301483109348 -0.516226127388 -0.296933909413 -0.507423390966 0.626482548373 -0.431117464007
3.976177777000 0.708459373587 -0.333061600019 -0.303427842149 -0.516417787048 -0.297987054364 -0.508065214663 0.625007429325 -0.432741539869
3.976600000000 0.712125250586 -0.334535561013 -0.304161601835 -0.518389130715 -0.297542804632 -0.507903187926 0.625194920872 -0.434021137671
3.977022222000 0.706648992484 -0.336140004029 -0.306157716475 -0.516511187417 -0.300753792610 -0.508164664426 0.623794857978 -0.434803884024
3.977444444000 0.706024433869 -0.338589059312 -0.307493047995 -0.516313381565 -0.302232438092 -0.508196488828 0.623375445918 -0.436556776777
3.977866666000 0.704522317207 -0.339112422363 -0.308346253512 -0.516286931354 -0.303110460970 -0.506766967354 0.622474240387 -0.436299280240
3.978288888000 0.703253952246 -0.342728157937 -0.310539325900 -0.515907118491 -0.304584424924 -0.507073429390 0.622656834401 -0.438009003120
3.978711111000 0.704281659328 -0.342206821914 -0.311799489916 -0.516443383520 -0.304890133602 -0.507510734270 0.621323483791 -0.439728142882
3.979133333000 0.703873038778 -0.346488662277 -0.313408831940 -0.515164564565 -0.307604499342 -0.508902947621 0.619550961985 -0.441166061849
3.979555555000 0.704131345519 -0.345537449603 -0.313411215506 -0.515796110395 -0.307882488660 -0.507693136570 0.620479179623 -0.441701626586
3.979977777000 0.703979070085 -0.348743957535 -0.315660353978 -0.516294547541 -0.309376750241 -0.507492228798 0.619526126497 -0.442966681843
3.980400000000 0.702683123777 -0.350791086544 -0.317755893171 -0.516028058247 -0.309935584319 -0.507388589566 0.618690218226 -0.443421327243
3.980822222000 0.702345596872 -0.351557124194 -0.318332458346 -0.515602635661 -0.310387171919 -0.507128520784 0.618963743236 -0.442917855595
3.981244444000 0.704379524359 -0.352926406764 -0.319345521350 -0.516356827546 -0.311967455580 -0.507590284312 0.618550717613 -0.446997250818
3.981666666000 0.702387865383 -0.356326439664 -0.321470620864 -0.516047340485 -0.313533280050 -0.506122436583 0.616976385066 -0.446617590723
3.982088888000 0.702196856853 -0.359271492619 -0.323081766783 -0.515440098040 -0.314145664598 -0.506524827920 0.615785113687 -0.446877283446
3.982511111000 0.700739175126 -0.357763155885 -0.323057100206 -0.514835495044 -0.314561003173 -0.505746885446 0.616869847170 -0.447817709195
3.982933333000 0.703275452134 -0.360367478965 -0.325115673489 -0.515219979903 -0.316095828338 -0.506567060594 0.615990346603 -0.451223008232
3.983355555000 0.702942560069 -0.362611820840 -0.326193418520 -0.515388010359 -0.317075261969 -0.506503698442 0.614745219752 -0.451765908414
3.983777777000 0.699661886565 -0.362867450257 -0.326713934514 -0.514226899588 -0.317884092059 -0.505340466973 0.613993784069 -0.452077968747
3.984200000000 0.700648951156 -0.362065282192 -0.328843048785 -0.514616996923 -0.317579589374 -0.505692529266 0.615461771728 -0.454783443854
3.984622222000 0.700387054375 -0.368170082406 -0.330291530945 -0.513671049314 -0.320323398956 -0.505600650862 0.612062029173 -0.454882485358
3.985044444000 0.700110616122 -0.369226329560 -0.331438920606 -0.513798975521 -0.320904914907 -0.505323475035 0.614301302323 -0.455835199812
3.985466666000 0.700728462003 -0.370136406057 -0.332434919634 -0.513109542237 -0.321785716026 -0.506293333401 0.612725394922 -0.457140186535
3.985888888000 0.700347024348 -0.371347709535 -0.333592455881 -0.514491390889 -0.322434249039 -0.504286213849 0.613011575191 -0.458341510417
3.986311111000 0.700518926888 -0.371856821234 -0.333921455064 -0.513267066847 -0.323685155245 -0.505044778436 0.613188764207 -0.460296158251
3.986733333000 0.701597231701 -0.374244241249 -0.335486587772 -0.513471101332 -0.324476189557 -0.504027504260 0.610203228941 -0.459530777684
3.987155555000 0.700096786441 -0.374994308200 -0.336391678716 -0.513169697823 -0.325504272058 -0.504027829744 0.612377558021 -0.461897065371
3.987577777000 0.696972733246 -0.377813042616 -0.338318414412 -0.511933574936 -0.326226644536 -0.503101993278 0.610958767993 -0.461278452856
3.988000000000 0.698473000062 -0.378403106808 -0.338960383113 -0.511895975550 -0.327516917152 -0.503198901702 0.609969434198 -0.463831724109
3.988422222000 0.698442644059 -0.381024265094 -0.340719112739 -0.512302663173 -0.328221410099 -0.502630224324 0.610348907750 -0.463892316124
3.988844444000 0.697712799408 -0.382446777848 -0.341962443475 -0.510885649918 -0.329018938026 -0.502756015010 0.609737354064 -0.465665721901
3.989266666000 0.697825057900 -0.384736342507 -0.341661139857 -0.511041840011 -0.331398829302 -0.501994484595 0.608477347549 -0.466965325256
3.989688888000 0.697126128094 -0.386434835164 -0.344347081725 -0.509960471487 -0.331239048919 -0.502022969912 0.608251943278 -0.469602824440
3.990111111000 0.695892978042 -0.389384433825 -0.345646760440 -0.509742405212 -0.332207500469 -0.502698703857 0.608674281465 -0.471049535748
3.990533333000 0.696505233586 -0.389500499357 -0.346290840763 -0.509651579727 -0.332655019972 -0.501858581410 0.608841221221 -0.470118315290
3.990955555000 0.696916402711 -0.392744352153 -0.348363595632 -0.508837208174 -0.333444944412 -0.501018488139 0.607541335892 -0.471987989127
3.991377777000 0.697005104032 -0.393183642694 -0.348528364652 -0.508573603326 -0.335565017177 -0.500941841339 0.606929906347 -0.473145665207
3.991800000000 0.691213943678 -0.397988737009 -0.349516149092 -0.507205212235 -0.336737772800 -0.499473276177 0.605371454754 -0.471473872814
3.992222222000 0.693266907763 -0.396714385450 -0.350124688613 -0.507514765297 -0.337636498537 -0.499319934259 0.606323190739 -0.474629355129
3.992644444000 0.695069040150 -0.400811481373 -0.351993848903 -0.507571733137 -0.338324176620 -0.499122462785 0.604783405345 -0.477339049416
3.993066666000 0.694969346749 -0.402110445396 -0.353624623438 -0.506389001744 -0.338887644703 -0.499390288748 0.603022608182 -0.477441409659
3.993488888000 0.692079469958 -0.403421734118 -0.354471101571 -0.506068083947 -0.339570112422 -0.498016109093 0.602870377940 -0.477241515177
3.993911111000 0.693383979933 -0.402976490637 -0.354846084337 -0.505829214347 -0.340545871346 -0.498775575920 0.605111897446 -0.480320512752
3.994333333000 0.692107365779 -0.404974006985 -0.356980748327 -0.505159840160 -0.340858266895 -0.498862714472 0.606488329196 -0.479492579850
3.994755555000 0.691269012433 -0.405726071404 -0.357294308577 -0.504126115672 -0.342177450639 -0.498400785324 0.604133684337 -0.482479016849
3.995177777000 0.691846428617 -0.407066095574 -0.358573443847 -0.504571747660 -0.343122550275 -0.497299871113 0.603017001842 -0.482622136958
3.995600000000 0.692608148075 -0.410469785347 -0.360054372928 -0.503889569772 -0.343644921975 -0.497028901539 0.601984280031 -0.485871026934
3.996022222000 0.691237535667 -0.410849773444 -0.360527797592 -0.503428481672 -0.344810052445 -0.496256132863 0.601581313054 -0.485521562554
3.996444444000 0.690285101440 -0.413128324794 -0.362691587938 -0.502004576925 -0.345201243449 -0.496220954918 0.601386469087 -0.486838975973
3.996866666000 0.688678243466 -0.415643325777 -0.363380303154 -0.501493581496 -0.347139082152 -0.494889260700 0.598731480882 -0.487301778224
3.997288888000 0.687921944177 -0.416390170161 -0.363676237928 -0.501445749777 -0.347201124064 -0.495200444291 0.601734856552 -0.487713684443
3.997711111000 0.690169144288 -0.418090297405 -0.364890461406 -0.501092272504 -0.348545023848 -0.494931371878 0.600187889064 -0.491066464204
3.998133333000 0.689430236426 -0.420410051305 -0.365898101622 -0.500965737359 -0.349280585834 -0.494432137494 0.599138799240 -0.491407924266
3.998555555000 0.687734154319 -0.421532106330 -0.366685346354 -0.500311309175 -0.350837851880 -0.493501075413 0.599688877798 -0.492914547615
3.998977777000 0.685840980378 -0.425051479163 -0.368061952421 -0.498876279771 -0.351583886225 -0.493034669536 0.597443833325 -0.493227155893
3.999400000000 0.687660633550 -0.428511690683 -0.370362739777 -0.498068482283 -0.353594846161 -0.490432920029 0.593357323934 -0.492666777474
3.999822222000 0.685940322330 -0.429987958745 -0.369874445733 -0.498295847384 -0.354173501210 -0.492890731824 0.598576743454 -0.495272407059
4.000244444000 0.684427600925 -0.432138796289 -0.370692519118 -0.497015329836 -0.354396201342 -0.492257416095 0.596814084676 -0.495300374851
4.000666666000 0.684340038540 -0.431489477913 -0.372036548179 -0.496768596643 -0.354717511903 -0.491232705256 0.595501660003 -0.496619532135
4.001088888000 0.683452769965 -0.432201257872 -0.372855859609 -0.495672389608 -0.355220716596 -0.491007383951 0.595399691507 -0.498662005517
4.001511111000 0.682474920101 -0.433582873695 -0.374106097560 -0.494644352929 -0.356191722750 -0.490891416808 0.596148474188 -0.499644592812
4.001933333000 0.680908825116 -0.436357846313 -0.374773224683 -0.494437593249 -0.358401361288 -0.489977038257 0.596288287159 -0.502217565208
4.002355555000 0.681144114207 -0.439413219931 -0.375780686517 -0.494954032597 -0.359162358473 -0.489317281367 0.594596111664 -0.504117323555
4.002777777000 0.679813702016 -0.440535293910 -0.377471201368 -0.492610939490 -0.358460447591 -0.488841301417 0.594973826483 -0.502063294209
4.003200000000 0.680404853131 -0.442878622075 -0.377950236531 -0.492854869653 -0.360119964901 -0.488760264130 0.593768791376 -0.504869675534
4.003622222000 0.678417825936 -0.443056801726 -0.378666453183 -0.490749281721 -0.360675138736 -0.487781772557 0.590866676394 -0.505003483873
4.004044444000 0.679588490211 -0.446482136317 -0.379195730659 -0.491188094907 -0.362853586909 -0.487697020919 0.591309572031 -0.506628701825
4.004466666000 0.677303833657 -0.448428774290 -0.380826751464 -0.490399814828 -0.362874564883 -0.487224411478 0.592692263689 -0.507427626372
4.004888888000 0.676924007395 -0.449931108431 -0.382825190977 -0.489552634130 -0.363782564230 -0.486647897354 0.591132796074 -0.509940210339
4.005311111000 0.675807946514 -0.449768985795 -0.383304151331 -0.488432615295 -0.363980087367 -0.486941458602 0.591989650058 -0.510443967319
4.005733333000 0.676378619845 -0.453197121426 -0.383828670718 -0.488635962419 -0.365109648029 -0.485914657509 0.589787719555 -0.509321880022
4.006155555000 0.674938084228 -0.455873184787 -0.385645853556 -0.487833216779 -0.366703515075 -0.485090269326 0.588960507015 -0.512109098521
4.006577777000 0.674256942883 -0.456099261036 -0.386131270745 -0.487550798423 -0.366897305134 -0.485564900813 0.590495596412 -0.512204051592
4.007000000000 0.671836023885 -0.457469668095 -0.387342756060 -0.487537533870 -0.368207028230 -0.484935170617 0.589798296084 -0.517415553961
4.007422222000 0.671784757937 -0.458825592726 -0.387219362502 -0.485637153002 -0.368910046047 -0.484506717518 0.589838694240 -0.514753580073
4.007844444000 0.671159899229 -0.462426305199 -0.389091917872 -0.483352595022 -0.369500080574 -0.483146813561 0.586264264653 -0.515738358328
4.008266666000 0.670759783331 -0.462654657233 -0.387085704022 -0.485262638374 -0.370129348146 -0.482015186505 0.589124436875 -0.513673124093
4.008688888000 0.671266814157 -0.465382789324 -0.388968684755 -0.484280936243 -0.370941373880 -0.481123905087 0.588334377380 -0.515056016127
