# GHZ S RI R 50.000000000000
3.950000000000 -0.029855977205 0.007645801072 0.388113109972 0.902250883170 0.382054760401 0.902987299550 -0.032303400000 0.019144250430
3.950422222000 -0.031175214587 0.007272536742 0.387954449939 0.904616674697 0.380874685279 0.900170269769 -0.031259910826 0.018778028196
3.950844444000 -0.033309873902 0.007541636228 0.382619938917 0.905522088306 0.378344855768 0.902059441897 -0.033358040009 0.018480373977
3.951266666000 -0.032823159778 0.007848218959 0.383204794455 0.906469194018 0.381295132532 0.901318182168 -0.032949398384 0.019750750311
3.951688888000 -0.033311836090 0.008482525434 0.383106403288 0.905313109360 0.383392619138 0.899486281404 -0.032184555621 0.019372708555
3.952111111000 -0.033063423895 0.008878011364 0.386331929114 0.903456976049 0.385143916510 0.901809305630 -0.032218322145 0.020160592471
3.952533333000 -0.033723204747 0.008566863025 0.384389570047 0.907233442681 0.384092200089 0.900838300560 -0.033168133605 0.020018675079
3.952955555000 -0.034431430264 0.009038125153 0.385037135951 0.906009145829 0.385822025979 0.899811952182 -0.032952685583 0.020435000238
3.953377777000 -0.034417608102 0.009402394782 0.388498838612 0.906735226650 0.386400748028 0.901102828027 -0.032986246102 0.021099127396
3.953800000000 -0.032633782599 0.011861434900 0.391454062824 0.906746738959 0.386691827133 0.902922273964 -0.031381446398 0.021084902460
3.954222222000 -0.035351989317 0.010935134323 0.389113814454 0.906989538916 0.388004742396 0.901108935953 -0.032860208976 0.021869874359
3.954644444000 -0.035218191074 0.009824724884 0.389066083343 0.905280056464 0.389099614659 0.899923890908 -0.033149689015 0.021416079090
3.955066666000 -0.035357354384 0.010483025605 0.391212635077 0.906115259324 0.390464214399 0.901474714385 -0.033097421035 0.021893566368
3.955488888000 -0.034333133144 0.010816659491 0.394175357883 0.903076257553 0.393790456120 0.901343097175 -0.031735083399 0.021528345484
3.955911111000 -0.034855384504 0.011002744123 0.397577721886 0.903715755315 0.394060164447 0.900570146250 -0.031912888350 0.022087580388
3.956333333000 -0.035280638394 0.010649882491 0.395030506432 0.903699822642 0.395782140652 0.897946244388 -0.031611466729 0.022583939760
3.956755555000 -0.034965102408 0.011687949255 0.398802207597 0.904782733274 0.397270411705 0.900277823652 -0.031519982748 0.022806640054
3.957177777000 -0.034523207211 0.012439913742 0.400690515240 0.904748598319 0.396774073911 0.898590742212 -0.030188687395 0.022677533437
3.957600000000 -0.034632022277 0.012904293684 0.401198527378 0.906198265005 0.399521771527 0.899926188625 -0.030938946104 0.023239198720
3.958022222000 -0.034532164168 0.013244116041 0.402487902913 0.902774223817 0.402434928243 0.900366544957 -0.030768138679 0.023567405790
3.958444444000 -0.034181859551 0.012819904290 0.410578033799 0.902713852513 0.402640666178 0.900894415124 -0.030845929379 0.023985896212
3.958866666000 -0.033780010120 0.011676187252 0.408618877454 0.901148269582 0.403379197599 0.897105985367 -0.031115322127 0.023063812603
3.959288888000 -0.033773793209 0.013098221720 0.410599851836 0.902218285769 0.405649580244 0.896931382106 -0.028923826101 0.023444225314
3.959711111000 -0.035058231547 0.013168889612 0.408870177026 0.902370337451 0.405540756914 0.898517788951 -0.030461364861 0.024757523566
3.960133333000 -0.034134991969 0.014311226659 0.412682557167 0.901608229095 0.407984580158 0.898351096961 -0.029442205780 0.024529915609
3.960555555000 -0.033948008722 0.014050441478 0.414853979134 0.902048282784 0.408472988235 0.898117053529 -0.029561647263 0.023917133810
3.960977777000 -0.034095184712 0.014282585971 0.415384095976 0.900964290621 0.410270171252 0.897415006629 -0.029631934120 0.025242616144
3.961400000000 -0.033760327958 0.015664402730 0.421415669672 0.901692620418 0.412634874235 0.900309077542 -0.028232923293 0.026157295169
3.961822222000 -0.034201664785 0.015167478526 0.417825944050 0.901502318375 0.412268797606 0.897377475659 -0.028648511254 0.025233167536
3.962244444000 -0.034297026172 0.015784134940 0.420132248958 0.901586971954 0.414512066187 0.896853008925 -0.028185849324 0.025758720651
3.962666666000 -0.033375280639 0.015502150069 0.422031999193 0.898949850743 0.415874190564 0.897860996400 -0.028400349117 0.024319060592
3.963088888000 -0.033882516989 0.015856847583 0.424015207658 0.902170140399 0.417722845390 0.897718100087 -0.028682659722 0.025595586994
3.963511111000 -0.033493693667 0.015571025795 0.425147183777 0.898578754181 0.419698540579 0.896246084663 -0.028558318609 0.025698077636
3.963933333000 -0.033148576817 0.016531285812 0.427526491385 0.900748143578 0.421108886664 0.897062810413 -0.026812060441 0.025880436918
3.964355555000 -0.033121747739 0.016888978286 0.428517787798 0.900047561188 0.422526505566 0.896463922763 -0.027328629932 0.026111314315
3.964777777000 -0.032894360839 0.017078259855 0.429067130906 0.899873942666 0.421843633878 0.896493148161 -0.027020813580 0.024605498338
3.965200000000 -0.032688441720 0.017439066246 0.433181271840 0.898489447924 0.425899711430 0.895105753317 -0.026368964438 0.025906725633
3.965622222000 -0.031951358522 0.017247674005 0.434384861231 0.896581203951 0.426010059361 0.894402808463 -0.025945318747 0.024497106063
3.966044444000 -0.032636594384 0.017378922149 0.434652705197 0.898033064304 0.428346207682 0.894753388487 -0.026895624812 0.025198345965
3.966466666000 -0.032865620602 0.016320335787 0.435562075080 0.895603544953 0.430042778099 0.894450394472 -0.027388530340 0.025200057489
3.966888888000 -0.032285525509 0.017958939799 0.439360299148 0.896454252024 0.430767411747 0.894102587843 -0.025990514185 0.026085750432
3.967311111000 -0.032319527622 0.017931482481 0.440132704721 0.895797488788 0.432602805136 0.894357344059 -0.025590312241 0.025977148176
3.967733333000 -0.032755599193 0.018810327657 0.439926634593 0.896511705540 0.433689066902 0.893893739769 -0.025881499459 0.026743566748
3.968155555000 -0.032223986254 0.018651873425 0.443274157763 0.895460493106 0.435410880640 0.893175687359 -0.026006386124 0.026530211873
3.968577777000 -0.030866960601 0.019056846160 0.445728523082 0.895545524841 0.438037960381 0.892790108235 -0.024154315773 0.025814774222
3.969000000000 -0.030605641875 0.020907236805 0.445691623994 0.895138841305 0.433546737609 0.892264830758 -0.022777954802 0.026060471673
3.969422222000 -0.031261593654 0.019975593467 0.447376164826 0.894530341437 0.440847969829 0.893057100649 -0.024378576532 0.026648131763
3.969844444000 -0.031170409604 0.019500867497 0.449387615442 0.893763372640 0.443029365197 0.893360789434 -0.024950884642 0.026506815735
3.970266666000 -0.030379372523 0.019865456324 0.451990433987 0.893137527493 0.443139909555 0.892996556466 -0.023329948644 0.025774763084
3.970688888000 -0.030966222985 0.019718466625 0.452729061339 0.892863245571 0.444931038462 0.890564656848 -0.023747399733 0.026136410694
3.971111111000 -0.030450402929 0.020189186483 0.454720210627 0.891897724515 0.447202506151 0.890591189990 -0.023313551752 0.026026443403
3.971533333000 -0.029821510732 0.020924736664 0.455875531163 0.892571599024 0.447605640416 0.890481491482 -0.022559293441 0.025815284360
3.971955555000 -0.030113735936 0.020491683915 0.458915854779 0.891246720151 0.450638667598 0.890384329306 -0.023545261279 0.025946954408
3.972377777000 -0.029400158471 0.020199550000 0.459386927478 0.890234270899 0.453066690983 0.889778115829 -0.022499970184 0.025907465586
3.972800000000 -0.029604471336 0.020941919153 0.460596607637 0.890317608027 0.452799125771 0.889987195993 -0.022586029829 0.026430160754
3.973222222000 -0.029936856552 0.020788975858 0.463059871749 0.889872926638 0.455086002139 0.887607333019 -0.023220257725 0.025915306013
3.973644444000 -0.029448473679 0.021188305705 0.463306234065 0.889115339433 0.455634098309 0.888951440176 -0.022842641666 0.025528845543
3.974066666000 -0.029160735163 0.021487204681 0.465664493166 0.887924032108 0.457054035014 0.887972060400 -0.022188947216 0.025991234423
3.974488888000 -0.028642595385 0.021020996631 0.467197435154 0.887904702535 0.460001295961 0.888579810298 -0.022296818199 0.024965953701
3.974911111000 -0.028681088177 0.021724775702 0.469903895365 0.887127270494 0.460568359912 0.886527729676 -0.021340404162 0.025829710633
3.975333333000 -0.027700984544 0.021153049065 0.471026660594 0.885043648163 0.463248229011 0.886577694145 -0.021358228008 0.025081105385
3.975755555000 -0.027216980072 0.021534019462 0.472848962735 0.885882530402 0.464954874190 0.886948910006 -0.021018614838 0.025289472068
3.976177777000 -0.027725896234 0.021609280230 0.474761440426 0.884281643982 0.466414162888 0.886088981127 -0.021491883260 0.024733603823
3.976600000000 -0.026419027702 0.021437887077 0.476557391283 0.883765793562 0.467665263816 0.886495244484 -0.020484652466 0.024982003654
3.977022222000 -0.027054841303 0.021944994561 0.477509878282 0.883679046607 0.469399584377 0.884892453958 -0.021290758122 0.024976249257
3.977444444000 -0.026588301569 0.021462897795 0.480568080664 0.881742986823 0.472634372483 0.884542503243 -0.020683198896 0.024799994293
3.977866666000 -0.026602603892 0.021764783593 0.480987840790 0.881061570324 0.473515109595 0.882270988943 -0.020484656342 0.025456863064
3.978288888000 -0.026336214685 0.021749269276 0.483148191033 0.881011424725 0.474811719712 0.882427315185 -0.020159303040 0.024202388475
3.978711111000 -0.026091960815 0.022101534760 0.483927841095 0.880371433895 0.475887400628 0.881310454596 -0.019984881486 0.024476616274
3.979133333000 -0.025302745088 0.020794575172 0.486450584459 0.878305861209 0.480026924167 0.883095642972 -0.021454467560 0.023857237718
3.979555555000 -0.024910633897 0.021556814726 0.488556264675 0.877942791702 0.480386932959 0.881706341186 -0.019897158617 0.023807856140
3.979977777000 -0.024540128755 0.021970041939 0.490046211015 0.876809398319 0.482899819260 0.880803746165 -0.019647434319 0.023771616859
3.980400000000 -0.025108424142 0.022135965253 0.490563108753 0.876587340302 0.482882020019 0.879316012111 -0.019586989904 0.024088606286
3.980822222000 -0.024207532074 0.022322947741 0.492978492423 0.876561345989 0.483325328802 0.879259726352 -0.019401679202 0.024191753853
3.981244444000 -0.023513109407 0.021618876798 0.494505612783 0.874723970119 0.486685598513 0.879870887705 -0.019022943184 0.023077295953
3.981666666000 -0.023973456998 0.022330797271 0.496039562718 0.875126289895 0.488675131435 0.877120587592 -0.018789689739 0.024162132184
3.982088888000 -0.023777463053 0.021739454804 0.497585704027 0.873660260827 0.489931600786 0.876842534260 -0.019359442225 0.023603228904
3.982511111000 -0.023497734560 0.022353856262 0.497986785265 0.873565149378 0.490629742122 0.875857903897 -0.018335314865 0.023634617937
3.982933333000 -0.022486908433 0.021481606890 0.500687914218 0.871312593401 0.493575788138 0.876812619700 -0.018941484851 0.022671575947
3.983355555000 -0.023010637308 0.021925250527 0.502178037738 0.871376925314 0.494978628568 0.875828855888 -0.019526755161 0.022557381591
3.983777777000 -0.023525137497 0.021920159174 0.503417634899 0.870582315428 0.496353206844 0.873299735196 -0.018963952195 0.022479057759
3.984200000000 -0.022680362901 0.022394059326 0.505437012138 0.871449526323 0.495234720415 0.874065244752 -0.018737722466 0.021778085326
3.984622222000 -0.022350600726 0.021040213090 0.507440403095 0.867323480076 0.500193893056 0.872577261346 -0.019234950448 0.021614458605
3.985044444000 -0.021502030533 0.021933324180 0.509468574253 0.868848657155 0.501069776258 0.873067128263 -0.018306459950 0.021744510843
3.985466666000 -0.021398420176 0.021707536437 0.510623850545 0.867363531680 0.502251706247 0.873653660518 -0.018724477950 0.020827996474
3.985888888000 -0.021350715212 0.021781345979 0.511596908490 0.866521183033 0.503124104379 0.870606636650 -0.018297241597 0.022205523089
3.986311111000 -0.021055923352 0.020959401385 0.513525027928 0.865515400882 0.505626183296 0.871668196841 -0.018156022537 0.020412296185
3.986733333000 -0.021267211658 0.021749789158 0.514130987333 0.864666905387 0.506444759791 0.868967753170 -0.018518670354 0.021602471487
3.987155555000 -0.020440962955 0.021229733924 0.516001120723 0.863840339646 0.508123526755 0.869163433126 -0.017670249670 0.020366406123
3.987577777000 -0.021274702239 0.021043497139 0.516510024307 0.862032915490 0.509547169749 0.866721146400 -0.018101004829 0.021217027475
3.988000000000 -0.020598243177 0.021163646759 0.519402384170 0.861773735373 0.512152210965 0.866194210898 -0.018177105120 0.020230270067
3.988422222000 -0.020140223609 0.021067018732 0.521346066989 0.861159846266 0.513173576772 0.865432121734 -0.017595896010 0.020439447264
3.988844444000 -0.019620580570 0.020941772241 0.523066604237 0.860142437910 0.514583119416 0.865468860931 -0.017596057780 0.020177833907
3.989266666000 -0.020624353891 0.019972558350 0.523548980912 0.857810295132 0.518741759021 0.863192153259 -0.019321081565 0.019366823834
3.989688888000 -0.019700294743 0.020014269433 0.525808700314 0.856881653639 0.518878726267 0.863987302761 -0.018471951516 0.020117636459
3.990111111000 -0.018762428646 0.019444215966 0.528026654739 0.855255990623 0.520736247533 0.864206467558 -0.018623891731 0.018525859059
3.990533333000 -0.019212551352 0.020021157839 0.528441224324 0.855634924736 0.520559491566 0.862807818668 -0.018354259684 0.018921592826
3.990955555000 -0.018775314062 0.020250347342 0.531144251621 0.854417127388 0.522601585745 0.861613401999 -0.018179612474 0.019298924280
3.991377777000 -0.018605696169 0.020111141808 0.533059374314 0.853519346263 0.525413035237 0.861143719522 -0.018469564441 0.018945255259
3.991800000000 -0.018760986818 0.018558576512 0.532429161261 0.849875427253 0.528562202640 0.857855206686 -0.018729840834 0.019758292531
3.992222222000 -0.018992636768 0.019089680780 0.534719303877 0.850699716173 0.528763244483 0.856884958825 -0.019159732508 0.018950111784
3.992644444000 -0.018753550293 0.018646682007 0.536291211981 0.849903697082 0.531121480952 0.856932843642 -0.019034531510 0.018068985419
3.993066666000 -0.018441313959 0.018762647574 0.538208911751 0.848854690055 0.531950745498 0.856967812497 -0.019044362970 0.018376784415
3.993488888000 -0.018566055185 0.018740113695 0.538452648021 0.848139940362 0.533197863554 0.853939239623 -0.018675275728 0.018793638065
3.993911111000 -0.018119036753 0.019049004522 0.540058193937 0.847645282950 0.533916790195 0.855711294618 -0.018619918597 0.018537061556
3.994333333000 -0.017133662891 0.019223796698 0.541922412082 0.847802407384 0.534467290659 0.856006227168 -0.017870214629 0.018328596056
3.994755555000 -0.017652876434 0.018408957502 0.543593712491 0.845653314071 0.537352000560 0.853815242308 -0.018236678982 0.017699037212
3.995177777000 -0.017853078065 0.018703385467 0.544485349987 0.844669455578 0.537976368940 0.851826709133 -0.018919199557 0.018078768129
3.995600000000 -0.017620819207 0.017712478051 0.546815895485 0.843280577982 0.540421216493 0.851461686277 -0.018623019076 0.017143315141
3.996022222000 -0.017578926047 0.018191107579 0.547474014925 0.842566239473 0.541160211403 0.849433035295 -0.018777391086 0.017377016992
3.996444444000 -0.017237044666 0.018454288670 0.549930890960 0.841546346625 0.541573117058 0.849379406721 -0.018659713794 0.017717327381
3.996866666000 -0.017635942268 0.018130036257 0.551270214493 0.840066580030 0.544764395452 0.845165337190 -0.019309275363 0.017842287800
3.997288888000 -0.018010469259 0.017425322157 0.551375731240 0.838674500213 0.544794714982 0.845674873286 -0.019283218063 0.017059819266
3.997711111000 -0.017433677362 0.017321058021 0.553101533584 0.838394466466 0.547644695941 0.845964061603 -0.019108915994 0.016523359508
3.998133333000 -0.017800001435 0.017550977258 0.553529578321 0.837065939051 0.548281571988 0.845732091507 -0.019381000662 0.016964808459
3.998555555000 -0.017584704872 0.017135354543 0.555069442422 0.835904513299 0.550865816901 0.843541525346 -0.019811434244 0.017042791156
3.998977777000 -0.017932732154 0.017039202781 0.556462249807 0.833552838123 0.552288881859 0.841753798406 -0.020676474712 0.016721579878
3.999400000000 -0.016310411125 0.017891251752 0.561408865905 0.833019624277 0.554917566133 0.840184732527 -0.020582440246 0.019266428215
3.999822222000 -0.017338347989 0.015943265325 0.558849387735 0.832472387974 0.557001011656 0.840732478178 -0.020446105154 0.015985132613
4.000244444000 -0.017483822572 0.016064010628 0.560447228011 0.830784493896 0.557414415708 0.839816889797 -0.020326756393 0.016379504357
4.000666666000 -0.017918398572 0.016094338162 0.561932249115 0.829643740527 0.557555986811 0.836921629960 -0.020482947354 0.016780130878
4.001088888000 -0.017517195964 0.016176777714 0.562927204147 0.827986763829 0.558584496950 0.836782906876 -0.020612598994 0.016261658064
4.001511111000 -0.017720171331 0.016472866647 0.565085884405 0.827642586042 0.558912169841 0.836796011415 -0.020104614616 0.016482832081
4.001933333000 -0.017921996528 0.015763449373 0.566411323543 0.827241961112 0.562025204245 0.834781298547 -0.020400065215 0.016120779461
4.002355555000 -0.017965688803 0.014946791067 0.567448145937 0.826948843623 0.566143504457 0.834147152420 -0.020696810908 0.015108702956
4.002777777000 -0.016828722409 0.016621368987 0.568880207728 0.824629934979 0.562587437726 0.834610369780 -0.020078947938 0.016779195187
4.003200000000 -0.017647019881 0.014387343440 0.570526355172 0.823924519782 0.567467056810 0.831384178444 -0.020449889908 0.015307442729
4.003622222000 -0.018058692152 0.015151027665 0.570387913658 0.820898550506 0.566975804235 0.829769412403 -0.021035390056 0.016861610282
4.004044444000 -0.018012208878 0.015218874615 0.571112047919 0.821542228250 0.570086341553 0.830472189587 -0.021446881716 0.015977812770
4.004466666000 -0.017718754795 0.014202259642 0.573510698372 0.819997717293 0.571159458248 0.828532582977 -0.020969376566 0.015930564133
4.004888888000 -0.017734464460 0.014643362873 0.576387651313 0.819439358137 0.572513482496 0.828059753133 -0.021235204917 0.015683448153
4.005311111000 -0.017836417747 0.014845547519 0.576283483813 0.817587767196 0.572010900478 0.828048245013 -0.021255613211 0.015834854533
4.005733333000 -0.018341797530 0.014928973836 0.576403022099 0.816914046944 0.573630005059 0.825755682933 -0.022121041369 0.016075441915
4.006155555000 -0.017989653485 0.014667488652 0.579280749191 0.816407670148 0.576614686399 0.824527089285 -0.022085486088 0.016208925311
4.006577777000 -0.018663859231 0.014759908280 0.579292919115 0.815878847262 0.576426742975 0.823677363345 -0.022115082489 0.015703187712
4.007000000000 -0.019648863522 0.013573958715 0.581144792962 0.814611601645 0.580359439420 0.820419442446 -0.023382574692 0.013971240461
4.007422222000 -0.018688828899 0.014078717482 0.580577595628 0.812949240495 0.579584882771 0.820714168371 -0.022134796418 0.016111368396
4.007844444000 -0.019072874036 0.013539386625 0.583731221250 0.809343468604 0.581035793417 0.818618124340 -0.022577666829 0.015914128856
4.008266666000 -0.018032099984 0.014786253426 0.579614181485 0.812619759336 0.581932115303 0.819331613880 -0.021498896175 0.016136837148
4.008688888000 -0.017671947476 0.014826373253 0.582476528946 0.811963623304 0.581572520787 0.818270817700 -0.021209705159 0.016217212042
4.009111111000 -0.018712235179 0.014889765100 0.581403233764 0.811114131392 0.582510026170 0.814590392046 -0.021726781404 0.016316602737
4.009533333000 -0.018572794400 0.014102785084 0.582868514785 0.811185800075 0.584375020752 0.815312404419 -0.021154050545 0.015707387990
4.009955555000 -0.018868997052 0.014479007460 0.584190402993 0.808204691703 0.586282401018 0.813261579472 -0.021896416907 0.016374423946
4.010377777000 -0.018819447313 0.014409280599 0.586228460131 0.807684775676 0.589301637630 0.812366172802 -0.023310822156 0.016039550512
