# GHZ S RI R 50.000000000000
3.950000000000 -0.034733329198 0.009200668486 0.363375413575 0.913263236587 0.361036175640 0.911460071894 -0.046387212818 0.024163898279
3.950422222000 -0.035368534936 0.008969899554 0.368132200984 0.916354659794 0.360592028246 0.913105192310 -0.048000452903 0.025230590245
3.950844444000 -0.033722141788 0.008110508909 0.370765650193 0.911309289550 0.363375722754 0.910855862885 -0.046657017368 0.024944569500
3.951266666000 -0.034785679003 0.008025800305 0.372690849445 0.912640386685 0.362815257788 0.910251194118 -0.047767046642 0.025532635366
3.951688888000 -0.034612964203 0.008528999349 0.373231228447 0.910414672865 0.364243690626 0.909926221415 -0.047096226736 0.025972138959
3.952111111000 -0.034618961155 0.008354684573 0.376596882107 0.909238348590 0.366298889815 0.908936654468 -0.046479517085 0.026074410903
3.952533333000 -0.035439333800 0.009615885617 0.376760499859 0.912246726775 0.365152137702 0.910517033730 -0.046901209676 0.027196059555
3.952955555000 -0.035130318599 0.008891598713 0.378894912034 0.909262807662 0.367992944302 0.909380168788 -0.046823673756 0.027000354741
3.953377777000 -0.034479301521 0.009088513642 0.382310880456 0.908934093620 0.370477812927 0.910106136634 -0.046748032702 0.027405050790
3.953800000000 -0.033810949674 0.009305225071 0.379487195438 0.908057624020 0.370040518278 0.906745398473 -0.045328965440 0.026299004727
3.954222222000 -0.035056653347 0.009744767042 0.383228263563 0.910008563714 0.373299584206 0.909747063265 -0.046162917949 0.028270829204
3.954644444000 -0.035938887171 0.010269786368 0.383082176738 0.907925520840 0.371611176850 0.908689433878 -0.046657551803 0.027724659826
3.955066666000 -0.035230337442 0.010988049210 0.385820435442 0.908488209250 0.373247466276 0.910002580713 -0.046046239355 0.028160908778
3.955488888000 -0.035614090946 0.011851882338 0.386414088653 0.910733570683 0.375712379192 0.910576560441 -0.045873542981 0.029108517461
3.955911111000 -0.036497426940 0.011275514492 0.386819465406 0.907306484399 0.377194187699 0.908791696268 -0.046254840784 0.029196893511
3.956333333000 -0.035824186200 0.011891417769 0.388528250278 0.910660739702 0.379131405934 0.909035582772 -0.045219052980 0.029937287609
3.956755555000 -0.035495587042 0.011999932557 0.393034192059 0.909862124669 0.378584268220 0.908159774422 -0.044720087612 0.029736025314
3.957177777000 -0.035390243185 0.012407561477 0.392934287883 0.908274705274 0.382208926522 0.910310248795 -0.045243110605 0.029956448436
3.957600000000 -0.035552656675 0.013184005285 0.394809759812 0.907953361828 0.382172773876 0.909097075655 -0.045062767653 0.029872218664
3.958022222000 -0.035700400145 0.012399403296 0.394886828830 0.907529158818 0.382855297573 0.908727424797 -0.044588988833 0.029159242550
3.958444444000 -0.035058120026 0.012839172435 0.395285204673 0.906676360276 0.384360315324 0.908845123017 -0.045380881936 0.029075397397
3.958866666000 -0.036486243691 0.012278304558 0.395186109611 0.907681715377 0.384817935031 0.907822170130 -0.045374325466 0.029397947886
3.959288888000 -0.035419903835 0.013602741341 0.401239968630 0.907092861617 0.387278960829 0.907467043797 -0.043222252826 0.030733197293
3.959711111000 -0.034713816610 0.014077354516 0.402065108930 0.905242456892 0.389449389213 0.908889423498 -0.043327993096 0.029839633205
3.960133333000 -0.035616433356 0.014069629150 0.403536654427 0.907813500127 0.389251614434 0.906707453462 -0.042865596547 0.030952390683
3.960555555000 -0.035242409480 0.015243094668 0.404180946939 0.908353995012 0.389825775244 0.907128975703 -0.042836442273 0.030002332711
3.960977777000 -0.034903964535 0.015231103684 0.407410069492 0.906591508066 0.392447172086 0.906358554884 -0.042299985381 0.030502678039
3.961400000000 -0.034993746493 0.013156070868 0.403856055419 0.901985062235 0.393739277928 0.901575222502 -0.042588444944 0.029399499731
3.961822222000 -0.035616782162 0.015593409975 0.408993828678 0.906367981991 0.393478166991 0.905972831766 -0.042596947421 0.031161873372
3.962244444000 -0.035234560620 0.016098703035 0.411247588310 0.906439150145 0.396320114701 0.906621249901 -0.041639009964 0.031036829063
3.962666666000 -0.035285479258 0.016752485676 0.411996944178 0.905526715213 0.396887133318 0.905128827369 -0.041604009986 0.031873121550
3.963088888000 -0.034256202931 0.016362820518 0.414017560479 0.904538538524 0.399583468808 0.905214450030 -0.041156949410 0.030929648444
3.963511111000 -0.034408335788 0.017019289306 0.415788625367 0.906060716766 0.401659012716 0.905162067805 -0.041431851081 0.031794309239
3.963933333000 -0.035410913776 0.017639999711 0.416039419390 0.906439834306 0.402686389607 0.904351931243 -0.040636379532 0.032164595844
3.964355555000 -0.034136100692 0.017392984774 0.418984681621 0.904337453770 0.404305152191 0.905870194217 -0.041012033825 0.031887415005
3.964777777000 -0.032922220628 0.017076684720 0.421625492958 0.900959778597 0.407502074194 0.905159343696 -0.039402021677 0.030992200113
3.965200000000 -0.033451531316 0.017308009403 0.422564241523 0.903275406963 0.407553839439 0.903959839852 -0.039961812483 0.030997521854
3.965622222000 -0.033106672064 0.017998859642 0.424415480039 0.902129267088 0.409361259480 0.903628997208 -0.040020541184 0.032034392055
3.966044444000 -0.033121224937 0.019008286523 0.425380182626 0.902620067553 0.409976656060 0.904459257120 -0.039171435083 0.032640827873
3.966466666000 -0.032580030754 0.018592108011 0.426575082363 0.903185462064 0.410772888488 0.903734979685 -0.039940723937 0.030935299562
3.966888888000 -0.033137439125 0.018470824179 0.428826794752 0.901984789726 0.414095014861 0.903238107794 -0.039264047893 0.032351080228
3.967311111000 -0.032505720802 0.019260451321 0.431770589677 0.900976273640 0.414960849014 0.902194090216 -0.038054751267 0.032449227371
3.967733333000 -0.033266080346 0.019433037127 0.431021845360 0.900880239280 0.416718358458 0.902473354723 -0.038940041282 0.032282589659
3.968155555000 -0.032562574730 0.019039490676 0.434467991324 0.900080512976 0.419150558531 0.901510690118 -0.038652941713 0.031982610770
3.968577777000 -0.032236364574 0.019478512049 0.434828024719 0.899963230461 0.418962052860 0.901685385526 -0.038160432599 0.032317970001
3.969000000000 -0.033567765100 0.018675360289 0.433639323308 0.898600740160 0.422742006600 0.898359484157 -0.038725668112 0.032773057235
3.969422222000 -0.032468959354 0.020281180162 0.438355676610 0.898747513603 0.422909627038 0.900103928587 -0.037437638358 0.032477266311
3.969844444000 -0.030721807742 0.020232730227 0.441555965377 0.897841030756 0.422840602215 0.902378793122 -0.036869555663 0.031668497420
3.970266666000 -0.031144660518 0.020506042491 0.442606749257 0.897702960218 0.427877735957 0.900159142595 -0.036470820352 0.031949973129
3.970688888000 -0.030651405707 0.020578938230 0.444466909350 0.896827909403 0.428252573343 0.899459758833 -0.036192516542 0.031575308158
3.971111111000 -0.030127187931 0.020981868851 0.445187442761 0.897755227914 0.429912258455 0.901103415363 -0.036548988496 0.031624317870
3.971533333000 -0.030577058749 0.021051659036 0.446403655712 0.896201556114 0.430298265109 0.897199214382 -0.035877746399 0.031709942592
3.971955555000 -0.029848860126 0.020848773741 0.448330682063 0.895364877912 0.433256206119 0.899361236717 -0.035938894681 0.031227364196
3.972377777000 -0.029631198727 0.022012711970 0.451029565488 0.895976176215 0.434217783408 0.897688361464 -0.034476792782 0.032082230373
3.972800000000 -0.029679369218 0.021297708534 0.451260736507 0.895359177101 0.434798690907 0.898556344853 -0.035319206155 0.031494532959
3.973222222000 -0.028265946078 0.021958147477 0.455591975694 0.893351139878 0.437944791073 0.897608313420 -0.034078176173 0.031260364423
3.973644444000 -0.028754410333 0.022007625619 0.456139352869 0.893455100706 0.439889210709 0.897582007563 -0.034686766408 0.032039804262
3.974066666000 -0.028920803990 0.021991815280 0.458875494879 0.891977261485 0.441944336224 0.894758556936 -0.034426378948 0.032382554364
3.974488888000 -0.028289700325 0.022370477549 0.458581505314 0.892527490861 0.441770539375 0.897132791502 -0.033603191003 0.031535399131
3.974911111000 -0.027133427220 0.022689814358 0.462605566555 0.892141686997 0.444392569272 0.897150313262 -0.033675046640 0.031711047118
3.975333333000 -0.028311476552 0.022485373540 0.462070562576 0.890735452462 0.445566746933 0.894409778847 -0.034428488087 0.031924574339
3.975755555000 -0.027117715142 0.021707945987 0.464225654653 0.889739018816 0.449276773485 0.894868309384 -0.034123813175 0.031447746902
3.976177777000 -0.027058253644 0.022675934816 0.464433354109 0.888823167793 0.448104443199 0.894217767144 -0.033001281858 0.031008606830
3.976600000000 -0.026499828447 0.023294204334 0.467979358887 0.888468908791 0.451342554638 0.892234372425 -0.031539532970 0.030749449745
3.977022222000 -0.025779569271 0.022550166351 0.469653744729 0.888596086783 0.452976468428 0.893945672634 -0.032558631819 0.030232954427
3.977444444000 -0.026131950529 0.023272311826 0.470219115453 0.887903240617 0.452172093159 0.892179876271 -0.031842417491 0.030093929402
3.977866666000 -0.025356170279 0.022457204173 0.473275251893 0.885878434276 0.455270711572 0.893652443132 -0.032540351283 0.029925174215
3.978288888000 -0.025372858549 0.022763760881 0.474404042006 0.886023245194 0.457201264669 0.891472853452 -0.031847773841 0.030718058155
3.978711111000 -0.024666563492 0.022994015788 0.476631623672 0.884755729211 0.458267642258 0.890467996562 -0.031192721840 0.030532055316
3.979133333000 -0.024136412420 0.022833781750 0.477679841670 0.885348686466 0.460919200967 0.890847475079 -0.031024605253 0.029237337594
3.979555555000 -0.023456832376 0.022796180443 0.480090926588 0.883607080920 0.463761263937 0.891992745289 -0.031257468481 0.029953757842
3.979977777000 -0.024135224026 0.022737355462 0.480590050821 0.882612213539 0.464480304437 0.888053678449 -0.030822790980 0.029658534130
3.980400000000 -0.023185921390 0.023237348335 0.482514131289 0.882521150976 0.465318738168 0.889832594245 -0.030189331250 0.028867226589
3.980822222000 -0.022916845022 0.021915178441 0.484559500579 0.879919961599 0.467934908214 0.888667531612 -0.031099937165 0.028017586599
3.981244444000 -0.022767334106 0.022615207648 0.485739393601 0.880433670109 0.469611316837 0.889204480866 -0.030139293884 0.029315963949
3.981666666000 -0.024388356236 0.022197783418 0.485077117436 0.877725017748 0.472189131476 0.885101520277 -0.031266234585 0.029986600115
3.982088888000 -0.022860241636 0.022806791316 0.488376130876 0.878369375725 0.472522540433 0.885091256207 -0.030128481799 0.028742175074
3.982511111000 -0.020946702221 0.022848666395 0.491648334826 0.877894112383 0.474275849572 0.887811702555 -0.029701176446 0.028046734728
3.982933333000 -0.021101518320 0.022058924466 0.493987060446 0.877110693149 0.476759048653 0.885992006765 -0.029604910973 0.027128083555
3.983355555000 -0.021760334072 0.022558215053 0.493856252705 0.875409642861 0.478211642200 0.883069199040 -0.029972363408 0.027910599683
3.983777777000 -0.021892736254 0.022214830403 0.496184209647 0.874652821172 0.480563209606 0.883882292107 -0.030127269020 0.028170081967
3.984200000000 -0.021036415638 0.022221821474 0.498505588431 0.873520849055 0.483161315869 0.881482986752 -0.029651205813 0.027417781374
3.984622222000 -0.021131972635 0.021947066199 0.497312566084 0.873114832493 0.482711375038 0.880885218657 -0.029118528187 0.027460479644
3.985044444000 -0.021788851423 0.022000825823 0.498551808172 0.872244169720 0.483805884059 0.879889348945 -0.030233196121 0.027906028034
3.985466666000 -0.020024206300 0.022194483279 0.501017106709 0.871379646263 0.484860475904 0.880878955862 -0.028911944156 0.026934926956
3.985888888000 -0.020404640894 0.021571324064 0.503597523328 0.869649573829 0.489277447788 0.878377783310 -0.029199381180 0.027270012130
3.986311111000 -0.019762811061 0.022364697298 0.505177642635 0.870210112461 0.488034586811 0.878129343826 -0.028733680907 0.026324282942
3.986733333000 -0.019686578841 0.020470329408 0.507069022830 0.866432374853 0.493820533460 0.876570693333 -0.029600106360 0.026481013059
3.987155555000 -0.020058191592 0.021860035547 0.507194513438 0.866660257530 0.490826008528 0.876370639280 -0.029159596327 0.026390522353
3.987577777000 -0.018377761587 0.022122101598 0.509812772020 0.867104612985 0.494144148464 0.878231987637 -0.029427586063 0.026826190851
3.988000000000 -0.018917415165 0.020377925494 0.512013975039 0.865663344044 0.497319134731 0.876508783267 -0.029873858816 0.024872461549
3.988422222000 -0.018133280148 0.021682263476 0.512575567584 0.866436570934 0.496898924833 0.875768323883 -0.028259996962 0.025382688114
3.988844444000 -0.018229728373 0.021191323527 0.514032484913 0.864103186716 0.499345177653 0.873777325292 -0.028354759376 0.025286104722
3.989266666000 -0.017588382542 0.020302934663 0.517372432742 0.862255735340 0.501864550355 0.875992992498 -0.029224914490 0.024410212647
3.989688888000 -0.017989029620 0.020427934460 0.518118324412 0.861275459935 0.503410954905 0.873124808930 -0.029277091955 0.025001893594
3.990111111000 -0.017317927179 0.020976322696 0.519383659601 0.861433978381 0.503432768749 0.872029287576 -0.027910010740 0.024838630487
3.990533333000 -0.017100158202 0.020581301835 0.521027801860 0.860498959453 0.504857074265 0.871747775580 -0.028417523525 0.024364247445
3.990955555000 -0.017740329975 0.019514422788 0.521986162459 0.858585429975 0.508715808437 0.870736125789 -0.029808087202 0.024571308991
3.991377777000 -0.017070826486 0.019490632179 0.524643211618 0.857316973156 0.509762427504 0.870156321121 -0.029534898468 0.023938653391
3.991800000000 -0.017169198221 0.020415934431 0.526735873897 0.857970675022 0.511654906405 0.867878820597 -0.028592018378 0.023725580681
3.992222222000 -0.016870140491 0.019928384907 0.526056493549 0.856215747456 0.510219442622 0.866943402585 -0.028442141775 0.024000172727
3.992644444000 -0.017105577551 0.019677398393 0.528022979536 0.853650967585 0.512044877383 0.864952636245 -0.029255596953 0.024829446721
3.993066666000 -0.016059245555 0.019326841987 0.530901700332 0.853456277335 0.515501546722 0.866226431240 -0.028721830705 0.023704851414
3.993488888000 -0.016886574017 0.018621100134 0.530782847147 0.851383984528 0.517919064968 0.863769892612 -0.029811150170 0.024238535258
3.993911111000 -0.015951329787 0.019466739702 0.531964868244 0.852941637586 0.517121279631 0.863152635695 -0.028413848877 0.023914995608
3.994333333000 -0.016100436799 0.017697803794 0.534719434951 0.851971256621 0.521968223326 0.865705032180 -0.028656560754 0.021020590852
3.994755555000 -0.016429591897 0.018714193169 0.534241606091 0.849051095365 0.520978030596 0.860994112968 -0.028962570025 0.023355487918
3.995177777000 -0.014955114572 0.018330875371 0.537988107707 0.849199622330 0.523058013633 0.863493433800 -0.028376480764 0.021969100735
3.995600000000 -0.015601943430 0.017655562132 0.538570996054 0.847119838027 0.525308299290 0.860504461721 -0.029511361958 0.022165916895
3.996022222000 -0.016321967542 0.017640137261 0.537945069589 0.845662447576 0.526190939732 0.857046986576 -0.029018128690 0.022803624085
3.996444444000 -0.014903360702 0.018392262448 0.541464286662 0.846638570967 0.526181620245 0.859359097802 -0.028762612508 0.022468859180
3.996866666000 -0.015697224662 0.018464879383 0.541973919599 0.845095234857 0.527839077826 0.858480731798 -0.029582877700 0.022323507433
3.997288888000 -0.015308784249 0.018421231567 0.543072632318 0.843665047290 0.528249430497 0.856161444714 -0.028879296379 0.022586632887
3.997711111000 -0.015189540518 0.016890896584 0.545512733766 0.843024036876 0.532777483719 0.855380920158 -0.029435106575 0.021510551576
3.998133333000 -0.015226972549 0.017206988894 0.545279737973 0.840743675406 0.531942200888 0.853420646111 -0.029088219996 0.022151473463
3.998555555000 -0.015975552927 0.016154724538 0.547739958309 0.839761687114 0.537925159544 0.850771029889 -0.030430207105 0.021935025282
3.998977777000 -0.015123022015 0.017348292671 0.547794279380 0.839219803304 0.533579161084 0.851585719618 -0.028894009258 0.022489085483
3.999400000000 -0.015320561489 0.016251753387 0.554944953615 0.837638577073 0.540424273017 0.846280617742 -0.031015720341 0.021465703462
3.999822222000 -0.014920681439 0.016407452160 0.552344728446 0.837480471077 0.539030333408 0.849855545232 -0.029030362987 0.021221972476
4.000244444000 -0.015000673022 0.015395601640 0.552186590280 0.836392144061 0.541583017231 0.848709795173 -0.029644654403 0.021773073838
4.000666666000 -0.015086960897 0.015702115496 0.554573480568 0.834275076418 0.541286328765 0.847396301751 -0.029788135896 0.021007951275
4.001088888000 -0.014936486221 0.015780075747 0.555221688433 0.834302379521 0.542836760740 0.846569632799 -0.029107442328 0.021507438270
4.001511111000 -0.015421519253 0.015263449490 0.555674479792 0.832618350973 0.545271706267 0.845543979958 -0.030177227389 0.021593828486
4.001933333000 -0.015460963288 0.015732038216 0.557159472996 0.832180196465 0.544195712002 0.844347039568 -0.030184686516 0.021472413750
4.002355555000 -0.014674958918 0.016016556333 0.558359390572 0.829727125709 0.545001112549 0.845266915088 -0.029575059882 0.021718810537
4.002777777000 -0.015556607918 0.014138013527 0.561668570874 0.831110503547 0.551489326756 0.841429643565 -0.030138537571 0.019906153007
4.003200000000 -0.014813035021 0.015391900592 0.563470149276 0.828486139358 0.550561677559 0.841684515746 -0.030503165821 0.020774711895
4.003622222000 -0.014917632080 0.015364817968 0.563089096374 0.828247042891 0.552363064866 0.840942791479 -0.030325830812 0.021539448302
4.004044444000 -0.014770187685 0.014087267305 0.563708074802 0.826416608545 0.554162433946 0.839240559727 -0.029738130821 0.021313470987
4.004466666000 -0.014852706156 0.015707088943 0.564495407228 0.825037909342 0.552896903839 0.840017403077 -0.030515395558 0.021676103522
4.004888888000 -0.015825053013 0.014077314721 0.566057652654 0.825071115314 0.556637982354 0.837288487758 -0.030343788055 0.020368185389
4.005311111000 -0.015237375335 0.014076633039 0.567059667285 0.821976871444 0.555143561755 0.836205178260 -0.030078621755 0.021349692299
4.005733333000 -0.015475795982 0.013597577231 0.567858673395 0.822147560568 0.558813468003 0.835818167916 -0.029984281118 0.020904623492
4.006155555000 -0.014926819070 0.014883503792 0.568739831298 0.820811521622 0.558446257452 0.836359774145 -0.030402828382 0.021680579233
4.006577777000 -0.015314061005 0.013864978373 0.571835751758 0.819020212554 0.561312110666 0.834057456960 -0.030670502333 0.020746266397
4.007000000000 -0.014642847099 0.012668748171 0.577953143811 0.820237642366 0.567017721431 0.827224816550 -0.030981587282 0.021999322718
4.007422222000 -0.015308921752 0.013335379145 0.573193236573 0.817273880184 0.564148513525 0.830443790102 -0.030295159314 0.021641944464
4.007844444000 -0.016329002174 0.013031984325 0.573886033544 0.816899265857 0.565416719382 0.829544392921 -0.030192715077 0.020616468178
4.008266666000 -0.016280148045 0.013194476044 0.576869986051 0.813284867434 0.565071112900 0.828326995846 -0.030844964084 0.021529303905
4.008688888000 -0.016581285303 0.012923935175 0.576097665157 0.813120302859 0.567570350404 0.826095340735 -0.030666000765 0.021441865249
4.009111111000 -0.016570728110 0.012486190607 0.577569323354 0.813644548888 0.571544034537 0.823607276519 -0.031065263954 0.020902754752
4.009533333000 -0.016318772508 0.013480031747 0.579509231845 0.809338213892 0.567639145656 0.825974205073 -0.030667731152 0.021608512288
4.009955555000 -0.016959207809 0.012966719871 0.579999556972 0.807732716300 0.571954976178 0.821658926141 -0.032037726959 0.021936634397
4.010377777000 -0.016529360911 0.012781361772 0.581509884478 0.809365015818 0.573397869064 0.823156675976 -0.031484479508 0.021607481284
