# GHZ S RI R 50.000000000000
3.950000000000 -0.038116012925 0.005187591415 0.391798806875 0.895342797935 0.374000118815 0.899310510220 -0.037564617476 0.023768295912
3.950422222000 -0.040765989497 0.005720012739 0.387665983370 0.897509418981 0.372830913611 0.899185959326 -0.038722083937 0.024189578022
3.950844444000 -0.040803161027 0.005562107180 0.386959185994 0.894868494920 0.371527890109 0.900504802782 -0.040663163860 0.023333999712
3.951266666000 -0.042665790895 0.007238685006 0.384229988078 0.900171663029 0.373379332629 0.901294518427 -0.040086951142 0.025701213745
3.951688888000 -0.040939607828 0.006971886740 0.387653793662 0.896005695940 0.373649772743 0.899334935882 -0.039737531195 0.024678585789
3.952111111000 -0.042453167688 0.005880333877 0.384300389397 0.896870511332 0.375184035420 0.898755635936 -0.041859674090 0.025605607358
3.952533333000 -0.042153531448 0.007770843087 0.388439161781 0.897658292287 0.376852528801 0.899572564665 -0.040207999343 0.026706072925
3.952955555000 -0.042574468611 0.007603054621 0.388543898960 0.896179852438 0.378133039261 0.898031871698 -0.039955870900 0.025542969621
3.953377777000 -0.041617964260 0.008538236413 0.391398461334 0.895636104919 0.379936082721 0.898826990680 -0.039549187053 0.026138305858
3.953800000000 -0.043351082061 0.008878175675 0.389955809940 0.896260750269 0.378772297190 0.903353588230 -0.040858614056 0.028764174526
3.954222222000 -0.042544637967 0.008959254022 0.393733079398 0.895394986818 0.381301876668 0.899156567243 -0.040033711482 0.027056955273
3.954644444000 -0.042152480952 0.008439159919 0.394009666134 0.893983889858 0.382095565540 0.898231988868 -0.040494854150 0.026337369415
3.955066666000 -0.043112921238 0.010318882544 0.396125149986 0.895601194287 0.384852463516 0.898635983843 -0.039165306433 0.028267057539
3.955488888000 -0.042785302414 0.009525066508 0.397198757495 0.893846095007 0.384573982580 0.897438399328 -0.039836958724 0.027471162161
3.955911111000 -0.043753483490 0.010866524976 0.398184524140 0.896682979091 0.387767910243 0.898759830918 -0.039405690976 0.028665162794
3.956333333000 -0.041733090073 0.011146636747 0.402111455925 0.896114011496 0.387037795195 0.896879369953 -0.038867326845 0.027872303353
3.956755555000 -0.042680510866 0.010985088480 0.401904838528 0.895428911991 0.390714622287 0.897526538427 -0.038796071185 0.028929802577
3.957177777000 -0.043165961728 0.012288244340 0.402688281146 0.894678675425 0.389681979727 0.898263400360 -0.039040444898 0.027606717321
3.957600000000 -0.043742330530 0.011647591678 0.403621202018 0.894389976571 0.391427719171 0.896910680661 -0.039166257583 0.028435254066
3.958022222000 -0.042293035107 0.013081347715 0.406856852441 0.895460030110 0.393833863424 0.897505333806 -0.038608451718 0.029137112588
3.958444444000 -0.043875633330 0.012648236119 0.406465837694 0.894687441543 0.392108927228 0.897314334578 -0.039140631994 0.029618851507
3.958866666000 -0.043340390116 0.013882308586 0.408874584794 0.893703755708 0.396917627662 0.896804409905 -0.037724405478 0.029688120969
3.959288888000 -0.043142925726 0.012821832024 0.408239450493 0.894359846596 0.397119865246 0.896514181936 -0.038712788648 0.028930537381
3.959711111000 -0.043254102961 0.013388619071 0.410527233679 0.894042169736 0.396952410171 0.896589002056 -0.038565694992 0.029188250341
3.960133333000 -0.043202221241 0.013234444858 0.411883816781 0.893996335005 0.399377327816 0.896485637435 -0.038585144602 0.029716015095
3.960555555000 -0.042216890607 0.015558174412 0.414981767991 0.892396482630 0.400102120401 0.896058983506 -0.037438629276 0.029329577346
3.960977777000 -0.042697496890 0.015872223533 0.417401027624 0.893819805794 0.402961314997 0.896593073445 -0.037039915693 0.031053827071
3.961400000000 -0.042861218894 0.014398943848 0.416858243025 0.891307368535 0.406958830222 0.897387307422 -0.036922432581 0.031725860822
3.961822222000 -0.042238687021 0.016598418172 0.418769177789 0.892841754764 0.405681487953 0.896204202234 -0.036633227117 0.029730483463
3.962244444000 -0.043299665609 0.015697580089 0.420051758812 0.893177920107 0.406137722377 0.895042874102 -0.037095539196 0.030542075539
3.962666666000 -0.042509808436 0.016650675947 0.421905403712 0.892191325050 0.407857912671 0.895148157640 -0.036641803893 0.031067791069
3.963088888000 -0.041669081948 0.016418039224 0.422780930064 0.890730965548 0.410020962208 0.895970414822 -0.036165930312 0.030445217370
3.963511111000 -0.042254632482 0.017879598960 0.424929445414 0.892284444784 0.411387402699 0.894638270473 -0.035857348637 0.031372707999
3.963933333000 -0.041439963503 0.017396400024 0.428531779640 0.890273348640 0.412358812467 0.894310400377 -0.036098422662 0.030598104383
3.964355555000 -0.041647796528 0.017231377474 0.427115543933 0.889468765272 0.414041110699 0.895191376559 -0.035886751382 0.030795527213
3.964777777000 -0.041868404353 0.018204501827 0.428851113419 0.891005297167 0.414659493131 0.891413810818 -0.034945447306 0.030841973522
3.965200000000 -0.042277369789 0.018513972985 0.430410147638 0.890329760784 0.417253089307 0.892744362882 -0.035614926107 0.031220286495
3.965622222000 -0.041810548473 0.018816370625 0.432336692450 0.890623693793 0.417255260133 0.893868266967 -0.035542545108 0.030629844293
3.966044444000 -0.041184155333 0.019167720439 0.434732055053 0.889618306171 0.420978113224 0.893187839089 -0.034770883366 0.031336288213
3.966466666000 -0.041143566930 0.019584602507 0.434861924376 0.889735572454 0.420761142740 0.892620552950 -0.034216848848 0.030551487307
3.966888888000 -0.040772299277 0.019691593493 0.436800731121 0.888388741979 0.423563694922 0.892004579071 -0.034228989140 0.030671958867
3.967311111000 -0.039951773869 0.021519608071 0.440005965199 0.888372498871 0.424963945913 0.894595589549 -0.034224982853 0.031387599876
3.967733333000 -0.040848092922 0.020759903925 0.441364170219 0.887842240110 0.426183608729 0.891730782052 -0.033629281170 0.031443698880
3.968155555000 -0.040053029572 0.020820449352 0.441867338632 0.887800406500 0.428600123102 0.892312514915 -0.033439366650 0.031719255054
3.968577777000 -0.039573041878 0.020856032306 0.444455778413 0.887499924114 0.428913894200 0.892752437308 -0.033841003381 0.030843181571
3.969000000000 -0.040569847201 0.024290600460 0.444314215660 0.895039851682 0.428751671243 0.893507276823 -0.032405886426 0.031304288823
3.969422222000 -0.038606640644 0.021129322904 0.448098763105 0.885478807807 0.432570541820 0.889135071926 -0.032317501684 0.030309655519
3.969844444000 -0.039254731468 0.021419913732 0.450338920975 0.886798599815 0.433620947191 0.890028924301 -0.032829453740 0.029982690791
3.970266666000 -0.038649683798 0.022300294232 0.450264146631 0.885629080476 0.436433626437 0.890275304876 -0.032771800160 0.030810781769
3.970688888000 -0.039064717126 0.022612755349 0.452026276937 0.884741658051 0.436944942777 0.888800998304 -0.032393452210 0.030190303761
3.971111111000 -0.039042147786 0.022506156073 0.452961216945 0.884496935437 0.439971985441 0.888714103831 -0.032454681564 0.031302194540
3.971533333000 -0.038167177013 0.022462674197 0.455225318757 0.882587438094 0.441876309246 0.889299200351 -0.032327663976 0.030189635507
3.971955555000 -0.037686481762 0.022760234880 0.456697830472 0.883207789198 0.442284219719 0.889034790063 -0.031816540941 0.030156683779
3.972377777000 -0.038240125445 0.023011374312 0.458236861968 0.883387340505 0.445755245537 0.888355002145 -0.032247155785 0.030620582030
3.972800000000 -0.037530251174 0.023402854434 0.461143855624 0.882445545708 0.446849895174 0.887279616740 -0.032083761005 0.030427159380
3.973222222000 -0.037450930775 0.024367651435 0.463392362460 0.883680205271 0.448174321483 0.888861393190 -0.032362282848 0.031022516203
3.973644444000 -0.037057989904 0.024106748365 0.464214514773 0.880707363553 0.449656896081 0.886483535042 -0.031665357839 0.030588390350
3.974066666000 -0.037163827493 0.024701393569 0.465836733298 0.882270177257 0.450208700713 0.887292878476 -0.031489341954 0.030612311338
3.974488888000 -0.036568159501 0.024609640895 0.466905186000 0.879755696453 0.452244073526 0.886670751358 -0.031481731159 0.030449228514
3.974911111000 -0.035564471272 0.024293301793 0.469371086146 0.877670788533 0.453915982969 0.886124820943 -0.030865859116 0.029911535913
3.975333333000 -0.035738230662 0.024808605843 0.469894774293 0.879501383045 0.455847804554 0.885473818492 -0.030095566310 0.029619630387
3.975755555000 -0.035521779581 0.025293271595 0.472870100838 0.878395832032 0.456562348606 0.884351291115 -0.030170754221 0.029933991243
3.976177777000 -0.034709566740 0.025033489305 0.473709476958 0.875810314967 0.458400019850 0.885601029621 -0.030521803879 0.029444872117
3.976600000000 -0.033920604191 0.026000346671 0.475169596806 0.876267534922 0.460144071544 0.886802927288 -0.028516938612 0.030389378479
3.977022222000 -0.034061585407 0.025431533814 0.477737060371 0.876404046540 0.460761711553 0.884000818937 -0.029850195973 0.028694078912
3.977444444000 -0.034700444104 0.026107207999 0.476346202667 0.875224500979 0.462621903174 0.882385429319 -0.029258149876 0.029036730484
3.977866666000 -0.034219832099 0.025958319946 0.479605224231 0.873810403331 0.465067079239 0.881030980517 -0.029607292582 0.029288064031
3.978288888000 -0.032993854349 0.025439148148 0.482162692641 0.873670703018 0.468656792241 0.881406383050 -0.028847683144 0.029150129921
3.978711111000 -0.033183638862 0.025584667595 0.483724622086 0.871634332660 0.469360524782 0.879939006558 -0.029394570841 0.028897862026
3.979133333000 -0.032720390613 0.026962689135 0.484426120538 0.872219898598 0.468541502526 0.881586239790 -0.029483284168 0.029326587182
3.979555555000 -0.032279278589 0.025766862683 0.486870848906 0.871204433927 0.472643962551 0.881044693196 -0.030081512033 0.027466629070
3.979977777000 -0.032874906878 0.026077851123 0.487209261882 0.871909662816 0.475126453903 0.878097232473 -0.029071727361 0.027875303021
3.980400000000 -0.032264286217 0.025777390769 0.488945915163 0.868388917224 0.475177744252 0.877371473289 -0.029381977869 0.027996024423
3.980822222000 -0.031920462529 0.026299852258 0.490961477103 0.869139372196 0.477113458179 0.877773835842 -0.028965693420 0.027600939592
3.981244444000 -0.030989444164 0.026300857311 0.493950886269 0.867928233847 0.478914108864 0.878811040614 -0.029439918453 0.027138512731
3.981666666000 -0.031059746961 0.026792115637 0.495111027715 0.867159436315 0.480283810847 0.874924856698 -0.028247785807 0.026916875186
3.982088888000 -0.031058885999 0.026282164538 0.495388943984 0.866675751554 0.482485965955 0.876243489038 -0.028581690089 0.026681512921
3.982511111000 -0.031227583753 0.026572166104 0.496684019225 0.865915869100 0.483199416973 0.874711837449 -0.029008025923 0.026167182517
3.982933333000 -0.030202042028 0.026333301281 0.499146309358 0.865086138629 0.485708270181 0.874923975997 -0.028351686862 0.026519819116
3.983355555000 -0.029775094940 0.027200614140 0.501994565440 0.864327386121 0.485858743206 0.873952647429 -0.028258038055 0.026290750007
3.983777777000 -0.029465135565 0.026308814251 0.503279461670 0.862594928284 0.489130608924 0.872129770443 -0.027867096307 0.025864316927
3.984200000000 -0.028454424345 0.026282234650 0.501896922795 0.863022564071 0.488591540165 0.877360698066 -0.027865239544 0.024199056496
3.984622222000 -0.028706481257 0.025925468682 0.504701513542 0.860932494822 0.492706159658 0.872503856234 -0.027998224814 0.025206456953
3.985044444000 -0.028236610493 0.026792205862 0.507297817513 0.860981257769 0.492854993358 0.872873938132 -0.027680429906 0.025190188218
3.985466666000 -0.027790852763 0.026995985446 0.508898423876 0.859490009808 0.494479661973 0.871434352225 -0.027263269314 0.025323695871
3.985888888000 -0.028555232586 0.025883288137 0.509862218033 0.858082342247 0.498499340892 0.868619777957 -0.028506654792 0.024441734819
3.986311111000 -0.028082188064 0.026364290958 0.512022307282 0.857486035369 0.499754828494 0.867994395963 -0.028070972944 0.024685343149
3.986733333000 -0.026846500630 0.026600306174 0.513152662061 0.857317009547 0.500478384434 0.869353718497 -0.027457802210 0.024382208397
3.987155555000 -0.027327865772 0.026667036844 0.515054275502 0.856436529134 0.500305416071 0.866501542806 -0.027759283048 0.023964670334
3.987577777000 -0.026437957205 0.026245928150 0.516950800692 0.856195166053 0.504343102172 0.867247754041 -0.027892263950 0.023331546546
3.988000000000 -0.026822585434 0.026084158319 0.518079772498 0.854461190526 0.505853469413 0.866234457099 -0.028419975684 0.023611427352
3.988422222000 -0.026463265179 0.026251930259 0.519826835623 0.853590815803 0.507134046038 0.866182756034 -0.028244592260 0.023052714141
3.988844444000 -0.025717483283 0.026806806692 0.520811018802 0.852781503025 0.506698464829 0.865713319830 -0.027337082088 0.023221345812
3.989266666000 -0.025617292889 0.026682275864 0.522728205422 0.851811344803 0.509607546629 0.862618588042 -0.027816907650 0.022614505048
3.989688888000 -0.025619464162 0.025620971173 0.523949719530 0.850110155808 0.511110695371 0.863567831039 -0.028311988135 0.022101511846
3.990111111000 -0.025948115663 0.025601462495 0.524088253139 0.849645796779 0.514546694358 0.861522463709 -0.028279457846 0.022698792685
3.990533333000 -0.025037052967 0.024835603536 0.527454862933 0.847534454548 0.515567327671 0.860946620304 -0.028328757005 0.021650028438
3.990955555000 -0.024544409827 0.026293968287 0.528691929782 0.848482301201 0.515977819510 0.859222714144 -0.027269969558 0.022105213618
3.991377777000 -0.024376742631 0.026333193098 0.529833294626 0.846620319413 0.516396075045 0.858820673104 -0.027800893104 0.022055171820
3.991800000000 -0.024665497412 0.025274163611 0.531621045958 0.844891388842 0.520883726990 0.857839725992 -0.028413508520 0.020900050405
3.992222222000 -0.023850216343 0.025211482689 0.533336323574 0.843474796369 0.522598106503 0.858225448775 -0.028889852291 0.020979534228
3.992644444000 -0.023882181650 0.025130180586 0.534423547723 0.843087134211 0.522358225780 0.855014667401 -0.028283199381 0.020473536999
3.993066666000 -0.022946276180 0.025393241464 0.536971487032 0.842448913428 0.525730378672 0.855159819924 -0.027861882115 0.020896653685
3.993488888000 -0.023485449932 0.024636695411 0.537538260300 0.840913431790 0.527736522075 0.853705364937 -0.029076806370 0.020726214857
3.993911111000 -0.023700044807 0.024896347194 0.537787407269 0.840094549278 0.527072120242 0.853343913788 -0.028448619517 0.020678775330
3.994333333000 -0.022925946757 0.025154618005 0.539103506074 0.840764312222 0.527340264143 0.852360597434 -0.026829090944 0.020641978682
3.994755555000 -0.022668959847 0.024644383681 0.542685219753 0.839245177115 0.531371472113 0.853141772133 -0.028312824759 0.019752399293
3.995177777000 -0.022857105412 0.024344324901 0.543572906083 0.836501257350 0.532785828191 0.850484289800 -0.029552201528 0.019276238513
3.995600000000 -0.022479252048 0.024826184986 0.545145786594 0.837436661179 0.533904861542 0.851279343202 -0.028785882842 0.018766563882
3.996022222000 -0.022613532063 0.024043314157 0.546348765780 0.835406783722 0.536567720090 0.848842395513 -0.029012147227 0.019200690727
3.996444444000 -0.022334398157 0.023606742738 0.546823830977 0.833970452993 0.538432965168 0.848560773049 -0.029028494696 0.019282779224
3.996866666000 -0.021902423505 0.023741560833 0.548668803319 0.833443701913 0.539315129556 0.849492803350 -0.029010487853 0.018920352324
3.997288888000 -0.022464923642 0.023615750446 0.549838009888 0.831904623105 0.540686957074 0.845653086195 -0.029319471933 0.018362032832
3.997711111000 -0.022363727483 0.024199476490 0.550415409206 0.830957719082 0.541443126886 0.843852113050 -0.029158319605 0.019398691581
3.998133333000 -0.021863353351 0.023465148003 0.552904623997 0.830456671519 0.542869850022 0.845169733286 -0.028941106599 0.018305049543
3.998555555000 -0.021771027479 0.023857126966 0.554182211865 0.829005376201 0.543267300313 0.842960430050 -0.029863622099 0.018076477456
3.998977777000 -0.021692274443 0.023289185484 0.554086164724 0.827640067851 0.544020452678 0.842120123392 -0.028976547603 0.018278168745
3.999400000000 -0.022124116885 0.022154822502 0.553384716829 0.828906155328 0.548165807684 0.844149573116 -0.029156716894 0.016152048285
3.999822222000 -0.022188052378 0.023326163926 0.558333935030 0.825575062227 0.548139796336 0.837375251983 -0.030048405132 0.018410055275
4.000244444000 -0.021800123598 0.022265965022 0.557181778203 0.823334346679 0.549255144615 0.839109359153 -0.029432679831 0.017572063716
4.000666666000 -0.021202324946 0.022767600372 0.559229356559 0.822619773436 0.550247992708 0.839153828981 -0.030070306633 0.017712984940
4.001088888000 -0.021307983233 0.023168890318 0.562387855785 0.821913979359 0.550471664315 0.836042563511 -0.029775972705 0.017520451342
4.001511111000 -0.021495927029 0.022720073490 0.562732613376 0.821228412567 0.553933269675 0.835583256455 -0.030031876616 0.017497808801
4.001933333000 -0.021863360218 0.023124110613 0.565961673582 0.818814949712 0.554120589002 0.833282362887 -0.031291235470 0.016882672435
4.002355555000 -0.021388985220 0.022603687349 0.565914141605 0.818463932913 0.556449434029 0.832828087438 -0.030806832711 0.017076969210
4.002777777000 -0.021683389552 0.022990086622 0.567102632843 0.817277513850 0.555694708845 0.832068036528 -0.030872850746 0.017523691968
4.003200000000 -0.021384484072 0.022139629197 0.567862604452 0.817808061478 0.559261579449 0.831929879307 -0.030503417830 0.016762923849
4.003622222000 -0.021261744955 0.021495173595 0.569748398572 0.816133541972 0.563689642449 0.830431277119 -0.031008611585 0.016017999580
4.004044444000 -0.021814784173 0.021981065741 0.571422178451 0.814647305251 0.561999263123 0.827238126202 -0.031718203430 0.016825507579
4.004466666000 -0.021050972460 0.022354083496 0.572779949532 0.811612054280 0.561263726547 0.827183229928 -0.031267031438 0.017513958975
4.004888888000 -0.021751332304 0.021206813549 0.573242601262 0.813015153207 0.566842968793 0.826625071291 -0.032480730780 0.015745436130
4.005311111000 -0.020579856306 0.020800846674 0.573787947578 0.812129484666 0.567714233076 0.826086485619 -0.030804618922 0.016198088677
4.005733333000 -0.020768899755 0.020358939997 0.576599279460 0.810787566979 0.570207694554 0.824732920460 -0.031018483343 0.016001017564
4.006155555000 -0.021200858463 0.021308168919 0.578532398260 0.809116919768 0.568693192818 0.821753958156 -0.031383030079 0.016589055723
4.006577777000 -0.021093522781 0.021138714001 0.579207524782 0.807176627689 0.571526377985 0.820839984504 -0.032443820320 0.016407513499
4.007000000000 -0.022812519995 0.021025364857 0.581260623641 0.808095858150 0.575525490465 0.819325031875 -0.034918267571 0.014023741470
4.007422222000 -0.021613513145 0.020407657329 0.580604531373 0.806895196811 0.574105669270 0.820548506744 -0.031807012095 0.015666517560
4.007844444000 -0.021128695647 0.020502489012 0.581761832082 0.805882154248 0.576099111026 0.819164491474 -0.031803982579 0.015981576544
4.008266666000 -0.021666612274 0.021549424052 0.577886571044 0.805724211473 0.574912590043 0.818300898418 -0.031949841790 0.015991932920
4.008688888000 -0.022458732074 0.021288835866 0.580353514488 0.805518853563 0.576374186307 0.815164902432 -0.031936412355 0.015671959870
4.009111111000 -0.022040156770 0.021229350071 0.581244925953 0.803883525972 0.578236560419 0.816868683023 -0.032119162540 0.015454403348
4.009533333000 -0.021739498170 0.021675876778 0.583510219206 0.803200385250 0.578677424102 0.814335049348 -0.032651872465 0.016184467906
4.009955555000 -0.021479458654 0.021572359316 0.582837284137 0.801327331429 0.578182531193 0.814548019019 -0.032105838259 0.015983246250
4.010377777000 -0.021800792207 0.021780018055 0.584022717906 0.800175869682 0.580827878451 0.812741530709 -0.032089304993 0.016589236828
