# GHZ S RI R 50.000000000000
3.950000000000 -0.041325649965 0.005791681969 0.383348078506 0.901308729002 0.369143282282 0.904687212702 -0.040068519564 0.024530450477
3.950422222000 -0.043341885823 0.006624258727 0.381275675869 0.902942914301 0.370023685231 0.905061940414 -0.040423851314 0.025581605193
3.950844444000 -0.042720600722 0.006526918198 0.382930654830 0.902527361355 0.369483992107 0.904738883435 -0.041280054816 0.025062770271
3.951266666000 -0.044519518461 0.007468393566 0.378290706530 0.903452879171 0.372272345795 0.903721551316 -0.040326211499 0.026166784868
3.951688888000 -0.043368053943 0.007546641139 0.381446982758 0.900496973514 0.371705256421 0.904359981739 -0.041135452704 0.025698035065
3.952111111000 -0.044828848871 0.006242070187 0.380666704175 0.903617864962 0.370600321286 0.902538529244 -0.042537019400 0.025948495905
3.952533333000 -0.044913312857 0.007961460094 0.381744862757 0.903311500750 0.372035001095 0.902956011201 -0.041470520412 0.026747867910
3.952955555000 -0.044786869103 0.008550396624 0.385340906333 0.903481741876 0.375055164875 0.903953983234 -0.040818669870 0.027053925353
3.953377777000 -0.043920714024 0.009027624686 0.386965330983 0.902108498742 0.375913258837 0.902292322866 -0.040202957637 0.026539182434
3.953800000000 -0.045295011498 0.008978807771 0.383506352254 0.902175116378 0.376975013980 0.904696652862 -0.041003874753 0.029497509053
3.954222222000 -0.044594660567 0.009372016693 0.387958346419 0.901147382030 0.379643634316 0.902143731694 -0.040476494543 0.027997279176
3.954644444000 -0.044455607052 0.008981429733 0.389376900458 0.900929868126 0.379154331343 0.901863119610 -0.041005000448 0.027162031932
3.955066666000 -0.046139055401 0.011038769554 0.389256562968 0.902591167051 0.380321015355 0.903782066220 -0.040868676402 0.028990044383
3.955488888000 -0.045204761789 0.010544171973 0.392811784490 0.901817854938 0.381301949255 0.902799993453 -0.040718934490 0.028792428061
3.955911111000 -0.045922239689 0.010528944821 0.393512467335 0.899522449369 0.384501512014 0.901429050195 -0.039665386792 0.028241474651
3.956333333000 -0.044696775024 0.010865936816 0.393742272957 0.898326397276 0.383470157353 0.900503347329 -0.040462745306 0.027731949968
3.956755555000 -0.045896754254 0.011348295206 0.394900054799 0.902165409074 0.385194732443 0.901955775688 -0.040568281516 0.029205677875
3.957177777000 -0.045420051005 0.012527828555 0.396950447033 0.899033241733 0.387560534533 0.902093636051 -0.039625323598 0.028553906878
3.957600000000 -0.046082080603 0.012797560246 0.397864118524 0.902961331179 0.389165381860 0.901965773160 -0.040059828765 0.030560322687
3.958022222000 -0.045117742075 0.013443060727 0.401558745161 0.901273567898 0.389566408430 0.901823041535 -0.039685056587 0.029434126998
3.958444444000 -0.046098638117 0.013492718796 0.400955401287 0.902081466173 0.390276982542 0.901578789745 -0.039742489466 0.031132048475
3.958866666000 -0.045985007050 0.014864161228 0.402572160796 0.901678116614 0.393939105574 0.901715042207 -0.038899804379 0.031144090766
3.959288888000 -0.045369386091 0.013202514949 0.403633507389 0.898896547366 0.394615642734 0.901265871427 -0.039495424830 0.029544720332
3.959711111000 -0.045135577840 0.014186541655 0.407338436034 0.900723034316 0.395126035290 0.901416955349 -0.038869521015 0.030682550752
3.960133333000 -0.045728929400 0.013836574325 0.406781254509 0.899169172967 0.396593539351 0.901665216546 -0.039737904764 0.030398522986
3.960555555000 -0.045174721936 0.016063975245 0.410111250788 0.900580804046 0.394644537028 0.898988857811 -0.037837996550 0.029392116358
3.960977777000 -0.046094144941 0.015598377275 0.409710832536 0.897576291343 0.397342749208 0.900445528586 -0.038743979011 0.030506975969
3.961400000000 -0.046014123593 0.014716741430 0.409157694742 0.897273681891 0.402703276399 0.901464503398 -0.038336773946 0.032310819997
3.961822222000 -0.044274152465 0.016305722605 0.413540619292 0.896485507000 0.403665069038 0.899040352450 -0.036806043773 0.030408534166
3.962244444000 -0.046473451767 0.016460931230 0.415084409732 0.900224039169 0.400863978171 0.900669676189 -0.038444992514 0.030850151899
3.962666666000 -0.044197175211 0.017319065481 0.417977956652 0.899523318184 0.406899670276 0.898756053123 -0.036232106428 0.032763106810
3.963088888000 -0.044570289815 0.017285249408 0.416618705560 0.898238671572 0.406359257185 0.900930659382 -0.037351724656 0.031626714662
3.963511111000 -0.044516309848 0.018512840190 0.421593251748 0.898915718918 0.408081747683 0.899006925189 -0.035985409570 0.032364894782
3.963933333000 -0.044316709300 0.017607561886 0.421194822208 0.897048043650 0.409366784408 0.897025447481 -0.036607107003 0.031692199489
3.964355555000 -0.044090876619 0.018303399534 0.422759593696 0.896912430127 0.410798608726 0.900477890764 -0.036428860553 0.031779281204
3.964777777000 -0.044761617082 0.017932882652 0.421468091118 0.894630274216 0.411645046004 0.894740492541 -0.035872918920 0.031342376487
3.965200000000 -0.044794502304 0.019041624594 0.426805968136 0.897131443994 0.412521797227 0.897013141541 -0.035746823981 0.031517621274
3.965622222000 -0.044707865659 0.019710880529 0.425337955555 0.898246168447 0.415145515266 0.898870734470 -0.036584657367 0.032623196771
3.966044444000 -0.043338636090 0.019201250857 0.430718857977 0.894097342259 0.417800393766 0.897235269757 -0.034967244563 0.031749942717
3.966466666000 -0.044270410697 0.019383676975 0.427792563734 0.894919389487 0.416731912876 0.895644448695 -0.034825507114 0.031153444288
3.966888888000 -0.043913009142 0.020101066884 0.429805642712 0.895262882821 0.419677071756 0.896081532403 -0.035070391384 0.031778812140
3.967311111000 -0.042967915061 0.021629542191 0.433948684632 0.893636689942 0.420031928531 0.898553054684 -0.034878772539 0.031834534637
3.967733333000 -0.043755371144 0.021207200003 0.434847180676 0.894073869221 0.422713097174 0.896093418737 -0.034395217776 0.032660569314
3.968155555000 -0.042899450869 0.020505647215 0.434840249775 0.891681106186 0.424996443643 0.896249120688 -0.034263045612 0.032340917272
3.968577777000 -0.042301569802 0.020579719849 0.437487113183 0.891682693004 0.426059908065 0.896204085570 -0.034418389790 0.031798667298
3.969000000000 -0.038571477930 0.022420953660 0.448749872425 0.888516496828 0.433087498238 0.898032821961 -0.031600203886 0.032209127076
3.969422222000 -0.041617265144 0.021731101843 0.442815477795 0.892703532481 0.427923277170 0.893696430531 -0.032904909527 0.030821290449
3.969844444000 -0.042407634345 0.021619246329 0.442798634635 0.891719906336 0.429854606836 0.895300827275 -0.034515083707 0.030774629799
3.970266666000 -0.041518471992 0.022842477763 0.443952706197 0.892292677594 0.432946623062 0.894794688067 -0.033551811791 0.031984211062
3.970688888000 -0.041747970581 0.022911733603 0.446039638517 0.890509352598 0.433970526357 0.892979455723 -0.033083403293 0.031328714548
3.971111111000 -0.041640194435 0.022814433117 0.447584782941 0.890298054540 0.436538123376 0.893024430337 -0.032824853790 0.032000683161
3.971533333000 -0.040326250519 0.023289211713 0.452002520883 0.889811704463 0.438402579500 0.894152131728 -0.032552153188 0.031196619885
3.971955555000 -0.040229468097 0.023068925824 0.451478962357 0.888331548461 0.439263737151 0.893794192175 -0.032722270192 0.030999846258
3.972377777000 -0.041166372804 0.023334482662 0.451714827605 0.889167244334 0.441701180919 0.892693864449 -0.033092067631 0.031295576205
3.972800000000 -0.039964882940 0.023737738701 0.455325719170 0.888159570797 0.444553553513 0.891619326400 -0.032668025846 0.031943278182
3.973222222000 -0.040031662949 0.024622633084 0.458318783662 0.889927641573 0.445000455917 0.893235097764 -0.032635411847 0.032000358605
3.973644444000 -0.040133194437 0.024320532950 0.457662580577 0.886873838779 0.445955907500 0.890303862564 -0.031849720090 0.031555743452
3.974066666000 -0.039091569380 0.024859115561 0.462257565395 0.886890917476 0.447531343692 0.892041594617 -0.031702666827 0.031732900134
3.974488888000 -0.039511071071 0.025202140411 0.461186896151 0.886833995636 0.448216506391 0.891172172011 -0.031895698921 0.031433256679
3.974911111000 -0.039063713756 0.025091739497 0.462224545788 0.885932291687 0.449870746612 0.891103930320 -0.031346487320 0.031485934694
3.975333333000 -0.038193490588 0.024724013699 0.464350925370 0.883369797188 0.452295618360 0.890328533887 -0.031013986942 0.030464180328
3.975755555000 -0.038383493681 0.025960148105 0.467187346603 0.885496489951 0.452958248254 0.889565387497 -0.030785283888 0.031220363154
3.976177777000 -0.037044024154 0.026149195113 0.469518852887 0.883841806307 0.455716346357 0.890840137914 -0.030740392314 0.031288844708
3.976600000000 -0.037103073743 0.025855335020 0.467786957163 0.882357937982 0.456530362664 0.890576505655 -0.028567539949 0.031702801376
3.977022222000 -0.037232359237 0.025668173795 0.470863426243 0.882775499979 0.457073327986 0.888568189814 -0.030218920646 0.029904611499
3.977444444000 -0.036074995480 0.026757457332 0.474376004761 0.881339841889 0.460566962769 0.887390574701 -0.029159554023 0.030617946568
3.977866666000 -0.036702819118 0.026367135683 0.474798447569 0.879828691451 0.461828711801 0.885567068389 -0.030062421114 0.030234196340
3.978288888000 -0.035669021116 0.025771140431 0.476779459991 0.879779078276 0.465210114912 0.885962783500 -0.029538894895 0.030135844529
3.978711111000 -0.035899144340 0.026721324361 0.478937667346 0.879643064760 0.465806903089 0.885069928142 -0.029597365820 0.030299255340
3.979133333000 -0.035887611705 0.027783468187 0.478459353524 0.879957691755 0.464754858212 0.886150584359 -0.029540590050 0.030732445475
3.979555555000 -0.034716063563 0.026520391852 0.482637494017 0.878714100272 0.469547527222 0.885539795134 -0.029808745692 0.028773377317
3.979977777000 -0.035356579108 0.025912765523 0.481548188522 0.877123054123 0.472117116434 0.882346158122 -0.029315281109 0.029351768212
3.980400000000 -0.034900589317 0.027018724221 0.484456241621 0.876588078318 0.471722973300 0.882555828736 -0.029381767503 0.029113536049
3.980822222000 -0.034537414746 0.027094265217 0.486171825503 0.876331054461 0.473719372584 0.882706524274 -0.029101862663 0.028830679610
3.981244444000 -0.033559247457 0.027193667874 0.489452093126 0.875234051505 0.475568986288 0.883801858720 -0.029387857570 0.028451994101
3.981666666000 -0.034512760549 0.026959350243 0.487363122131 0.873649405043 0.476570274191 0.879783863653 -0.028595738398 0.028132285105
3.982088888000 -0.032798568806 0.026805210976 0.492525134366 0.872561418676 0.479371024633 0.881124688616 -0.028520876921 0.027780208935
3.982511111000 -0.033292706188 0.026918674273 0.492611976295 0.871878499549 0.480190016932 0.879725550767 -0.029259987770 0.027524184411
3.982933333000 -0.032293995375 0.026927683756 0.495441583827 0.871116218335 0.482653317344 0.879867314622 -0.028463246291 0.027724342808
3.983355555000 -0.032752680464 0.027367129035 0.495415105894 0.870660613400 0.482585214014 0.878733749933 -0.028376737780 0.027787788815
3.983777777000 -0.032642070224 0.026573657339 0.496330325226 0.869390826698 0.485660560870 0.877047168207 -0.028345579176 0.027475172091
3.984200000000 -0.030671206636 0.028107096071 0.499294214194 0.872687630792 0.485748461098 0.882541066570 -0.027652630088 0.025238712721
3.984622222000 -0.031177462308 0.026547827757 0.500073526343 0.867648231229 0.489491682468 0.877423986480 -0.027937886610 0.026549433281
3.985044444000 -0.030868762043 0.027087633042 0.501858002893 0.867510875743 0.489864537797 0.877628020805 -0.027648274671 0.026492825837
3.985466666000 -0.030581144512 0.027290833149 0.503078210836 0.866318974539 0.491509498678 0.876230808211 -0.027484121701 0.026781325350
3.985888888000 -0.030933772246 0.026193742698 0.504994462786 0.863971207512 0.495560577062 0.873607257255 -0.029083478190 0.025891674762
3.986311111000 -0.030753649847 0.026524735450 0.505991085624 0.863699601103 0.496882550057 0.873169337690 -0.028307698892 0.026025620434
3.986733333000 -0.028939466574 0.027563849842 0.509624600395 0.864489353593 0.497554603544 0.874186038593 -0.027465863412 0.025488820590
3.987155555000 -0.029941551183 0.026966789353 0.509731210673 0.863260070523 0.497351248822 0.871520578362 -0.027770984276 0.025470224591
3.987577777000 -0.028804320410 0.026342643588 0.512113821270 0.861955343868 0.501439165361 0.872073793251 -0.027848127576 0.024596312300
3.988000000000 -0.028958113559 0.026757893021 0.514085928374 0.861229590479 0.503020609559 0.871271874731 -0.028313415754 0.024586095648
3.988422222000 -0.028885999508 0.026713811540 0.515170963285 0.860164741031 0.504158609273 0.871070438301 -0.028219176133 0.024230777245
3.988844444000 -0.028145664403 0.026984381633 0.515600047577 0.858910980609 0.504032662321 0.870315666544 -0.027576468123 0.024429012234
3.989266666000 -0.028260801196 0.027093502543 0.517826414009 0.858762650765 0.507131807744 0.867587783518 -0.027418214886 0.024017147737
3.989688888000 -0.027901193292 0.026238932322 0.520076114236 0.856603290452 0.507850288377 0.868367013215 -0.028340429596 0.023348369359
3.990111111000 -0.027823563586 0.026168270612 0.520818752505 0.855321311792 0.510539970949 0.866493752121 -0.028598228053 0.024002096943
3.990533333000 -0.027684678721 0.025635810645 0.522603026208 0.854823087577 0.512392325758 0.865940637312 -0.028330453807 0.023057478395
3.990955555000 -0.027191227670 0.026487574069 0.523525405753 0.854922657900 0.512680080355 0.864605083386 -0.027302307089 0.023744444367
3.991377777000 -0.026742978174 0.026962034645 0.525704065029 0.853949702232 0.513863480968 0.863689572504 -0.027541268103 0.023366871667
3.991800000000 -0.027173092252 0.025205362786 0.526152079344 0.850867544427 0.517736969775 0.863540167444 -0.028502675875 0.022635382232
3.992222222000 -0.026351132659 0.025745742311 0.529009317275 0.850584113979 0.519600619934 0.863158670093 -0.028926579716 0.022415602634
3.992644444000 -0.026484441349 0.025483315931 0.529413397912 0.849900137917 0.519258274095 0.860205510009 -0.028214841164 0.021892727648
3.993066666000 -0.025683633171 0.025427154800 0.531818126744 0.848953016741 0.522222518579 0.860430323930 -0.027885618880 0.022648171289
3.993488888000 -0.025898171116 0.025297203977 0.533708245385 0.847896239990 0.524384861123 0.858853811760 -0.028940343540 0.022201643881
3.993911111000 -0.026156727336 0.025313286787 0.533522855145 0.847004890473 0.523894799054 0.857830046836 -0.028524565987 0.022162511531
3.994333333000 -0.025493809230 0.025626152330 0.534657014219 0.847867321720 0.523953808079 0.857408666375 -0.026817738403 0.022098835342
3.994755555000 -0.024904982731 0.024716959705 0.537958502845 0.845380482401 0.528474695195 0.858658242985 -0.028277517819 0.020907747476
3.995177777000 -0.025424005517 0.024760976857 0.538522528185 0.843526040409 0.530715364121 0.855926114496 -0.029240762816 0.020665538263
3.995600000000 -0.024759334509 0.025219350263 0.540941203832 0.843924533729 0.530712608124 0.856646533305 -0.028810936023 0.020062329669
3.996022222000 -0.024889935481 0.024593687806 0.542231455427 0.842412275633 0.533565479496 0.854080272663 -0.028880879941 0.020658900032
3.996444444000 -0.024233313125 0.024360406722 0.543675148251 0.840736734820 0.535526050129 0.853464900466 -0.028827648214 0.020390343345
3.996866666000 -0.024353370659 0.024257833159 0.544887240231 0.840680418172 0.537022294724 0.853616882473 -0.028949790341 0.020177087357
3.997288888000 -0.024622562193 0.023787270527 0.545907330087 0.838320604638 0.537912123589 0.850388803119 -0.029223831847 0.019573391208
3.997711111000 -0.024362089691 0.024292460471 0.546602989220 0.836899441490 0.538580274770 0.848513390830 -0.029206668287 0.020687662418
3.998133333000 -0.023878966863 0.023531533479 0.549005671330 0.836465348518 0.539912255021 0.850023233164 -0.028975103146 0.019478524746
3.998555555000 -0.023876673497 0.024156403594 0.550805238594 0.835437343419 0.540799066333 0.847910811557 -0.029595754881 0.019375346770
3.998977777000 -0.024104042656 0.023813145579 0.550285715884 0.834346349214 0.541659124026 0.846801023498 -0.028821180966 0.019622885736
3.999400000000 -0.023904427117 0.023133987360 0.550324523529 0.835673636129 0.545096853939 0.849554820937 -0.028915295803 0.017410053207
3.999822222000 -0.024828597184 0.023358788021 0.554280749677 0.832233611364 0.545681476618 0.841680331534 -0.030044947524 0.019804882510
4.000244444000 -0.023364784935 0.023128700264 0.554052181007 0.829994695022 0.546195843097 0.844572566451 -0.029273234447 0.018869639900
4.000666666000 -0.023049823901 0.022917969209 0.555941289976 0.829347836242 0.548727763430 0.844070573112 -0.029731821660 0.019011958010
4.001088888000 -0.023763507748 0.023216997312 0.558409158778 0.828407058910 0.548027439270 0.841153935306 -0.029612773123 0.018986197952
4.001511111000 -0.023844665911 0.022687589670 0.558752630203 0.827668109834 0.550804081125 0.839943910792 -0.029916990513 0.018943410418
4.001933333000 -0.024344046154 0.022881916556 0.561739073057 0.825452964786 0.550950841330 0.837285295982 -0.031230975388 0.018259809471
4.002355555000 -0.023322381189 0.022829603291 0.562282970364 0.824886370739 0.553919373347 0.837995965037 -0.030753869728 0.018388437776
4.002777777000 -0.023723621982 0.022498411945 0.563185762474 0.823567248089 0.554978541728 0.835847989659 -0.030837535272 0.018683437545
4.003200000000 -0.022979851348 0.022491415524 0.564085947599 0.823925878462 0.556967994688 0.837927570722 -0.030474059423 0.018056648887
4.003622222000 -0.023310168041 0.021853836377 0.565816683136 0.822874411439 0.560480722317 0.836572109206 -0.030815677598 0.017382102521
4.004044444000 -0.023469681980 0.022623400213 0.567808895798 0.821215486426 0.559443181844 0.833762960552 -0.031507768102 0.018112753420
4.004466666000 -0.023465039051 0.022266241044 0.568852370735 0.818188059954 0.558971581082 0.831756219413 -0.031062892928 0.018893044787
4.004888888000 -0.023703624221 0.022040065634 0.569438644165 0.819666450975 0.564607264536 0.833300054674 -0.032362032597 0.017131666091
4.005311111000 -0.023434088817 0.021611577889 0.570071046378 0.818883590151 0.564354049671 0.831351021327 -0.030638795572 0.017647490097
4.005733333000 -0.023053596999 0.020716876774 0.572946798676 0.817440239160 0.567880170417 0.829673961006 -0.030901454644 0.017408635572
4.006155555000 -0.023159574898 0.020840285726 0.575013076685 0.815467776117 0.567231269819 0.825592905090 -0.031300463003 0.017992251125
4.006577777000 -0.023654175511 0.020788115408 0.575560333786 0.813813998396 0.569174235517 0.824773792516 -0.032404895413 0.017725088536
4.007000000000 -0.027244406375 0.024113402385 0.577324573402 0.814784595442 0.564991714997 0.825165673871 -0.034700479676 0.015477372146
4.007422222000 -0.022914036171 0.020403156040 0.577278725505 0.813289361304 0.573831350501 0.826412156744 -0.031605909879 0.016924590246
4.007844444000 -0.023318284839 0.020337867841 0.578342441210 0.812199872481 0.574086624968 0.823620996319 -0.031802263831 0.017250102504
4.008266666000 -0.023570741736 0.021154760075 0.578768266436 0.809512980358 0.571583980556 0.823764579914 -0.032124861541 0.017492342889
4.008688888000 -0.023713589933 0.020188688320 0.580705942382 0.809284275903 0.576351308466 0.820145569217 -0.032234329612 0.017207216416
4.009111111000 -0.023438345108 0.020320079108 0.581420844646 0.808013431464 0.577229315139 0.821853175433 -0.032418359410 0.017025494005
4.009533333000 -0.023706438234 0.020355308013 0.583902256108 0.806836142929 0.578048091110 0.817931154339 -0.033010208387 0.017760249164
4.009955555000 -0.023281071137 0.020475461897 0.583282617229 0.805062428726 0.577982853294 0.819159336401 -0.032345693240 0.017639155670
4.010377777000 -0.023614610122 0.020875191571 0.584113693336 0.804178757559 0.578759740355 0.816469870954 -0.032285521607 0.018338415445
