# GHZ S RI R 50.000000000000
3.950000000000 0.804608416645 -0.161523098060 -0.271571427970 -0.396600294912 -0.266444018771 -0.399550648564 0.443352308626 -0.686915043926
3.950422222000 0.801934105530 -0.159040852357 -0.271201476853 -0.396287236961 -0.266564112591 -0.398337206281 0.440598873413 -0.689554873460
3.950844444000 0.801380486365 -0.162382146169 -0.272394690744 -0.394097499069 -0.266060944713 -0.396906781587 0.436864194010 -0.691260568239
3.951266666000 0.799100269132 -0.162509192018 -0.272035061689 -0.393050162724 -0.267624753881 -0.396079184431 0.437575553449 -0.692712381559
3.951688888000 0.800579970543 -0.162566029272 -0.272217172921 -0.391290314110 -0.266735735094 -0.394273825396 0.432555991770 -0.693292716403
3.952111111000 0.801896823205 -0.166835847340 -0.272802792980 -0.392593219956 -0.266483617154 -0.393540795835 0.432105809928 -0.692979664547
3.952533333000 0.799773151218 -0.166579636603 -0.273551351555 -0.389815623217 -0.267547777390 -0.393671202035 0.430610957211 -0.694312937068
3.952955555000 0.800525853143 -0.167427654616 -0.273521949437 -0.390779775094 -0.266749624534 -0.391785863104 0.430194283398 -0.696538915782
3.953377777000 0.801793403113 -0.167647802576 -0.273515877576 -0.388864589372 -0.266579428136 -0.391106482686 0.426928498051 -0.696724301024
3.953800000000 0.801484768178 -0.167335254223 -0.271700374290 -0.390189980553 -0.266195365058 -0.391561902864 0.428889890790 -0.695490999218
3.954222222000 0.800623290860 -0.171490758391 -0.275154670519 -0.387875331885 -0.269014762707 -0.389439455747 0.426771431414 -0.698841255355
3.954644444000 0.802183449250 -0.172805544565 -0.275462426174 -0.387769474370 -0.268440650338 -0.390458797799 0.425180388926 -0.699290380327
3.955066666000 0.800798960559 -0.172856352234 -0.276041043460 -0.386898441997 -0.269542082074 -0.389275678437 0.425197387756 -0.700047290218
3.955488888000 0.800967282038 -0.174227418727 -0.276602379361 -0.385838218298 -0.269233062911 -0.388449693350 0.423969227062 -0.700950561280
3.955911111000 0.802335363788 -0.174408049964 -0.276434912820 -0.386378446885 -0.270925408472 -0.386975372808 0.423150644973 -0.702965656363
3.956333333000 0.803402106768 -0.176813589391 -0.278496679357 -0.384569153640 -0.270460570990 -0.387032147957 0.420007981881 -0.703443165206
3.956755555000 0.803000977472 -0.177379483230 -0.277600926355 -0.384991444957 -0.271775532016 -0.386482165543 0.421639294047 -0.704100928709
3.957177777000 0.803670555442 -0.176840431656 -0.278724187617 -0.384415231606 -0.271686047037 -0.385814483850 0.420208802385 -0.707185028999
3.957600000000 0.802615561617 -0.177643683281 -0.278225490905 -0.383507946996 -0.271575201956 -0.385326044446 0.419188847956 -0.706685622625
3.958022222000 0.804213131587 -0.178402786899 -0.278899506801 -0.383032498178 -0.271670036983 -0.385021793921 0.417635152017 -0.708517690448
3.958444444000 0.804318975288 -0.179813852738 -0.279230705545 -0.382414748102 -0.273045887026 -0.384000101126 0.416614037274 -0.708395804208
3.958866666000 0.804569715515 -0.176841591255 -0.278193079208 -0.382373465033 -0.273314121449 -0.382512485399 0.415527344561 -0.711999084845
3.959288888000 0.805283893210 -0.180699155306 -0.279440015679 -0.381344037260 -0.274041878362 -0.383919824505 0.415180012724 -0.712343983722
3.959711111000 0.807530916553 -0.180064847372 -0.279675574088 -0.380778462793 -0.274110483796 -0.382439955914 0.411949346128 -0.712401927537
3.960133333000 0.807659148989 -0.183706179833 -0.280520397046 -0.380851538987 -0.274070698620 -0.383084835289 0.412741789223 -0.713009494465
3.960555555000 0.807137585205 -0.183664964895 -0.282998584413 -0.379005620388 -0.274304395507 -0.380652688416 0.409828894001 -0.716257878940
3.960977777000 0.807793145734 -0.185153862548 -0.282659505627 -0.379381599442 -0.275707189130 -0.380684976344 0.410492130658 -0.716413419616
3.961400000000 0.807259298774 -0.187687756743 -0.282507492843 -0.378339802788 -0.277231341878 -0.380953604354 0.410472407327 -0.716844275020
3.961822222000 0.808829475556 -0.187170247087 -0.283212826232 -0.377668197772 -0.276857195678 -0.378749146229 0.408571517793 -0.719612310345
3.962244444000 0.810490065727 -0.188009598139 -0.283321053346 -0.378219080760 -0.277542366091 -0.378716021912 0.408207143991 -0.719522982471
3.962666666000 0.808028286581 -0.189782048868 -0.284305526029 -0.375893153959 -0.277561110108 -0.377628320583 0.405941722216 -0.721249407249
3.963088888000 0.810162647267 -0.190597835999 -0.283677343661 -0.375605052959 -0.278061977730 -0.377613374816 0.406328350113 -0.721140018715
3.963511111000 0.809211295952 -0.192272001613 -0.285384220528 -0.374970983921 -0.278878864609 -0.376527737606 0.405376815372 -0.724141412605
3.963933333000 0.810611099381 -0.195364561019 -0.286050912280 -0.374539612378 -0.278781713418 -0.376102000016 0.404216526390 -0.724156438842
3.964355555000 0.810641451419 -0.195102696445 -0.286348654264 -0.373064074212 -0.279464906377 -0.376431032212 0.402981751240 -0.725774501091
3.964777777000 0.810768377336 -0.196917008847 -0.286402191706 -0.373518025262 -0.279096580662 -0.373757290143 0.402836597475 -0.725612665829
3.965200000000 0.811125644766 -0.197413904475 -0.287087518062 -0.372452222696 -0.280781964537 -0.373521936995 0.401178981118 -0.728076708544
3.965622222000 0.812607682311 -0.199577712255 -0.287985653351 -0.372074967175 -0.280944876195 -0.373470846771 0.400430423241 -0.728912275867
3.966044444000 0.812856542486 -0.201609435697 -0.289173154725 -0.370790334725 -0.281697759780 -0.371948063668 0.399213270022 -0.730389338885
3.966466666000 0.813601072303 -0.199639453614 -0.287877119312 -0.370590557023 -0.281206068369 -0.371501857740 0.398920088955 -0.732335468663
3.966888888000 0.813997450703 -0.202085402991 -0.289409263172 -0.369609014954 -0.282182140049 -0.371127716642 0.397357066275 -0.733457481292
3.967311111000 0.815019301924 -0.203680176434 -0.290228128038 -0.367905195966 -0.283450298180 -0.370990658565 0.395704256595 -0.734922081950
3.967733333000 0.813879651576 -0.205365484457 -0.290776066083 -0.367742549181 -0.283830429871 -0.369275086184 0.394970089239 -0.735763776113
3.968155555000 0.814609155229 -0.208388863872 -0.290616546615 -0.366549746274 -0.284057501627 -0.368710600601 0.394617718627 -0.735918738225
3.968577777000 0.816719945062 -0.208421211291 -0.291926034691 -0.366114276050 -0.284324735984 -0.368710842011 0.392035878149 -0.738448512904
3.969000000000 0.812754035711 -0.210605629501 -0.293512621158 -0.364815451281 -0.285963316862 -0.368296178987 0.391224271217 -0.743354990193
3.969422222000 0.817009147131 -0.209950109646 -0.291736188405 -0.364870344306 -0.285020438014 -0.365874578638 0.389966361913 -0.740577083202
3.969844444000 0.816854375699 -0.211681733631 -0.293082870197 -0.364055904806 -0.285792971090 -0.366118763431 0.390037939710 -0.743362691050
3.970266666000 0.818013768467 -0.214289687191 -0.293762668105 -0.363010787682 -0.286861041093 -0.365376233873 0.387892460233 -0.744286152153
3.970688888000 0.817408117892 -0.215928856020 -0.294479257315 -0.362155081600 -0.287106747419 -0.363880639328 0.387803634729 -0.744875842541
3.971111111000 0.817555342147 -0.217538732476 -0.294801567990 -0.361249190549 -0.288012075771 -0.363511155792 0.386236714501 -0.746648544567
3.971533333000 0.820240795437 -0.217697571002 -0.294540036591 -0.360875439970 -0.288331350737 -0.363456262179 0.384745891245 -0.748875225222
3.971955555000 0.820093492086 -0.219127688356 -0.295366764171 -0.359486745837 -0.288441266330 -0.362898142666 0.384064886513 -0.749856143819
3.972377777000 0.820676061635 -0.221281685336 -0.295827326187 -0.359055526773 -0.289744901254 -0.361972367347 0.381491466886 -0.751366590935
3.972800000000 0.820484169714 -0.223655757512 -0.296551961918 -0.358154073419 -0.290726589153 -0.360540698897 0.380651718796 -0.751801614617
3.973222222000 0.822650542530 -0.226786562377 -0.297306531103 -0.357524826676 -0.291243965975 -0.360115126254 0.379944209381 -0.752440297583
3.973644444000 0.822528309734 -0.227398290969 -0.297987202043 -0.356617042495 -0.291027596617 -0.358761024324 0.379122020813 -0.754203725229
3.974066666000 0.822598550320 -0.229765287614 -0.298919805572 -0.355446688999 -0.291864086189 -0.358846874277 0.376901756368 -0.754385894078
3.974488888000 0.823666946126 -0.231009562624 -0.298977726405 -0.354444568803 -0.291920876686 -0.357806985578 0.377209042205 -0.756356026485
3.974911111000 0.824658915220 -0.231127101718 -0.298824544888 -0.353646385134 -0.292585789228 -0.356919310918 0.376787600005 -0.758093475893
3.975333333000 0.823984469864 -0.232636144287 -0.299249056104 -0.352591079220 -0.292851295716 -0.356157873965 0.375947642252 -0.760035403500
3.975755555000 0.824195504146 -0.234589256616 -0.300112987881 -0.352088310683 -0.293088543423 -0.355283119998 0.374448374187 -0.761287021615
3.976177777000 0.825797090900 -0.235863527935 -0.300527099443 -0.350609363846 -0.294136470361 -0.354838986255 0.373168462786 -0.762853852366
3.976600000000 0.828596745896 -0.237349943704 -0.300690555004 -0.349564769405 -0.294109443968 -0.354156838610 0.372347549601 -0.763482812310
3.977022222000 0.827077736057 -0.238752400607 -0.301403640259 -0.349289903000 -0.294469312217 -0.353001733610 0.371523554246 -0.764808636989
3.977444444000 0.827487732254 -0.240099570619 -0.301677554007 -0.348223614055 -0.295124221719 -0.351768042476 0.370267404099 -0.767047577305
3.977866666000 0.825880437350 -0.241830780227 -0.301836715021 -0.347192491801 -0.296032689370 -0.350643732225 0.368840936603 -0.768156556803
3.978288888000 0.827475854088 -0.245951721630 -0.302590677794 -0.346205502199 -0.296984614555 -0.349572910074 0.368012660985 -0.769439639977
3.978711111000 0.827596556722 -0.247763739881 -0.303269998529 -0.345369273717 -0.297127925866 -0.349032318866 0.366734605670 -0.770345750771
3.979133333000 0.826918520254 -0.249604320775 -0.304879641928 -0.343817337069 -0.297046025959 -0.349081134937 0.364839942154 -0.772381109383
3.979555555000 0.830409259528 -0.249847272755 -0.303679656725 -0.343590201807 -0.298372007937 -0.348251845597 0.363051824749 -0.774856965287
3.979977777000 0.829679711490 -0.251470613917 -0.303999224115 -0.342561028179 -0.299122463514 -0.345994933980 0.363045501725 -0.775875499086
3.980400000000 0.829849511550 -0.253973504328 -0.305231767159 -0.341506444767 -0.299033957455 -0.345596104912 0.361227958153 -0.775861712921
3.980822222000 0.830521083075 -0.255658239951 -0.305299113815 -0.340398726745 -0.299653637870 -0.344843980500 0.360545008078 -0.777981007856
3.981244444000 0.833175629071 -0.257571957036 -0.305951378117 -0.339525086596 -0.300390761271 -0.344812657076 0.358559694551 -0.779952403021
3.981666666000 0.831654319310 -0.260864974084 -0.306134643849 -0.338924906303 -0.300163040970 -0.342551516255 0.358935971374 -0.780967783678
3.982088888000 0.831567917119 -0.260944746485 -0.306484880035 -0.337142012814 -0.301087272442 -0.342387300077 0.356761027214 -0.783678818261
3.982511111000 0.833621233183 -0.262470277684 -0.307439946219 -0.336749826103 -0.301533121684 -0.341470507736 0.354828378981 -0.783581005891
3.982933333000 0.833502081217 -0.266744002656 -0.308039083372 -0.335049408677 -0.301903238360 -0.340304366778 0.354241862695 -0.785426533185
3.983355555000 0.833479554747 -0.266371388479 -0.308462817481 -0.334240008952 -0.302403077640 -0.339533235293 0.353620969413 -0.786984966891
3.983777777000 0.833467450326 -0.269694547940 -0.308453014098 -0.333174644888 -0.303172946873 -0.338083072682 0.351514421928 -0.787119996116
3.984200000000 0.838904684451 -0.271251266484 -0.308963666235 -0.332063481985 -0.302784860212 -0.339709633651 0.351305308851 -0.791527976470
3.984622222000 0.835510868069 -0.273313721642 -0.308919381954 -0.331158562519 -0.304065919069 -0.336881236232 0.349643712302 -0.791608439242
3.985044444000 0.835572055363 -0.274898620146 -0.309723803055 -0.329711293631 -0.304222466166 -0.336370952485 0.349674673361 -0.792766721170
3.985466666000 0.836778813342 -0.276988162024 -0.310273443102 -0.328791255218 -0.304522842747 -0.334884544915 0.347135661665 -0.794759874653
3.985888888000 0.835672098223 -0.279554200196 -0.310332180392 -0.327639876648 -0.305843517023 -0.333794526894 0.344934907601 -0.795342240383
3.986311111000 0.836606574035 -0.282160801981 -0.310841503749 -0.326548040414 -0.306006738024 -0.332559065916 0.343659189164 -0.797079799787
3.986733333000 0.837523868982 -0.283883148471 -0.311188765871 -0.325228387625 -0.306022809651 -0.332320901513 0.343482185194 -0.798006104086
3.987155555000 0.837290641039 -0.285694239713 -0.311973223041 -0.324645600607 -0.305913771453 -0.330839021270 0.341777363618 -0.799166577611
3.987577777000 0.838224929882 -0.288513373232 -0.312271914583 -0.323319940576 -0.307052968748 -0.330282319281 0.339886948186 -0.802473745281
3.988000000000 0.838774181712 -0.290977373972 -0.312974026636 -0.322164155489 -0.307610808937 -0.329175316007 0.338193072223 -0.803840901682
3.988422222000 0.838219795256 -0.292615898357 -0.312831682501 -0.321012560951 -0.307697338238 -0.328363954061 0.336051508918 -0.805621745649
3.988844444000 0.839401380979 -0.292247391961 -0.312945124275 -0.319876502450 -0.307753415948 -0.327439936588 0.335962915849 -0.805270082454
3.989266666000 0.839490716848 -0.297438038435 -0.313416217678 -0.318925854467 -0.308228640827 -0.325631522280 0.334351504507 -0.805961531918
3.989688888000 0.839931028842 -0.298933694776 -0.314186990386 -0.317483034958 -0.308740004263 -0.325331140569 0.333226283841 -0.809024933720
3.990111111000 0.841593821867 -0.301100645938 -0.314017046581 -0.316456854828 -0.309694269602 -0.323534637636 0.331087094465 -0.810904815147
3.990533333000 0.839431858619 -0.303557997302 -0.314369864170 -0.315160984291 -0.309776512116 -0.322953281166 0.329363132639 -0.812194167304
3.990955555000 0.839367917617 -0.304943230393 -0.314947256932 -0.313981348624 -0.309804554348 -0.321375069292 0.329260207024 -0.812822961721
3.991377777000 0.841217423415 -0.306248244431 -0.315119651228 -0.312800205998 -0.310044501580 -0.320518403072 0.327196242849 -0.813559144166
3.991800000000 0.841563741013 -0.310044959075 -0.315498593463 -0.311849047536 -0.311112250910 -0.319181876372 0.325234814490 -0.818087803741
3.992222222000 0.842545884975 -0.312816387753 -0.315876947623 -0.310120388445 -0.311706507235 -0.318452577706 0.322996065114 -0.818371132420
3.992644444000 0.841544095195 -0.314000731784 -0.316123879959 -0.309478668289 -0.311103674029 -0.317273716351 0.322780550347 -0.818742676043
3.993066666000 0.841693449778 -0.318193610345 -0.316590391642 -0.307857372246 -0.311847969580 -0.316004918713 0.319995020441 -0.819206107896
3.993488888000 0.842838779911 -0.320328024670 -0.316720494385 -0.306908018496 -0.312781055530 -0.314639683406 0.318126191852 -0.821598868287
3.993911111000 0.841489165154 -0.322127254959 -0.316991180253 -0.305625341304 -0.312335808720 -0.313692081534 0.318298753789 -0.822963081431
3.994333333000 0.838228300623 -0.322025558062 -0.317436619704 -0.304453459390 -0.311314207390 -0.312834466925 0.318578513856 -0.824152332343
3.994755555000 0.843222636397 -0.328085339232 -0.317649356472 -0.303132781231 -0.313192709737 -0.311777396364 0.314227096574 -0.826904954148
3.995177777000 0.842967056646 -0.329986232842 -0.317886555612 -0.301836330940 -0.313626709440 -0.310466313017 0.311204896583 -0.828021634504
3.995600000000 0.845110909745 -0.331872713856 -0.318491607398 -0.300721617976 -0.313820998988 -0.309786724145 0.310872447773 -0.829659905547
3.996022222000 0.842905901173 -0.334964857662 -0.318278660256 -0.299237862764 -0.314055308512 -0.307663413463 0.308280566235 -0.832135301382
3.996444444000 0.843453072597 -0.337602019022 -0.318414782599 -0.298057620149 -0.314657767468 -0.306823954306 0.307191701152 -0.832070307052
3.996866666000 0.845427419366 -0.342264898542 -0.319153929065 -0.296669679410 -0.314929465200 -0.305550506753 0.306364723550 -0.835863464582
3.997288888000 0.841526015154 -0.343070557137 -0.319110886023 -0.295446923369 -0.314718518296 -0.304579762617 0.303789148139 -0.834945666223
3.997711111000 0.842923414943 -0.344411085891 -0.319039962614 -0.294201285598 -0.314994565665 -0.302647333287 0.301936469025 -0.835286574682
3.998133333000 0.843258032901 -0.347839390012 -0.319609169493 -0.292790406808 -0.315340142461 -0.302380528101 0.302312789223 -0.838416468815
3.998555555000 0.842912892232 -0.350102954756 -0.319777670033 -0.291815697633 -0.315327587624 -0.300668398886 0.299358569913 -0.841045551256
3.998977777000 0.842918640639 -0.349946639298 -0.319582826822 -0.290589922319 -0.315465337398 -0.299515376515 0.298597540086 -0.840907228585
3.999400000000 0.846285245147 -0.355023966796 -0.318929333149 -0.290556443088 -0.316113727328 -0.299520384688 0.297787401218 -0.844643922327
3.999822222000 0.841536415868 -0.356203677982 -0.320420225294 -0.287824897326 -0.316519880788 -0.295690909963 0.293100861973 -0.843899902984
4.000244444000 0.841046591945 -0.359209672797 -0.319695767904 -0.286554314592 -0.315711092013 -0.296129408057 0.292428054135 -0.844419896611
4.000666666000 0.842783973614 -0.361823546300 -0.319913671295 -0.285215973153 -0.316621162223 -0.294561083171 0.289635260216 -0.847440156848
4.001088888000 0.841066796968 -0.364057737226 -0.320745745614 -0.283846044626 -0.315933839306 -0.292531713195 0.287809831132 -0.848873568266
4.001511111000 0.840980640913 -0.367685081810 -0.320597920268 -0.282634210156 -0.317191529742 -0.291587630748 0.287663150085 -0.849274116203
4.001933333000 0.839739704413 -0.370067730817 -0.321428983827 -0.280921621552 -0.316638804765 -0.290314578315 0.283830177608 -0.851585396614
4.002355555000 0.841478096141 -0.373162784995 -0.321141228843 -0.279922785208 -0.317230923964 -0.288629467405 0.282169426210 -0.852834698444
4.002777777000 0.840048257479 -0.376642597335 -0.321341227711 -0.278369471463 -0.317180582190 -0.287627782079 0.281758205717 -0.853239990556
4.003200000000 0.840604403586 -0.377320824965 -0.321192232903 -0.277602078273 -0.317868079087 -0.286474260683 0.279292133524 -0.857489722732
4.003622222000 0.841326048623 -0.382716776954 -0.321278299487 -0.276181222748 -0.318929867175 -0.285256976243 0.277795918876 -0.858525715049
4.004044444000 0.839549687043 -0.385061699293 -0.321929220865 -0.274750760465 -0.317888988544 -0.282756028597 0.273928390214 -0.858948322685
4.004466666000 0.841621157836 -0.385132817253 -0.321881924001 -0.272458353749 -0.317134334357 -0.281125007051 0.268562042643 -0.858963380021
4.004888888000 0.842273891953 -0.392594410697 -0.321768190820 -0.272345045457 -0.318756202759 -0.280693942686 0.268808582014 -0.862354892306
4.005311111000 0.839631677967 -0.393509261782 -0.321436365004 -0.270908225755 -0.318758371243 -0.279482955566 0.270721870425 -0.862907031144
4.005733333000 0.838054989092 -0.396726041860 -0.321907511635 -0.269181896655 -0.319017618942 -0.277663555052 0.267157276811 -0.866454663292
4.006155555000 0.837728689329 -0.398084495158 -0.322457633408 -0.267766608473 -0.318200305303 -0.275353330322 0.262992353412 -0.866194217757
4.006577777000 0.837243956280 -0.402678977705 -0.322278995565 -0.266213579716 -0.318802921427 -0.274552360466 0.261083529087 -0.866161785163
4.007000000000 0.838790599199 -0.403732797299 -0.323315320191 -0.266328644528 -0.319895685794 -0.272916081331 0.256271538810 -0.872591563387
4.007422222000 0.839073559241 -0.410106617710 -0.321789766875 -0.263719627261 -0.319382742422 -0.272151763335 0.258890872426 -0.870786702362
4.007844444000 0.836698782579 -0.411239408205 -0.321982138855 -0.262573205711 -0.319281143961 -0.270259088266 0.256118432369 -0.872667723306
4.008266666000 0.838073751360 -0.409395097157 -0.320860078701 -0.262285765429 -0.318263994570 -0.268983696161 0.254147587288 -0.871114978791
4.008688888000 0.835692189612 -0.414009945324 -0.320707547502 -0.261026154975 -0.319396627567 -0.266799632287 0.252335377566 -0.875846775287
