# GHZ S RI R 50.000000000000
3.950000000000 0.228022450672 -0.286697412895 0.746284174175 0.538089894360 0.742915543464 0.526924787947 0.182864657548 -0.299581176587
3.950422222000 0.226908764715 -0.286446141161 0.745445976644 0.537068504296 0.742891525092 0.524438642210 0.180431052257 -0.300717601675
3.950844444000 0.225499441569 -0.285109142927 0.744866416289 0.537748039212 0.742815873867 0.523458138716 0.179962538387 -0.301758747739
3.951266666000 0.225635615094 -0.286294793067 0.746924142726 0.536497304976 0.742821954238 0.524056259577 0.178004766138 -0.302719597870
3.951688888000 0.224774257154 -0.285534202711 0.744616093242 0.535932401260 0.743289718001 0.522488080642 0.176984667786 -0.302740428246
3.952111111000 0.223814670926 -0.285763218373 0.747186806318 0.536359986942 0.744848948684 0.523555890655 0.178044162545 -0.302609708769
3.952533333000 0.222391330997 -0.286363030819 0.747544863767 0.531825958547 0.743905260443 0.521363172090 0.175447473311 -0.303892181127
3.952955555000 0.223413200745 -0.286829201180 0.748948905601 0.530233346045 0.745164880744 0.520226601103 0.175244080734 -0.304315919323
3.953377777000 0.223154557301 -0.286097619111 0.749880672955 0.530983647851 0.745680605952 0.520407887917 0.174458683432 -0.304452734130
3.953800000000 0.223283595809 -0.289099514521 0.753220128473 0.525455929755 0.747770613244 0.520010682125 0.175306415425 -0.304296263407
3.954222222000 0.223381803864 -0.286472278538 0.751951854553 0.530448560368 0.747690169334 0.517620556439 0.174933686609 -0.305321716138
3.954644444000 0.222603267636 -0.286732018333 0.753530915045 0.529568752274 0.748305686023 0.517305167357 0.175033008195 -0.305560113668
3.955066666000 0.222177651215 -0.287487408767 0.754669445587 0.526069803495 0.750019248746 0.515190820099 0.174744495037 -0.305412170198
3.955488888000 0.222872124219 -0.286814581514 0.753981076186 0.528087476034 0.749732331704 0.515222435360 0.173916951329 -0.305276650813
3.955911111000 0.222242507355 -0.287667225622 0.755345650363 0.527390907512 0.751282614797 0.514172731100 0.173321896145 -0.305056946804
3.956333333000 0.221630075842 -0.287489008403 0.757305783443 0.525728657561 0.753367366839 0.514076291211 0.173785073532 -0.306730025460
3.956755555000 0.221786066548 -0.286487637374 0.757909444733 0.524753264709 0.752807073722 0.513530740454 0.172926580978 -0.306708294365
3.957177777000 0.221578171150 -0.287615861724 0.756662363208 0.525765936206 0.753892281232 0.512287803810 0.172881849713 -0.305685980419
3.957600000000 0.221190775868 -0.287399158970 0.760709959632 0.523114516853 0.754097388395 0.511167264977 0.172271314001 -0.307140747583
3.958022222000 0.221421163049 -0.288191341948 0.762138657846 0.521751922316 0.756177598074 0.509936223704 0.172847899327 -0.306957003980
3.958444444000 0.221686400756 -0.287533266487 0.761487686424 0.521811199318 0.756475275563 0.509918649656 0.171505415083 -0.307358808004
3.958866666000 0.221216295785 -0.288188901716 0.762155295001 0.519538284778 0.758062635763 0.508280969390 0.170722524931 -0.307445821481
3.959288888000 0.220870344086 -0.288356024386 0.763706899249 0.520691411037 0.758725466408 0.506980086999 0.171909707980 -0.307876550915
3.959711111000 0.220347177808 -0.289836522107 0.765986063729 0.519465617334 0.759862370283 0.506506506167 0.171539044269 -0.308459740294
3.960133333000 0.220691665917 -0.289431053588 0.767093880703 0.517634659326 0.760775217796 0.505830387016 0.170875120071 -0.308841737135
3.960555555000 0.221563084600 -0.289090981524 0.768899012444 0.517294644206 0.760790574671 0.505342783356 0.170473240484 -0.310352580150
3.960977777000 0.220706804350 -0.289612180969 0.768782019880 0.515554516932 0.762708452317 0.504196366975 0.169686557836 -0.309698220317
3.961400000000 0.220508263987 -0.289708494221 0.770770801590 0.511090789835 0.763210966214 0.502916204804 0.169209754001 -0.310854179391
3.961822222000 0.219958990806 -0.290198068956 0.772585122193 0.513763889812 0.763723911142 0.501949443465 0.169562231695 -0.310939752101
3.962244444000 0.220327852981 -0.290635717296 0.772543599096 0.513672333837 0.765290005162 0.501179365299 0.169537426539 -0.310638522493
3.962666666000 0.219518462714 -0.290440572413 0.773591617796 0.511533741688 0.765457551688 0.499550942562 0.167991461993 -0.311645640632
3.963088888000 0.219705672586 -0.291420390840 0.775907352651 0.510168918848 0.766741102445 0.499051307346 0.168383053619 -0.311949806681
3.963511111000 0.218931286857 -0.291692428046 0.775672400510 0.508263546361 0.768421938227 0.498842098564 0.168350661728 -0.311718358509
3.963933333000 0.218328595444 -0.291995908068 0.777506912349 0.507282791828 0.769230066548 0.497115294597 0.167841088811 -0.312453833694
3.964355555000 0.218731602104 -0.292207801649 0.778536531701 0.506767028989 0.769455574046 0.496351222410 0.167178868898 -0.312738924981
3.964777777000 0.218485429661 -0.293443846695 0.780690022895 0.505533815302 0.770543430721 0.496397968930 0.166005853482 -0.313264666635
3.965200000000 0.218293669244 -0.293242593815 0.781436710919 0.504271178218 0.772259242636 0.494864888568 0.166377403341 -0.313625310670
3.965622222000 0.218584091190 -0.293858949709 0.782161970413 0.503773691171 0.772642756708 0.493307971057 0.166060079258 -0.313970192404
3.966044444000 0.217852721779 -0.294478125568 0.782965983526 0.501623469815 0.773692770134 0.492540715992 0.165366717613 -0.314426923863
3.966466666000 0.217965760877 -0.293292661865 0.783611186185 0.501815451253 0.773600707021 0.490604268711 0.165265490047 -0.314162830780
3.966888888000 0.217603716916 -0.293786279432 0.784427748620 0.500300732395 0.775692715564 0.490740983699 0.165081633266 -0.315096216385
3.967311111000 0.217593127784 -0.294789235019 0.785903012211 0.498901606956 0.776750766784 0.489516844714 0.163846492992 -0.315874701855
3.967733333000 0.217419659462 -0.294455671875 0.786307908913 0.497973226090 0.776967613801 0.488100741094 0.163185950074 -0.316182756903
3.968155555000 0.216862948805 -0.295176678347 0.787471890940 0.495478596161 0.777874779104 0.487892176261 0.164088071631 -0.316333881568
3.968577777000 0.216610542332 -0.295536947961 0.788460893115 0.494176792412 0.778932654553 0.486928287270 0.163837435856 -0.316250963630
3.969000000000 0.217999656306 -0.296866472065 0.792208427704 0.494385434026 0.778787365498 0.487554600052 0.162779759299 -0.317348695813
3.969422222000 0.215979569694 -0.296359713949 0.790744590729 0.492681604512 0.781715882251 0.485302101411 0.162532698698 -0.317151245947
3.969844444000 0.215828881657 -0.296540902120 0.791001307889 0.492725647830 0.781419268861 0.483353160276 0.162874217327 -0.317303489191
3.970266666000 0.215829682752 -0.297130667689 0.792435058971 0.490209853618 0.782679474070 0.482701900516 0.161860284538 -0.318509454313
3.970688888000 0.215143995311 -0.297898129505 0.794279242630 0.488841405351 0.783629545263 0.481406760288 0.160632742371 -0.318936580796
3.971111111000 0.215785611223 -0.298040274613 0.794167281760 0.486914661434 0.784831358240 0.481363707793 0.160951027741 -0.318603728499
3.971533333000 0.215756125542 -0.298069835738 0.795763650991 0.487005169717 0.785088091518 0.479159129554 0.160274531312 -0.320052402872
3.971955555000 0.214629820096 -0.298177118958 0.796019218756 0.485269560126 0.785958251515 0.478917905130 0.160171063262 -0.320017964754
3.972377777000 0.214460943465 -0.299233991668 0.797273919919 0.484275233121 0.787756288466 0.477609433059 0.159227945797 -0.319731493580
3.972800000000 0.214587717629 -0.299288102699 0.798205804391 0.482897616157 0.787775064486 0.476178223372 0.159221675290 -0.320519317329
3.973222222000 0.214671292968 -0.299731109375 0.798454340130 0.482082566175 0.788541008368 0.475243427595 0.157826993530 -0.321645540674
3.973644444000 0.213746038385 -0.301287760185 0.800306244946 0.480604507464 0.790270939817 0.474399094283 0.157212873845 -0.321344087772
3.974066666000 0.213101552259 -0.300909200610 0.801097549254 0.478747937348 0.790288716195 0.473360422257 0.157478730875 -0.321354232000
3.974488888000 0.212789211930 -0.301488739799 0.802535279411 0.478129195175 0.791117877492 0.472371083904 0.156511013071 -0.321226426918
3.974911111000 0.212529186630 -0.301745400448 0.803047780331 0.475980236562 0.792250736227 0.470852801737 0.155845215847 -0.322525799486
3.975333333000 0.212142727583 -0.302197135195 0.804172198566 0.475499167982 0.793023129815 0.469218992077 0.155772161437 -0.322672205490
3.975755555000 0.212469943130 -0.303653827464 0.805351169376 0.474020560989 0.794444017635 0.469280977449 0.154733693191 -0.323266594299
3.976177777000 0.211695048152 -0.303106483254 0.805965616699 0.472567891531 0.794866280078 0.467104177325 0.155091284646 -0.323925285858
3.976600000000 0.211634922953 -0.305103361289 0.808458088862 0.470896948835 0.796419223980 0.466740663164 0.154591908655 -0.323335046255
3.977022222000 0.212029360198 -0.305013775113 0.807984595333 0.469622895089 0.796783130858 0.466370353331 0.154052702968 -0.324338352566
3.977444444000 0.211082096521 -0.305454488737 0.808788381376 0.469227080010 0.798289182935 0.463189020493 0.152444169176 -0.325091065269
3.977866666000 0.211060454354 -0.305422947645 0.808643937966 0.467783640572 0.799006352428 0.463214469323 0.152767313560 -0.324608641510
3.978288888000 0.210264966322 -0.304557628894 0.810346498275 0.466139656399 0.798327390504 0.462812484489 0.152359878271 -0.325920886541
3.978711111000 0.210483755199 -0.306197657281 0.811590661169 0.465323949388 0.800325190539 0.461078595064 0.150671379630 -0.326407081524
3.979133333000 0.210863788318 -0.306986526325 0.811459553969 0.463566996418 0.801360293320 0.461760638968 0.150742610477 -0.326403850063
3.979555555000 0.209680769801 -0.308035121470 0.813297869302 0.462863482610 0.803122101471 0.458551814303 0.149761429705 -0.327013443089
3.979977777000 0.210015601259 -0.308134099463 0.812999663453 0.461282328488 0.803514504102 0.458654661462 0.149096076369 -0.326855858654
3.980400000000 0.209069282896 -0.308256230449 0.814643435665 0.459628694193 0.803651652871 0.457311204662 0.148779053210 -0.327836743909
3.980822222000 0.208668568885 -0.308665074247 0.815114736617 0.459428754942 0.804042972350 0.455257293709 0.148666799855 -0.327592753445
3.981244444000 0.207200823388 -0.309298986087 0.816719691107 0.456844099182 0.805210864522 0.453466896232 0.147403995341 -0.327556803486
3.981666666000 0.208938212912 -0.310641783781 0.817051024267 0.456500979809 0.807929362684 0.453043554511 0.145686609066 -0.329328860328
3.982088888000 0.207676684610 -0.309884006313 0.817752762260 0.454387863049 0.807016066597 0.451741598618 0.146723794757 -0.328498751769
3.982511111000 0.207061500662 -0.310311515575 0.818433939685 0.453160252676 0.806747424167 0.450819533434 0.145776609938 -0.328297555419
3.982933333000 0.207065286167 -0.311191890183 0.819344438542 0.451811143100 0.807941216428 0.451084611408 0.146272757694 -0.328455740204
3.983355555000 0.205608072088 -0.311112645181 0.819954809185 0.450312922192 0.808547105014 0.449480369396 0.145598507332 -0.328270792686
3.983777777000 0.206084006967 -0.312385519415 0.820700400900 0.449219030895 0.809963202109 0.448163455149 0.144985599005 -0.330220890538
3.984200000000 0.205196530581 -0.312017891367 0.821898350221 0.448652841506 0.810024838139 0.446700476936 0.145014856449 -0.330827872392
3.984622222000 0.204527594850 -0.313297648481 0.822336449923 0.446491076234 0.811954514190 0.445237816362 0.144001878874 -0.330107108287
3.985044444000 0.203682447399 -0.314070514247 0.823646161793 0.445242525993 0.812542034506 0.442469437765 0.142035029640 -0.330396927867
3.985466666000 0.204025989016 -0.313483046367 0.824074270981 0.443783780832 0.812174299604 0.442755033820 0.142736443740 -0.330864125116
3.985888888000 0.204083651748 -0.313730876425 0.823899156898 0.442443224496 0.813765815059 0.442660847977 0.142699515364 -0.331261821861
3.986311111000 0.203262753193 -0.315755636147 0.825859825217 0.440824580225 0.815306258560 0.440776534823 0.140439724601 -0.331793893364
3.986733333000 0.202144631067 -0.315652957669 0.826001104922 0.438822667583 0.816203469295 0.438303796296 0.140973671116 -0.329813346905
3.987155555000 0.203198044594 -0.317280118084 0.827315582875 0.438012018554 0.817437760173 0.439672662310 0.139279891652 -0.331523673901
3.987577777000 0.202550248146 -0.317459379482 0.828783046812 0.436598124071 0.817635903884 0.437309176309 0.139073772092 -0.331439579358
3.988000000000 0.201737603213 -0.317696405827 0.829100685250 0.435581292130 0.818739082979 0.435960409319 0.138173356355 -0.333100080265
3.988422222000 0.201445438106 -0.317384097634 0.829467766113 0.433955798264 0.818180840517 0.435024721565 0.137887036488 -0.332282935181
3.988844444000 0.200820306617 -0.318894341765 0.830360729915 0.432978817372 0.819359268913 0.433827425650 0.136727263092 -0.332196154649
3.989266666000 0.201309070409 -0.320014998653 0.831509357932 0.430981601254 0.821669567530 0.433813053298 0.135903120620 -0.333958017010
3.989688888000 0.199260618165 -0.319079878411 0.832022378212 0.431021917623 0.820357878660 0.430174815294 0.135111722581 -0.333537304907
3.990111111000 0.200473696887 -0.319411257857 0.832945297422 0.428970757941 0.821841517084 0.432771730643 0.136254902318 -0.335041346469
3.990533333000 0.199116591125 -0.320459575312 0.832890933003 0.427849123225 0.823067874836 0.429303846503 0.135287767838 -0.334895443699
3.990955555000 0.197656260916 -0.320726590096 0.833605889902 0.426046423335 0.823148710469 0.427195305126 0.134522298136 -0.334587581932
3.991377777000 0.197686082519 -0.322486083327 0.834756735349 0.424385207534 0.826118318950 0.426109416780 0.132452047735 -0.335325844704
3.991800000000 0.199157603421 -0.322132679201 0.836187461445 0.423623735166 0.825311663484 0.427682292727 0.132389693342 -0.335422140341
3.992222222000 0.196323061826 -0.322476970522 0.835879162825 0.421709870012 0.824896020033 0.423941216108 0.132724062179 -0.334669991918
3.992644444000 0.195945686898 -0.323597484077 0.835843634518 0.420478095416 0.828027645620 0.421986720692 0.131451534490 -0.335183417841
3.993066666000 0.195035887955 -0.323633093948 0.836277843158 0.419227433407 0.827527712501 0.420925339177 0.131581026249 -0.334371947353
3.993488888000 0.194770517381 -0.323996589504 0.837618750824 0.418397767112 0.827343454237 0.420722189283 0.131098831221 -0.335416714008
3.993911111000 0.193918012407 -0.324768656242 0.838451553043 0.417157639316 0.828509297533 0.418668476222 0.129530965588 -0.334984435317
3.994333333000 0.193333024700 -0.326592342473 0.840101840871 0.413741277843 0.832194135050 0.418505274934 0.129212177110 -0.336999000108
3.994755555000 0.193136398956 -0.325788314732 0.841030141453 0.413707187163 0.829670211218 0.417324684912 0.128520123371 -0.335569315664
3.995177777000 0.192561725248 -0.327039428322 0.840479790875 0.411377558856 0.833360213337 0.414762813686 0.126953722233 -0.335996535721
3.995600000000 0.191842386362 -0.326952674189 0.841060907076 0.411077807293 0.831976244776 0.413166415069 0.127192026254 -0.335905342418
3.996022222000 0.192884468297 -0.327659621645 0.842501631041 0.409389206716 0.832787641356 0.415012219838 0.126625036477 -0.336340477418
3.996444444000 0.190205012357 -0.327199912096 0.842316680290 0.408460862700 0.831649073159 0.410360798695 0.126166939531 -0.335576189788
3.996866666000 0.190853454655 -0.327210197328 0.843599179141 0.407955130293 0.833704398662 0.411201811331 0.126814361583 -0.336898538509
3.997288888000 0.189347174575 -0.329025855126 0.844059634208 0.405511845434 0.835919519654 0.408227728382 0.124231963612 -0.336175159043
3.997711111000 0.190069211841 -0.328864232290 0.845286808926 0.404441641617 0.835445202630 0.409086746102 0.124180787782 -0.336543593829
3.998133333000 0.188356074027 -0.329222260809 0.845644475742 0.402489818232 0.835927092336 0.405838627399 0.123281061529 -0.337012590170
3.998555555000 0.187614383548 -0.330555881789 0.845763020949 0.401288725059 0.837303288576 0.404743657628 0.123284548721 -0.337142692176
3.998977777000 0.187191281934 -0.330055619177 0.845891595570 0.399879960757 0.837240653407 0.404132275192 0.122501765918 -0.336993916093
3.999400000000 0.187453798540 -0.331598010858 0.848283077007 0.397931104673 0.839887337692 0.400012471451 0.119463073732 -0.337749414798
3.999822222000 0.186600043808 -0.331857634891 0.847328935843 0.397928754029 0.842101094411 0.402726946085 0.121178622635 -0.338269505853
4.000244444000 0.186788413835 -0.331327164064 0.850242263501 0.395753599469 0.839242017442 0.401545340356 0.120342343484 -0.338969295237
4.000666666000 0.184733203101 -0.332739249629 0.849115770384 0.395760946125 0.842065418905 0.398396272661 0.120149575879 -0.338348410043
4.001088888000 0.183634801558 -0.332182681967 0.850477068502 0.392462537369 0.841389760129 0.395961708249 0.118073446781 -0.337822275281
4.001511111000 0.182798161756 -0.333083317571 0.851049965609 0.392552515652 0.842625052755 0.395121666405 0.118653051198 -0.338987163275
4.001933333000 0.181988396941 -0.333403987373 0.852429501765 0.390968668152 0.842113108328 0.391806907234 0.117206283480 -0.337916382344
4.002355555000 0.182909078375 -0.334161247119 0.852082825300 0.390809955056 0.845577705404 0.393371667618 0.117891424089 -0.338904706165
4.002777777000 0.181728480108 -0.334180935596 0.853169543092 0.388286000512 0.842967867566 0.392554582593 0.118106919379 -0.338253848889
4.003200000000 0.180255334873 -0.335077955433 0.852939775997 0.386900953073 0.845687558195 0.389765118208 0.116481206884 -0.338772428914
4.003622222000 0.180401729220 -0.335826454966 0.854581629897 0.385075280326 0.846819406624 0.389307507172 0.115395305560 -0.339088676893
4.004044444000 0.179545077778 -0.334396202064 0.855386213056 0.384058406143 0.845151519592 0.388620452132 0.115611467794 -0.338338560803
4.004466666000 0.178994187454 -0.334489309344 0.854186388259 0.380314758939 0.843634653617 0.387372815155 0.114959668367 -0.337540541199
4.004888888000 0.177419013982 -0.337116183296 0.854993320661 0.381252111878 0.850248538623 0.385082728044 0.114325757997 -0.339597032082
4.005311111000 0.176381537218 -0.337152636725 0.857587698364 0.379575798799 0.849257843639 0.381724554165 0.111949554784 -0.339289974561
4.005733333000 0.178044686783 -0.337450137919 0.856618373704 0.378029499685 0.851092311067 0.385413598861 0.112853399650 -0.339914721918
4.006155555000 0.176848277558 -0.337610426836 0.856913778699 0.378159957405 0.850939567291 0.382610322511 0.112707893386 -0.339738844891
4.006577777000 0.174921202458 -0.336879655738 0.857131267721 0.375627973847 0.849390922213 0.381154156301 0.112883825921 -0.338467350107
4.007000000000 0.176755084606 -0.337076865278 0.855237966913 0.375947647008 0.853345498922 0.383966201124 0.113389568950 -0.340368350212
4.007422222000 0.172759715199 -0.337648847572 0.859741933407 0.370735354755 0.850240529482 0.377595356991 0.110415321313 -0.338432068747
4.007844444000 0.172945382068 -0.339114891289 0.859880770977 0.371292344791 0.852447281311 0.377299646197 0.110788474764 -0.339083120793
4.008266666000 0.171729749313 -0.340630315315 0.859598336316 0.369940306981 0.857318834776 0.374347332431 0.109146923070 -0.339992755678
4.008688888000 0.171708130794 -0.339322547695 0.860182216437 0.369914454649 0.854015179743 0.372136528450 0.108423430468 -0.338710338841
4.009111111000 0.170701863000 -0.340446677265 0.862032100907 0.370501420338 0.856934523176 0.371553192950 0.109237802462 -0.340179021985
4.009533333000 0.170256124337 -0.338735780852 0.860730416431 0.367691351232 0.853973764781 0.371839191595 0.109907867879 -0.339029561099
4.009955555000 0.169296427029 -0.339338899611 0.862944079919 0.364831934114 0.853618251264 0.370490780013 0.108672197594 -0.339399501034
4.010377777000 0.168583726403 -0.340425492356 0.863852525437 0.363090600640 0.857092699291 0.368754605706 0.106954380994 -0.340533717843
