# GHZ S RI R 50.000000000000
3.950000000000 0.158649822191 -0.442030608489 0.793556975696 0.301827525325 0.782318187656 0.295870528593 0.133910068701 -0.434410951383
3.950422222000 0.155780875221 -0.441445525402 0.793281484731 0.300429697394 0.781796076619 0.296007818058 0.130865966756 -0.435327386611
3.950844444000 0.154246862963 -0.442316326790 0.791358988135 0.298183206521 0.781615270281 0.296792568858 0.127781704172 -0.433334989130
3.951266666000 0.153204740122 -0.443630893322 0.793957853496 0.296453922081 0.780968107892 0.294316871829 0.126405979944 -0.434539164146
3.951688888000 0.152344087717 -0.443689425606 0.794833079161 0.295484330699 0.780972172851 0.294861865547 0.124864925004 -0.433793832199
3.952111111000 0.151241228219 -0.444654286259 0.796321431264 0.293193649005 0.781428530982 0.293471028252 0.124013517047 -0.434823923313
3.952533333000 0.150167875553 -0.442996907318 0.794182333990 0.294074974245 0.781115892936 0.292948369578 0.124278430603 -0.433760088933
3.952955555000 0.148326533831 -0.443347554227 0.794105836202 0.290009990846 0.782258582174 0.291816802803 0.122500489018 -0.434498149358
3.953377777000 0.148628423369 -0.444622223941 0.796407367111 0.288415955883 0.783323262724 0.290961111502 0.120806163844 -0.434591786135
3.953800000000 0.149171355297 -0.443288385027 0.794427699937 0.289121329053 0.783669993981 0.290839267172 0.120816010963 -0.433928207695
3.954222222000 0.147272154395 -0.445349119443 0.798876995710 0.287527701463 0.784523148211 0.288980656746 0.121160868362 -0.434452616431
3.954644444000 0.147381063765 -0.445588396746 0.800683856400 0.285831578659 0.784648728930 0.288125260029 0.120180769052 -0.434637479856
3.955066666000 0.147487423115 -0.445237836048 0.800227328925 0.285223054551 0.784325139671 0.288333842214 0.118824896530 -0.435324878142
3.955488888000 0.145700803191 -0.445515860623 0.799642789430 0.283405523895 0.786518812273 0.286230446990 0.118986144098 -0.435039694882
3.955911111000 0.144739102843 -0.445894965865 0.802256580311 0.283087285850 0.786663931084 0.284760971372 0.118657968277 -0.435211873536
3.956333333000 0.144642755840 -0.446282838473 0.801823817200 0.281805315508 0.788212540149 0.283624839527 0.118111648630 -0.435142354941
3.956755555000 0.144209573788 -0.445076800759 0.802905276962 0.279984165214 0.787714958114 0.283825237166 0.117756747443 -0.435666240120
3.957177777000 0.143907234863 -0.446819458423 0.803171582752 0.279357995138 0.789390961999 0.281894888798 0.117163970241 -0.435856159356
3.957600000000 0.143604134565 -0.446301793523 0.803960152381 0.277410431305 0.789003607538 0.281012813347 0.115442784612 -0.436299129348
3.958022222000 0.143456114377 -0.447602774801 0.805048760260 0.277809562901 0.789858914371 0.280220752038 0.115550975883 -0.435854267433
3.958444444000 0.143303842524 -0.447625910458 0.806240013400 0.274596987750 0.790875008933 0.279919116546 0.114625332697 -0.436363855776
3.958866666000 0.140528437133 -0.448607733250 0.806816321222 0.274896275854 0.791959495894 0.278466584746 0.115257907287 -0.435624061855
3.959288888000 0.141720152125 -0.446941494482 0.806770392280 0.274079510143 0.792255113473 0.277280459690 0.114891166686 -0.436567028882
3.959711111000 0.141536259289 -0.448120116936 0.808298283800 0.271639949997 0.793516054274 0.277096277836 0.113300327318 -0.436367774460
3.960133333000 0.140209125809 -0.447740868935 0.808222628145 0.271034305095 0.793683958464 0.275400358860 0.113225505151 -0.436804760782
3.960555555000 0.140841396442 -0.448734390642 0.811021712321 0.270398537268 0.793612941465 0.274268218171 0.112223489997 -0.437830387122
3.960977777000 0.140075144547 -0.447620019672 0.810515673911 0.268643565427 0.794411866263 0.272842996604 0.111247384257 -0.438164927333
3.961400000000 0.139511337380 -0.448616696742 0.811075336490 0.267463668576 0.794738015100 0.271904675161 0.110829396856 -0.437941165880
3.961822222000 0.139016751644 -0.448876387695 0.812136723326 0.266113780305 0.795191009363 0.271424237226 0.110845653606 -0.437517311693
3.962244444000 0.137914106474 -0.448634078431 0.811850792680 0.265326412829 0.797446052778 0.270169021927 0.110741773065 -0.438237862536
3.962666666000 0.137179562688 -0.448855266989 0.813564401321 0.263440021337 0.796333671857 0.269340367100 0.110329795789 -0.437927849639
3.963088888000 0.138445031063 -0.449549935450 0.813826384497 0.262931563933 0.797875691332 0.268286564592 0.108353821754 -0.438397885596
3.963511111000 0.136083579923 -0.450246417892 0.814842392732 0.260660905306 0.798486913332 0.265878815030 0.107417271310 -0.438747797736
3.963933333000 0.136658503123 -0.449662574011 0.815087838853 0.259963712336 0.799165815331 0.264605734305 0.106260797904 -0.439213674235
3.964355555000 0.136565640206 -0.450898604554 0.816023604656 0.259004391796 0.800278501211 0.265016275306 0.106255249098 -0.439072136544
3.964777777000 0.135303793878 -0.451450563584 0.816736424736 0.257396097979 0.801140319524 0.263981876776 0.106161131623 -0.439464506460
3.965200000000 0.135714326936 -0.452181143787 0.817542033482 0.256404790506 0.801825388123 0.262652424773 0.104593550814 -0.439311979181
3.965622222000 0.134106740186 -0.450669806445 0.818617376486 0.254189261499 0.801682352791 0.261767015916 0.104901677483 -0.440297358329
3.966044444000 0.134625149979 -0.451321257465 0.818865696615 0.253115018745 0.802079907727 0.261075932978 0.103355239251 -0.440317897417
3.966466666000 0.135222989466 -0.452058032656 0.819740147753 0.252916447553 0.803044292866 0.259902003481 0.102133443383 -0.440941626939
3.966888888000 0.132588337110 -0.453372458129 0.820295241931 0.250376096476 0.804069218347 0.258328629255 0.102236023313 -0.439337673727
3.967311111000 0.133240506545 -0.452105522304 0.821056932345 0.249417190749 0.803658763145 0.256732965703 0.100854240042 -0.441050253007
3.967733333000 0.131716284741 -0.453454215949 0.821742740847 0.247089230477 0.805391706205 0.255767843225 0.100461502605 -0.440637394133
3.968155555000 0.130729756895 -0.453826610207 0.822793605566 0.246287200451 0.805702123813 0.253896246356 0.099445446646 -0.441054594156
3.968577777000 0.131102673063 -0.453855602725 0.823742790936 0.245157025498 0.805811683168 0.254343491709 0.099593438769 -0.441649579399
3.969000000000 0.129571485732 -0.454244152308 0.825046142947 0.244055057595 0.806874810227 0.250777508744 0.097321681293 -0.441822205659
3.969422222000 0.129450692242 -0.453853219101 0.824676505925 0.242038872468 0.806945129921 0.251870011275 0.097816772769 -0.441332093303
3.969844444000 0.130350369538 -0.454537879796 0.824887910197 0.241648967719 0.807407574780 0.252300562737 0.096617527652 -0.441636726365
3.970266666000 0.128763707668 -0.454653237917 0.825728541629 0.240113162662 0.809296651857 0.248599624855 0.095926881288 -0.443022792575
3.970688888000 0.128010028562 -0.455507446429 0.826200567945 0.238901689862 0.808699205716 0.248243765536 0.095544397182 -0.441578857254
3.971111111000 0.128626840165 -0.456086588803 0.826877040255 0.237437578705 0.810515908825 0.248308017024 0.094684453577 -0.443161844080
3.971533333000 0.127170872085 -0.455151633486 0.827968249363 0.236045750525 0.808702003908 0.246117036854 0.094200213907 -0.442189771467
3.971955555000 0.126827017775 -0.456314720849 0.828169088599 0.235071591776 0.811256072832 0.245730243567 0.093113199779 -0.442976212533
3.972377777000 0.125780436266 -0.455686962301 0.828434213693 0.233108574642 0.810861395366 0.244249940888 0.093314165233 -0.443166649593
3.972800000000 0.126166609891 -0.457324058056 0.829633938892 0.232358228526 0.811943006227 0.244443490260 0.092437033141 -0.443735927742
3.973222222000 0.125502767381 -0.456526558511 0.829739051164 0.230796771904 0.812467802481 0.243308390345 0.092306579937 -0.443961236898
3.973644444000 0.124449119301 -0.457241780075 0.830343145348 0.229630985543 0.813593328615 0.241058236917 0.090826556572 -0.444241755752
3.974066666000 0.122558082733 -0.456334445754 0.831031486110 0.227754182080 0.813382334221 0.238817807114 0.090808575748 -0.444486801975
3.974488888000 0.123974421888 -0.457533673260 0.831464227014 0.226647226933 0.814107938286 0.240013243267 0.089273231161 -0.444289008968
3.974911111000 0.123086504796 -0.458967544962 0.832288241786 0.225298130556 0.815433687206 0.238751015201 0.089115183091 -0.444128013689
3.975333333000 0.121553738912 -0.457586717662 0.833199569264 0.224041902379 0.814012920293 0.236667904994 0.087957163739 -0.443799411858
3.975755555000 0.120804183689 -0.459820376517 0.833525942786 0.222728531113 0.816422243778 0.235212827762 0.086788467376 -0.444230616444
3.976177777000 0.121455299661 -0.458943522560 0.833611621403 0.221593562343 0.815494568067 0.234980415636 0.086739387889 -0.444587959420
3.976600000000 0.120693729950 -0.458786045146 0.833999726661 0.220643858142 0.815111687657 0.232514791075 0.085086672265 -0.444076755323
3.977022222000 0.119803713880 -0.460313704789 0.834962257913 0.218782324164 0.817543270741 0.233173584491 0.085183641577 -0.445305151974
3.977444444000 0.119628940988 -0.458507847305 0.835326309419 0.217874353318 0.816224017058 0.232093343134 0.085018383115 -0.445612890876
3.977866666000 0.119837840686 -0.461019969208 0.836125070689 0.216063366198 0.819085831637 0.231702890623 0.083332507017 -0.445780189264
3.978288888000 0.117937208143 -0.460718074134 0.836601988798 0.214888542126 0.818861046376 0.228728387409 0.083275767125 -0.446087181644
3.978711111000 0.117669347437 -0.460455131506 0.836875777662 0.213430345951 0.818549472423 0.228028309209 0.082468859827 -0.445767449640
3.979133333000 0.116731559139 -0.462505595685 0.837508135626 0.212352636980 0.819884313344 0.226761309761 0.081497313087 -0.445562921000
3.979555555000 0.116277623797 -0.462949262520 0.837848279844 0.210619616843 0.822295811884 0.226294567275 0.080744202845 -0.446503178076
3.979977777000 0.114634354170 -0.461964360696 0.837962465232 0.209810673213 0.820923140750 0.222936110516 0.079993067149 -0.446132143857
3.980400000000 0.115438883413 -0.462464186557 0.838746097048 0.208247850585 0.821663661044 0.224420785488 0.079599894473 -0.446832156843
3.980822222000 0.114546340315 -0.463722882526 0.839724030852 0.207094843417 0.823848662019 0.222565726820 0.078786686226 -0.447408015846
3.981244444000 0.113751573925 -0.464243852275 0.839785309427 0.205652888426 0.823446629782 0.221642237911 0.077800907401 -0.446455451451
3.981666666000 0.111168444266 -0.463869765948 0.839571251545 0.203540785128 0.824179081835 0.217871362534 0.076846084431 -0.444997943893
3.982088888000 0.111575829578 -0.463314624323 0.840161195368 0.203221745173 0.823052903981 0.217597437816 0.076146393317 -0.445854243520
3.982511111000 0.112309772892 -0.465178009676 0.841264190191 0.201862034999 0.825330649928 0.217898660826 0.075332765212 -0.447623387696
3.982933333000 0.110905881914 -0.465632019333 0.842125458242 0.200388237217 0.826374033416 0.216777816287 0.075057191848 -0.447798570531
3.983355555000 0.109735782122 -0.464360388366 0.842051002569 0.198868398031 0.825682043924 0.214794930070 0.074600927778 -0.446792624203
3.983777777000 0.108342353715 -0.465923007815 0.842486482203 0.196976598172 0.826601258024 0.213271761490 0.072618946340 -0.446238778878
3.984200000000 0.107258404133 -0.464681477689 0.842326842833 0.196047829428 0.827469706379 0.210483232902 0.071651052968 -0.447583499540
3.984622222000 0.107893901148 -0.465469903122 0.843503147056 0.195642159418 0.826016116658 0.211226335378 0.072367675296 -0.446518718767
3.985044444000 0.106655708218 -0.466074160843 0.843628355711 0.193805475407 0.826742647876 0.209263667728 0.071109888072 -0.445889713199
3.985466666000 0.107559524695 -0.466805638114 0.844414637532 0.192534118630 0.828246292406 0.210462783530 0.071590352480 -0.447319033341
3.985888888000 0.104456917973 -0.467471895109 0.843929039067 0.190270430675 0.830337324891 0.206179785552 0.069517682201 -0.446990737099
3.986311111000 0.105424903059 -0.466857101771 0.845318823580 0.189729515294 0.828120833874 0.207081757520 0.069492436598 -0.446911407756
3.986733333000 0.102314177649 -0.468448838288 0.845202619777 0.187804408428 0.831049467192 0.203272922902 0.067483782881 -0.446368029515
3.987155555000 0.103640376145 -0.467149465606 0.845659455699 0.186675945484 0.829471364964 0.204551624784 0.068047571374 -0.446585552516
3.987577777000 0.103717749716 -0.469623022063 0.846671848476 0.185730636794 0.831763682003 0.203449422908 0.066862306274 -0.446963157711
3.988000000000 0.101927162195 -0.470201378266 0.847556843275 0.183908897378 0.833234401383 0.201490693628 0.064584384484 -0.448057716855
3.988422222000 0.102122785748 -0.470109691662 0.847737791050 0.183666851517 0.832077919272 0.201039921240 0.065724311054 -0.447608724794
3.988844444000 0.100333594535 -0.469181502202 0.847329683560 0.181988327207 0.832262259610 0.199406477076 0.065055205439 -0.447124925259
3.989266666000 0.100182170194 -0.471221560308 0.848398118822 0.178921592453 0.835469099975 0.199133444403 0.062102243681 -0.448605451381
3.989688888000 0.098210966261 -0.471361163491 0.848086090492 0.177784005587 0.834809957027 0.196022956719 0.061786504885 -0.447080501075
3.990111111000 0.099224939558 -0.471443292008 0.849149269882 0.176987325826 0.834331591588 0.196934486125 0.062592476720 -0.447006248994
3.990533333000 0.097823213476 -0.471247844912 0.849909286908 0.176006454188 0.834493882677 0.195492357521 0.061821022068 -0.447620670897
3.990955555000 0.096070143247 -0.472780638280 0.850065244430 0.173730149133 0.837201136040 0.192966316810 0.059915818051 -0.447487819563
3.991377777000 0.096158759361 -0.472725329517 0.850801058035 0.172428209682 0.837277306939 0.193058879240 0.059239137082 -0.447896526841
3.991800000000 0.094782228379 -0.473400228133 0.850753440757 0.170124227832 0.838524104987 0.190364674095 0.058272238940 -0.447939496304
3.992222222000 0.095149816072 -0.471719832758 0.850987077643 0.170889142442 0.835830738970 0.190025440789 0.058723012140 -0.447434455709
3.992644444000 0.093629994264 -0.471720251839 0.850936877349 0.167898579353 0.836352542566 0.188236067349 0.057379995442 -0.446435372656
3.993066666000 0.092758731782 -0.474042566634 0.851757200010 0.167246251091 0.838811684874 0.186022864344 0.055491406262 -0.447516849650
3.993488888000 0.090547229659 -0.473694489441 0.851440427533 0.164971662451 0.839517112624 0.184037309560 0.054978390519 -0.446790405519
3.993911111000 0.091367249226 -0.473694768966 0.852268299654 0.165048780397 0.838845054808 0.183809145507 0.055637959386 -0.447567774239
3.994333333000 0.091513094445 -0.476997165791 0.854917220989 0.162978226736 0.843060119527 0.186623987349 0.054788234186 -0.449269672277
3.994755555000 0.089312338594 -0.473876421102 0.852528653956 0.162352508818 0.839525271256 0.181968340130 0.054281241036 -0.446202756900
3.995177777000 0.088996816354 -0.476187040473 0.853792677910 0.160390954706 0.842559192157 0.181192200941 0.052865615240 -0.448744440476
3.995600000000 0.087742052855 -0.475753505302 0.853669970328 0.159574928062 0.841871275951 0.178418495582 0.051085813641 -0.447203302393
3.996022222000 0.086149232063 -0.473782726560 0.852905494913 0.158509556596 0.840690744963 0.178140213605 0.052919022423 -0.446080817507
3.996444444000 0.087056351703 -0.475815823965 0.855370495902 0.156360284177 0.842958239113 0.177930049614 0.051177388704 -0.448707084528
3.996866666000 0.085604346982 -0.475419624051 0.853759620439 0.155721592514 0.842865755754 0.175756933478 0.050332568620 -0.447185590437
3.997288888000 0.085213592939 -0.475471321442 0.854829974361 0.153752411502 0.842408945605 0.174650330709 0.049731051673 -0.446968382367
3.997711111000 0.083782065334 -0.477163383689 0.856458631286 0.152853579454 0.845405367028 0.172662396250 0.048149121165 -0.448399060816
3.998133333000 0.083167383935 -0.475967867684 0.855621689534 0.152251183147 0.843024555008 0.171547546069 0.048637030726 -0.446180305717
3.998555555000 0.080420410823 -0.477337945649 0.856357031710 0.149350297496 0.845854416773 0.167918706837 0.045777153277 -0.446615818068
3.998977777000 0.081419591495 -0.475726783654 0.856481399019 0.148765066928 0.842628750005 0.168629875787 0.046889386516 -0.446084436359
3.999400000000 0.076806768076 -0.477913921161 0.861270168873 0.145148755486 0.844683503012 0.161210248911 0.042076439673 -0.447398984547
3.999822222000 0.079100468689 -0.477883719316 0.857823833039 0.146216689658 0.845984784392 0.165036999475 0.044348166346 -0.447305052970
4.000244444000 0.077612752153 -0.477964940622 0.857082204937 0.143925045847 0.845504934401 0.163542712660 0.043659316883 -0.445846975959
4.000666666000 0.077986614014 -0.478069266766 0.857385917612 0.142796517776 0.846813074458 0.164997328949 0.044293507224 -0.446183655845
4.001088888000 0.076653577705 -0.479279508558 0.858197661330 0.141864228363 0.848569121686 0.162321725896 0.043597343391 -0.446748991930
4.001511111000 0.076650872981 -0.479696666088 0.858317117214 0.141564360688 0.849892662853 0.161411618903 0.042626103690 -0.446675397465
4.001933333000 0.076592878288 -0.478655038778 0.858379579656 0.139434515782 0.849018459729 0.161782939233 0.042769110702 -0.446867740929
4.002355555000 0.074093321736 -0.479216886440 0.858598573981 0.136817784152 0.847728026443 0.158238793087 0.040889227655 -0.445326682370
4.002777777000 0.072963494306 -0.479806749874 0.859481905962 0.137581535912 0.852142597887 0.156720727044 0.040133395703 -0.448300760911
4.003200000000 0.072315322820 -0.479679864320 0.860052815376 0.133227652123 0.850638630833 0.155699574279 0.038561246625 -0.446896525802
4.003622222000 0.071708293464 -0.480679612136 0.860624729354 0.132855373952 0.850786204935 0.154781975087 0.038809130074 -0.446159758239
4.004044444000 0.070276672407 -0.480802998666 0.860093719784 0.132694526333 0.852253617026 0.153308603278 0.039000644488 -0.446825742348
4.004466666000 0.070916415072 -0.480523695971 0.860211028523 0.132598152529 0.852346733785 0.152170773488 0.038190554346 -0.446631288649
4.004888888000 0.069001374861 -0.480503581722 0.861803612161 0.130602145353 0.852484107831 0.149598813094 0.036509485341 -0.447175759595
4.005311111000 0.068153737621 -0.479990407689 0.859728554022 0.126866924119 0.849714447755 0.149477404304 0.036238040433 -0.444215789880
4.005733333000 0.066282385342 -0.481260490839 0.860820684871 0.128294357735 0.854920886766 0.146531827929 0.036301439601 -0.447220430657
4.006155555000 0.067597362069 -0.481034866770 0.860690668415 0.126081712194 0.853350675149 0.148104785483 0.035675819717 -0.445986363307
4.006577777000 0.065952196791 -0.480748875773 0.861698255594 0.123918651355 0.853771214078 0.147394173784 0.035182776960 -0.446489751865
4.007000000000 0.061684544376 -0.479732225697 0.866145043564 0.115970185026 0.849119589539 0.138894393907 0.028415450097 -0.444876716704
4.007422222000 0.062905063645 -0.482103015500 0.862297869104 0.121062070296 0.856088474907 0.142331381020 0.033564745660 -0.446293211655
4.007844444000 0.062775734194 -0.481460148904 0.861747669627 0.120730229060 0.855139463165 0.141491736532 0.032890846449 -0.445654551501
4.008266666000 0.060798559019 -0.481925579664 0.862686068265 0.117290165083 0.855862084419 0.139213801875 0.031326815433 -0.445569534777
4.008688888000 0.059444071639 -0.481304529345 0.863302650668 0.117636872028 0.855024195427 0.135051585151 0.030034436850 -0.445153084955
4.009111111000 0.057989473994 -0.481672929985 0.864095916842 0.117758901540 0.855652852065 0.132532430334 0.029302487121 -0.445399105503
4.009533333000 0.058043055985 -0.482238942554 0.863595251397 0.113491685512 0.858064688419 0.133629621178 0.028333256977 -0.446186982058
4.009955555000 0.056531436095 -0.481088560060 0.863160527479 0.111753102373 0.855083446552 0.132732346858 0.028710578698 -0.443400602089
4.010377777000 0.056442337760 -0.481971087898 0.864293967981 0.111263478756 0.857233073903 0.132925633591 0.028775354859 -0.445603245740
