# GHZ S RI R 50.000000000000
3.950000000000 -0.036108101604 -0.000562476184 0.342389243215 0.920034230062 0.385262863597 0.895395429695 -0.039068499964 0.004767068783
3.950422222000 -0.034561537532 0.001499111114 0.353713722570 0.917307230596 0.385203134438 0.896986957840 -0.038659628885 0.007075993810
3.950844444000 -0.034311944331 0.003095944170 0.360691088674 0.916254031948 0.383126669995 0.898906892288 -0.038385243594 0.008687607922
3.951266666000 -0.032077412944 0.003608507071 0.367269585155 0.913110503965 0.384468700040 0.898659056754 -0.037937437457 0.008327379620
3.951688888000 -0.032043198600 0.004896202846 0.371212304982 0.912382873923 0.385313605908 0.900893672525 -0.037630221359 0.009697604589
3.952111111000 -0.032263189424 0.005898938789 0.374827758986 0.913202523677 0.385558679576 0.902562118816 -0.037434274267 0.011147871489
3.952533333000 -0.032024920004 0.004777977048 0.375587471387 0.910614407602 0.386658379507 0.898077425732 -0.037367674263 0.010273855307
3.952955555000 -0.031163931908 0.005797781942 0.379656115287 0.909496423657 0.387307892041 0.899513852281 -0.036872694614 0.010562488373
3.953377777000 -0.031405417796 0.006074166439 0.380858104616 0.909226988703 0.388562912308 0.898824915403 -0.036934168334 0.010769616564
3.953800000000 -0.030256330542 0.007250560048 0.381871651364 0.910861488057 0.388316445665 0.899871360814 -0.036052718857 0.011456034825
3.954222222000 -0.031020819414 0.006726994651 0.384126357016 0.908411106674 0.392026516844 0.897978361675 -0.035417188657 0.011246158878
3.954644444000 -0.031837233155 0.007405550124 0.385544222383 0.909664922389 0.391792522881 0.899154912017 -0.036343689103 0.011364197221
3.955066666000 -0.030936376575 0.007354499883 0.386827035260 0.907192209990 0.394122714733 0.897461677338 -0.035283516602 0.011847736641
3.955488888000 -0.031219060581 0.007982033926 0.389368161503 0.908472433511 0.393323356099 0.898310626205 -0.035297361044 0.011468045523
3.955911111000 -0.031441250845 0.007354224449 0.387975274231 0.907366785556 0.396352272992 0.896419263160 -0.036174691383 0.012051788893
3.956333333000 -0.031019130819 0.007566934472 0.392137408574 0.906783579682 0.399063333458 0.898097836398 -0.034845078483 0.012447999208
3.956755555000 -0.031511697844 0.009405918964 0.394314687382 0.906503946404 0.398701590137 0.898134838754 -0.034673137866 0.012387285329
3.957177777000 -0.031363809301 0.008623295553 0.392612263456 0.906860006077 0.399641477712 0.897105600638 -0.035143410966 0.012297449470
3.957600000000 -0.031705085982 0.009737295464 0.395573080116 0.908716722330 0.401154819219 0.897031108089 -0.034786682300 0.013157889552
3.958022222000 -0.031590422118 0.010174438693 0.396788348548 0.908030640415 0.401970432002 0.896770470036 -0.034908599639 0.013624447094
3.958444444000 -0.031237223127 0.009973482663 0.397853896684 0.905334576637 0.402536210310 0.895646376651 -0.034362322217 0.012263949110
3.958866666000 -0.031411073605 0.010649128622 0.400083499752 0.907318642842 0.404518734018 0.896341807075 -0.034359733997 0.013439726097
3.959288888000 -0.031316595267 0.010325973748 0.401495316631 0.905211602505 0.406561541403 0.895261455164 -0.033666754247 0.012938671583
3.959711111000 -0.031238623716 0.010236651786 0.402376635006 0.906001502223 0.407551483540 0.895784500033 -0.034204623459 0.012991764042
3.960133333000 -0.031237586909 0.011276247942 0.404241857131 0.906391322811 0.408993569997 0.895973134819 -0.033909010120 0.014102902413
3.960555555000 -0.030347194945 0.012368248595 0.406336682867 0.906747599479 0.409817868670 0.896336285992 -0.033068302660 0.013249803222
3.960977777000 -0.030727438650 0.011661871588 0.407337302467 0.904854945675 0.411847303100 0.894836544828 -0.033227676618 0.013311608410
3.961400000000 -0.030485233135 0.013030063885 0.409842853314 0.905898718882 0.411657091053 0.895151314266 -0.032160543709 0.013579671246
3.961822222000 -0.030832208561 0.013079232573 0.410935693172 0.905422232295 0.414443538104 0.894648364394 -0.032634807448 0.014162102416
3.962244444000 -0.030001321878 0.012445987224 0.413517840423 0.903686677699 0.416651926515 0.895406361359 -0.032463575005 0.013899766323
3.962666666000 -0.030217672953 0.013223663264 0.415585033553 0.904188773211 0.417740154708 0.894131010667 -0.032533459840 0.014300747766
3.963088888000 -0.029849526062 0.013771586459 0.417184982836 0.903748739553 0.419474364332 0.894392917904 -0.031674298397 0.014316447324
3.963511111000 -0.030139617634 0.013968965153 0.417434025577 0.904168623893 0.419806542694 0.894990184722 -0.032285086076 0.014817575046
3.963933333000 -0.030284585074 0.014377136998 0.419371218584 0.904706413412 0.422757940361 0.894419501572 -0.031942190888 0.015388018680
3.964355555000 -0.029359424311 0.014617066685 0.422422357413 0.903075714399 0.423241441295 0.893705558773 -0.030989823918 0.014360143715
3.964777777000 -0.029807996679 0.013659517618 0.421348059496 0.902318984027 0.423709626354 0.892940983439 -0.033044945767 0.013345729077
3.965200000000 -0.029442229926 0.014404959065 0.424021520810 0.901236022541 0.427353203174 0.893024914825 -0.031374988559 0.014878647435
3.965622222000 -0.028842751647 0.014495490669 0.425750749191 0.900482496845 0.428747069638 0.892061444935 -0.030374459621 0.014250242504
3.966044444000 -0.029162338157 0.015017246284 0.427410225302 0.901858306611 0.429248621766 0.892586205889 -0.031277278653 0.014411624939
3.966466666000 -0.028764981335 0.016001115171 0.431074336073 0.900894361240 0.431212061550 0.890991983884 -0.029982343241 0.015497630603
3.966888888000 -0.028875806850 0.016049853482 0.431079514112 0.900453433642 0.432450338907 0.892489291340 -0.030202934293 0.014953079586
3.967311111000 -0.028604695005 0.015555369226 0.432394750021 0.899022607574 0.435107877200 0.891112531675 -0.030666403092 0.014422019836
3.967733333000 -0.028317330751 0.015987442401 0.433958859986 0.899020522768 0.435546274889 0.890122079331 -0.030166830436 0.014523488841
3.968155555000 -0.027837449057 0.017171101080 0.435940423639 0.899093771453 0.436752582856 0.890700173296 -0.028952404845 0.014745827448
3.968577777000 -0.027795925025 0.017246049453 0.437045690527 0.897882607355 0.438164149528 0.890794186283 -0.029012288953 0.014977753298
3.969000000000 -0.027167871555 0.017240605892 0.438289880813 0.897601393545 0.437791580249 0.891262999759 -0.028930880903 0.013958092335
3.969422222000 -0.027803454382 0.017573347237 0.441338798114 0.898002127615 0.441729722705 0.891149851906 -0.029498301002 0.014852769160
3.969844444000 -0.027514265256 0.017686132723 0.442290375853 0.896886990324 0.442390122140 0.889683709187 -0.029257628458 0.014655205975
3.970266666000 -0.026833943540 0.017923072132 0.443561699769 0.896837638905 0.444575871567 0.889367111795 -0.028182856056 0.014861285518
3.970688888000 -0.026986402891 0.017333018289 0.445511961288 0.895907221228 0.446372973133 0.887969979653 -0.029082309703 0.014323453224
3.971111111000 -0.026096732754 0.018530314278 0.447126682361 0.894998086186 0.447825164324 0.889100893211 -0.027802736071 0.014901059432
3.971533333000 -0.025565647605 0.018097344966 0.448902931254 0.893652161811 0.449782220345 0.887203384732 -0.027590286821 0.014592621996
3.971955555000 -0.025896185724 0.018813015898 0.451030665858 0.894483010088 0.450355201151 0.887811995409 -0.028106480882 0.014020607209
3.972377777000 -0.025768655586 0.018375166374 0.452309330576 0.893422644447 0.452585831124 0.887191937470 -0.028887095659 0.014542513691
3.972800000000 -0.025417965650 0.019579933319 0.454022771059 0.894503824030 0.453242682960 0.886828054906 -0.027444928434 0.014563185638
3.973222222000 -0.024445117261 0.019083942801 0.456433764135 0.892874185597 0.455186935045 0.886175162261 -0.027142195571 0.012810271504
3.973644444000 -0.024872424912 0.018836365583 0.457561234150 0.892158287021 0.457149401728 0.885982484194 -0.027622809551 0.013150057314
3.974066666000 -0.024930511702 0.019072688161 0.459037320727 0.890371307068 0.458206040060 0.885024293751 -0.027335469361 0.014105735937
3.974488888000 -0.024920855590 0.018760580130 0.460507970065 0.889441832681 0.459775363825 0.883942526871 -0.027896113662 0.013581206100
3.974911111000 -0.023782672860 0.018946447960 0.463559089147 0.888682197182 0.462402400020 0.883611691480 -0.026532432969 0.013231330032
3.975333333000 -0.023417580925 0.019581407458 0.465679279539 0.888672637980 0.463686010795 0.883164150183 -0.026852504039 0.014099348525
3.975755555000 -0.023139302246 0.019751066925 0.466798039998 0.889228651445 0.464836608712 0.884276610936 -0.027468051372 0.013155773090
3.976177777000 -0.022737290333 0.019645979110 0.468857888670 0.886413612812 0.466964213943 0.882378398628 -0.025845762450 0.013573448670
3.976600000000 -0.023013883655 0.019730694020 0.470603606837 0.887210992641 0.468760324851 0.883413927567 -0.025974027187 0.015052009782
3.977022222000 -0.021960312167 0.019890621417 0.471803522090 0.886063964428 0.469562149860 0.882074275011 -0.025711290653 0.012537182417
3.977444444000 -0.022422366187 0.019723003115 0.472170048330 0.885040546871 0.472517606487 0.880566974141 -0.025937289277 0.012987011048
3.977866666000 -0.021841782228 0.020093727651 0.474181597322 0.884806699410 0.473379929351 0.880711856902 -0.026273963867 0.013280290116
3.978288888000 -0.021544439125 0.020484736505 0.476383854604 0.883766196719 0.474090909253 0.880076480919 -0.025455547771 0.012580078257
3.978711111000 -0.021439060510 0.019706990720 0.477677787986 0.882234694947 0.476249567147 0.879229654584 -0.026335325466 0.011857850038
3.979133333000 -0.020468752718 0.019528976411 0.479066025216 0.881879213704 0.478072050783 0.878896055366 -0.025315579183 0.011088341411
3.979555555000 -0.020591056352 0.019474015817 0.480640219472 0.881507639979 0.480656982649 0.877940452978 -0.026512660690 0.011797723799
3.979977777000 -0.020140430994 0.019881028305 0.482860690382 0.880773479825 0.481418078320 0.878005328891 -0.025730922579 0.010892944960
3.980400000000 -0.019945311420 0.020041274646 0.485077171204 0.880157267777 0.482439988311 0.877319204567 -0.025740866997 0.011191692529
3.980822222000 -0.020308002842 0.020122167363 0.485198842730 0.880147453203 0.483660011820 0.875500141892 -0.025161292597 0.011229770083
3.981244444000 -0.019809207561 0.019748759287 0.488122527611 0.877551880892 0.486686535577 0.874830306089 -0.025848768653 0.011890662363
3.981666666000 -0.019814556517 0.018972727480 0.487973696379 0.877039883654 0.488218838962 0.875341250264 -0.026234045527 0.010907170965
3.982088888000 -0.019290127570 0.020220411197 0.489966101684 0.876144291272 0.489063794286 0.874203044790 -0.024824871998 0.011629184786
3.982511111000 -0.018949094047 0.020172762079 0.491879130451 0.875519788536 0.490434642660 0.872923080887 -0.024931116392 0.010720034044
3.982933333000 -0.018007607646 0.020230761316 0.493972560927 0.874040047106 0.491734528946 0.873212481548 -0.024894583862 0.010412262329
3.983355555000 -0.018622365014 0.020415379822 0.495640506736 0.873864393557 0.493243144714 0.872139845802 -0.025454575781 0.010896445951
3.983777777000 -0.017724919963 0.019632905430 0.496744852545 0.872593534637 0.495332467017 0.871634661124 -0.024057808187 0.009786713858
3.984200000000 -0.017617743754 0.019803748328 0.497126614553 0.871595694374 0.495661105287 0.871322114747 -0.024992399189 0.010687619551
3.984622222000 -0.017624093909 0.019748700732 0.499624698916 0.871103249413 0.498788110766 0.869227642249 -0.025312101724 0.009758473452
3.985044444000 -0.017612252960 0.019333413390 0.501358108319 0.870112216541 0.501049889878 0.867874421961 -0.025607587866 0.010157396496
3.985466666000 -0.016744604575 0.019999272083 0.502344194704 0.869282097497 0.501678683319 0.867703719613 -0.024273831828 0.009895911811
3.985888888000 -0.016216559484 0.019534149076 0.503922695190 0.867173204539 0.503481727871 0.867406983438 -0.023967473539 0.009579037240
3.986311111000 -0.015598408721 0.019063130595 0.507644516910 0.867077936274 0.506811756992 0.866973648581 -0.024802933103 0.008770739445
3.986733333000 -0.016130328538 0.019476931630 0.507803323394 0.864852409187 0.508549580148 0.864024655823 -0.025050524855 0.011027461038
3.987155555000 -0.015271989930 0.018821392727 0.510122201101 0.864086597819 0.509104857065 0.866194933594 -0.025929384619 0.008505297727
3.987577777000 -0.015036869158 0.020161071931 0.512175269998 0.865421109182 0.510682834715 0.865147533502 -0.025282002126 0.010037611634
3.988000000000 -0.015301589807 0.019236575619 0.513275659982 0.864318003005 0.511951716516 0.863788804202 -0.025337910808 0.008339511674
3.988422222000 -0.014997437859 0.019121515901 0.514425075325 0.861626021747 0.512573878512 0.862425023660 -0.025170185242 0.008918168229
3.988844444000 -0.014514853820 0.018563954265 0.516389640751 0.861348096390 0.515545781992 0.861939373005 -0.025500196408 0.008329869306
3.989266666000 -0.013954148413 0.018308378618 0.518674815493 0.859809868713 0.516430485747 0.862800869288 -0.025827066671 0.007700524869
3.989688888000 -0.014647093312 0.018281699498 0.519369066967 0.859822862581 0.518587622586 0.859056234252 -0.025634134586 0.007194371738
3.990111111000 -0.013301018377 0.019038650298 0.521206828058 0.860445229461 0.519068847946 0.861375330794 -0.024717105859 0.007368993607
3.990533333000 -0.013649338309 0.018620947080 0.522268311167 0.858549670933 0.520777388412 0.859116099541 -0.024658788168 0.007239108701
3.990955555000 -0.013592153435 0.018164417626 0.524046010719 0.856529956639 0.522182175767 0.856878380115 -0.025257288137 0.007219456697
3.991377777000 -0.013408907670 0.017501241584 0.526236662286 0.855234009637 0.524929346070 0.857109439454 -0.026486890759 0.006803060244
3.991800000000 -0.012301749645 0.018118046717 0.528025940088 0.855430796223 0.525471128989 0.858855925039 -0.025743579992 0.007101871156
3.992222222000 -0.012863292390 0.017723029964 0.529259970575 0.853444928042 0.526859868630 0.854804449939 -0.025170854236 0.007159688864
3.992644444000 -0.012565261355 0.017262960759 0.529494610683 0.851649104378 0.529715046534 0.853648651288 -0.026498567671 0.007021021890
3.993066666000 -0.012244301979 0.017470075826 0.531078051645 0.850403880236 0.530818549526 0.852843991997 -0.025942381746 0.007569016002
3.993488888000 -0.012068787355 0.016839183833 0.532771285184 0.850270538916 0.531786562898 0.852112165230 -0.025584103770 0.006152914689
3.993911111000 -0.012588564561 0.016687820445 0.533809836861 0.849413739038 0.534013501306 0.850653162892 -0.026320835100 0.006255888058
3.994333333000 -0.011741180776 0.015918217612 0.536583633388 0.846844237904 0.536113917125 0.851369496125 -0.026771602699 0.006114353459
3.994755555000 -0.012496682828 0.016447305513 0.537062101554 0.846723054397 0.535647882426 0.849188017836 -0.027016724702 0.005682964085
3.995177777000 -0.012257703818 0.016261534186 0.538794866798 0.844881338250 0.539028542287 0.847890095258 -0.027617907965 0.006256440629
3.995600000000 -0.012061396685 0.016326030209 0.539639850085 0.844843568305 0.539455537422 0.846348975899 -0.026699229818 0.006034821036
3.996022222000 -0.010951303391 0.015916985839 0.541806876750 0.843305405332 0.540836675335 0.847804335710 -0.026737758983 0.005323158196
3.996444444000 -0.011504643303 0.016103163727 0.542679347886 0.842829756444 0.542620486124 0.843980689666 -0.026612317896 0.006090824572
3.996866666000 -0.011942294741 0.016034688580 0.543159607883 0.842126346299 0.542102154252 0.843614768550 -0.026704710399 0.005789487091
3.997288888000 -0.011693542006 0.015475445005 0.545690999349 0.840088280246 0.546873596681 0.842194715501 -0.027989651864 0.005791921513
3.997711111000 -0.011157715417 0.015466584184 0.547025733629 0.839579767910 0.546773690688 0.841914531698 -0.027743823407 0.005750970066
3.998133333000 -0.011189930457 0.014904848337 0.548740439983 0.837928749745 0.548538595579 0.839410713932 -0.027445244397 0.005702247139
3.998555555000 -0.010452243548 0.014676568773 0.550069396685 0.837167397882 0.550258475106 0.839799907605 -0.027287184293 0.005476987548
3.998977777000 -0.011091940839 0.014788347105 0.550393669978 0.836180597560 0.551097726615 0.838760126703 -0.027840214122 0.005733255143
3.999400000000 -0.010452790390 0.015391652407 0.552335880268 0.834570853780 0.553176831573 0.839158717107 -0.028946682757 0.006076367647
3.999822222000 -0.010892107760 0.013969799514 0.553449344530 0.833785861544 0.556178869024 0.837635277820 -0.028925507895 0.004563293494
4.000244444000 -0.009673517315 0.014618595202 0.556993567617 0.833532513067 0.554967334662 0.837697878805 -0.028221881832 0.004854813012
4.000666666000 -0.010168856960 0.013842942250 0.556530448872 0.832685345570 0.559194774265 0.835237791685 -0.028359261527 0.004769983573
4.001088888000 -0.011170847449 0.013702193312 0.558367322195 0.829462452919 0.558789087780 0.831426302544 -0.029687235708 0.005182179633
4.001511111000 -0.010760977340 0.013491535710 0.559723766995 0.829707160352 0.560277957814 0.831796354357 -0.028854193964 0.004225735144
4.001933333000 -0.010846469842 0.013531766533 0.561281863943 0.829104459972 0.562425262172 0.829231736373 -0.029038212734 0.005280463854
4.002355555000 -0.010224806340 0.014101506849 0.561374883328 0.828108913554 0.563191924070 0.831306942796 -0.029801705227 0.004988631687
4.002777777000 -0.010494505551 0.013462989681 0.563595817949 0.826203001755 0.562301144870 0.828144060095 -0.028660195064 0.004869177917
4.003200000000 -0.010094876012 0.012799402088 0.564120158296 0.825093985803 0.566750928284 0.828323722196 -0.029197617820 0.005022264213
4.003622222000 -0.009962999818 0.012732075105 0.566916870339 0.824958475036 0.568743233658 0.826950907102 -0.029660499291 0.004777184725
4.004044444000 -0.010935350665 0.013425790790 0.568177511386 0.822983228525 0.567125071023 0.824337359883 -0.030528811163 0.005210911791
4.004466666000 -0.009933823011 0.013211319178 0.567272433723 0.819223214290 0.566038817745 0.825772286771 -0.029176615442 0.005953242384
4.004888888000 -0.010781731671 0.011684906818 0.569717008097 0.820011424636 0.572503042044 0.823333785403 -0.030058016498 0.004558085353
4.005311111000 -0.010824306272 0.012054935599 0.571732442765 0.818897432309 0.574190407940 0.821591154107 -0.031253585511 0.004375349772
4.005733333000 -0.010358751019 0.012183130685 0.572309112230 0.817703740599 0.573472540938 0.823755733633 -0.030891823345 0.004433717929
4.006155555000 -0.010485727791 0.011578377347 0.572343453593 0.817968638706 0.575985681489 0.821354209330 -0.030249306712 0.004230605343
4.006577777000 -0.011019083378 0.012057788147 0.573759467581 0.815596532179 0.575315652260 0.818474295843 -0.030557755680 0.004996562972
4.007000000000 -0.011015527571 0.012053845822 0.573046243648 0.814487551061 0.575357847837 0.821675964615 -0.030175286731 0.004679222785
4.007422222000 -0.011403426389 0.011564792345 0.577611482153 0.811978068937 0.578883949956 0.815070229630 -0.031853970897 0.004957385842
4.007844444000 -0.010532436443 0.011283671058 0.579178410845 0.811787112377 0.580911083335 0.816381716292 -0.031328850224 0.004702740524
4.008266666000 -0.011081698170 0.010652426395 0.578880538755 0.810740792579 0.585450987948 0.814979067139 -0.032284930787 0.004767850449
4.008688888000 -0.011271252821 0.011566127796 0.580999204089 0.810373988972 0.583866683760 0.812158171892 -0.032159868799 0.005449075565
4.009111111000 -0.011290130299 0.011040966397 0.580518144570 0.811918783540 0.587540779570 0.813197739734 -0.032078693048 0.005176136087
4.009533333000 -0.011791644503 0.010973684888 0.581298201937 0.808520454081 0.584539304384 0.809202220644 -0.031491858110 0.005673482820
4.009955555000 -0.011596906731 0.011146166633 0.583623900569 0.806408808658 0.584463441718 0.809347539452 -0.031639062769 0.005432921611
4.010377777000 -0.011782449667 0.010582866779 0.585709834212 0.806325237380 0.589800843060 0.808486264595 -0.032085525370 0.005261658848
