# GHZ S RI R 50.000000000000
3.950000000000 -0.077668468035 -0.338494899601 0.814753185112 -0.285468296105 0.791186055823 -0.325603994031 -0.135856439728 -0.304234423223
3.950422222000 -0.079225727614 -0.338689884919 0.811862294207 -0.294919372432 0.790949446226 -0.323594124398 -0.139361161717 -0.300707916384
3.950844444000 -0.080753461381 -0.337990481693 0.809686345323 -0.301477242741 0.791486730871 -0.322961116778 -0.142419488667 -0.298937789589
3.951266666000 -0.081991631765 -0.338041252422 0.807361276094 -0.307429798149 0.791979177078 -0.322954081663 -0.144254481029 -0.297310180140
3.951688888000 -0.083054486825 -0.337888310139 0.806044959691 -0.310552583620 0.792146971448 -0.323672200936 -0.145565364141 -0.295697666160
3.952111111000 -0.084321999286 -0.337105075752 0.805070825883 -0.313038667230 0.793049161423 -0.324313034673 -0.145700088112 -0.295778818543
3.952533333000 -0.084304292824 -0.337149315733 0.804169855853 -0.316082379488 0.791134934188 -0.325593995564 -0.147494414676 -0.293915815792
3.952955555000 -0.084805288623 -0.337379378328 0.803002002687 -0.318719280247 0.790717282952 -0.326229428170 -0.148247032286 -0.292395747431
3.953377777000 -0.085126596115 -0.336959915073 0.802789943649 -0.320939519100 0.791392139773 -0.328162724051 -0.149228811198 -0.292728434834
3.953800000000 -0.086219589511 -0.336109981233 0.801477818063 -0.321965945858 0.789563987027 -0.326591269131 -0.147606462682 -0.290097116615
3.954222222000 -0.085965329666 -0.336200221328 0.801671186551 -0.323735679466 0.790399853658 -0.330625449381 -0.150018241893 -0.290874306727
3.954644444000 -0.086536516752 -0.335833127378 0.802125794423 -0.325789371158 0.789739585786 -0.331421462779 -0.149676122646 -0.290528412040
3.955066666000 -0.086459461679 -0.334872059290 0.801092319855 -0.326455467940 0.788503150217 -0.331474303866 -0.149681182807 -0.289073982181
3.955488888000 -0.086983034532 -0.335021864406 0.800846220163 -0.328166269471 0.788413494560 -0.332860356211 -0.149756512328 -0.288410627872
3.955911111000 -0.087853355321 -0.334798782331 0.799837107960 -0.329479621495 0.788209539599 -0.335307511009 -0.150382949669 -0.288327341551
3.956333333000 -0.087224522551 -0.333904876571 0.800288191446 -0.330309834886 0.788490255669 -0.336158986226 -0.150965594868 -0.288308825049
3.956755555000 -0.087547125920 -0.334044886140 0.800065144155 -0.332956752699 0.788088863319 -0.336726875281 -0.151073400273 -0.287472125825
3.957177777000 -0.088907491850 -0.333674759030 0.799166053112 -0.333396944041 0.787327985095 -0.338173495993 -0.150438307942 -0.286532806600
3.957600000000 -0.088085059377 -0.333173817150 0.799357032014 -0.335484133963 0.787014890884 -0.339092630746 -0.151414472174 -0.286234088110
3.958022222000 -0.088983217356 -0.333255303071 0.798212797116 -0.337408037556 0.786836934363 -0.340943209459 -0.152040752486 -0.286044453392
3.958444444000 -0.089127848005 -0.332500346286 0.797730434828 -0.338370264565 0.786004885345 -0.341176829276 -0.151728820361 -0.284673946083
3.958866666000 -0.089582801734 -0.333109449958 0.797487362835 -0.339982233160 0.785643484497 -0.344674515274 -0.153214131315 -0.283805097468
3.959288888000 -0.089932682928 -0.332213080819 0.797425362403 -0.341482906348 0.785982950345 -0.344637293316 -0.152464471803 -0.283991414835
3.959711111000 -0.090537403549 -0.331996761441 0.797280227891 -0.342488198540 0.786295934570 -0.346778151632 -0.152512384657 -0.284337462498
3.960133333000 -0.090734351906 -0.331852654282 0.796597553873 -0.344198884344 0.784487069214 -0.348383435237 -0.153923811475 -0.282728083287
3.960555555000 -0.090412465839 -0.331053805987 0.796343253390 -0.345539623797 0.784624767729 -0.348630462095 -0.153540654517 -0.282219839585
3.960977777000 -0.091003819297 -0.331244661448 0.795911140251 -0.346851571045 0.784014792597 -0.351039955870 -0.154356054743 -0.281673491598
3.961400000000 -0.090971787934 -0.330372463799 0.795236337325 -0.348263852881 0.781953032837 -0.351468874250 -0.154860282620 -0.279902622446
3.961822222000 -0.091751319906 -0.330082256335 0.795126347973 -0.349851371449 0.783313937184 -0.352044061598 -0.154069926194 -0.280963683417
3.962244444000 -0.091665382587 -0.330048777603 0.795098235103 -0.350759921377 0.783273485178 -0.353361158182 -0.154277250847 -0.280097464509
3.962666666000 -0.092400817109 -0.329744180618 0.794157357936 -0.352905276757 0.782274456193 -0.356169649369 -0.155626796391 -0.279620977484
3.963088888000 -0.092752753824 -0.329372481389 0.794115178400 -0.353894653632 0.781744632252 -0.356957902241 -0.155190445257 -0.278842516418
3.963511111000 -0.093185518714 -0.329489291719 0.793515743724 -0.355397028117 0.782893910263 -0.358051836554 -0.155285553584 -0.279133482744
3.963933333000 -0.093896118140 -0.328974792510 0.793091736002 -0.356969057832 0.781367146469 -0.360713087527 -0.156241658480 -0.278157778255
3.964355555000 -0.094035279302 -0.328485870610 0.792876774285 -0.358324978266 0.780752466968 -0.360941541254 -0.155923513575 -0.277540283962
3.964777777000 -0.094115737231 -0.328116402534 0.792704532050 -0.359676216292 0.780246693673 -0.362136718173 -0.155566932261 -0.277761097059
3.965200000000 -0.094455838733 -0.328230401957 0.792375067463 -0.361263633395 0.780831645219 -0.363455418869 -0.156554631307 -0.276916796471
3.965622222000 -0.094982612175 -0.327838884073 0.791744302920 -0.362231066021 0.779700892666 -0.364390304286 -0.156178029948 -0.275701910700
3.966044444000 -0.095157813716 -0.327892451121 0.791266685729 -0.364223446287 0.780038279212 -0.365655653645 -0.156512528175 -0.276014922237
3.966466666000 -0.095568798780 -0.326940747191 0.790650436084 -0.365369057556 0.777267357798 -0.366880947348 -0.157058526147 -0.274120690661
3.966888888000 -0.095404146927 -0.326992118354 0.790603218729 -0.366928436883 0.779702100664 -0.367766540649 -0.157172943290 -0.274948691941
3.967311111000 -0.095826627772 -0.326934847413 0.790475559940 -0.368145147103 0.778497445759 -0.369763159074 -0.157380972409 -0.274029891751
3.967733333000 -0.095885338250 -0.326196537404 0.789808488015 -0.369673386883 0.777542897592 -0.370356485650 -0.157539787066 -0.273348502699
3.968155555000 -0.097145437877 -0.326311654817 0.789212840447 -0.371284858209 0.778791679540 -0.372055521892 -0.157743507147 -0.273195626838
3.968577777000 -0.097331409246 -0.325602610896 0.788317673955 -0.372036692949 0.777480365949 -0.373051600291 -0.157701315706 -0.272329234278
3.969000000000 -0.096178662752 -0.326433484683 0.790062043406 -0.373612269699 0.780351063801 -0.369652821778 -0.156148565552 -0.273687370269
3.969422222000 -0.097787703137 -0.325492068351 0.787693091761 -0.375617752311 0.778056275162 -0.375982761460 -0.158347956816 -0.272215519282
3.969844444000 -0.098633975584 -0.324981293561 0.787312047232 -0.376771946331 0.776344433035 -0.377049938703 -0.158127414860 -0.271065304665
3.970266666000 -0.098442145516 -0.324698324213 0.787122830425 -0.377811584250 0.776477810941 -0.378204229061 -0.158473813592 -0.270728548460
3.970688888000 -0.098685112879 -0.324108888151 0.786620199792 -0.379673317406 0.774727225893 -0.380195119034 -0.158726323259 -0.269949383503
3.971111111000 -0.099277992508 -0.324292876766 0.785435272692 -0.380939336383 0.775920133706 -0.381243427122 -0.159121406219 -0.269147235648
3.971533333000 -0.099086081786 -0.323786506327 0.785787590559 -0.382167277661 0.775520781672 -0.381632701497 -0.159297840952 -0.269339003486
3.971955555000 -0.099426186516 -0.323166437843 0.785074431022 -0.383563321589 0.773848600804 -0.382916900596 -0.158745522713 -0.268725862920
3.972377777000 -0.100031640252 -0.323442373045 0.784677692147 -0.384996164796 0.774054786635 -0.385085222481 -0.159415730203 -0.268497727509
3.972800000000 -0.100495576795 -0.323172217045 0.784293608198 -0.386748558302 0.773736235761 -0.386148747928 -0.159845230028 -0.267369341905
3.973222222000 -0.099829608665 -0.322596342952 0.784536744357 -0.387368777654 0.772925510820 -0.385680327635 -0.158530576980 -0.266833764692
3.973644444000 -0.101375270335 -0.322759059129 0.783098568132 -0.389408040491 0.773086453931 -0.388820506749 -0.159349981703 -0.266503646534
3.974066666000 -0.101999170292 -0.322364188405 0.782706439912 -0.391527098881 0.772816266602 -0.390417601533 -0.160526292288 -0.266086699178
3.974488888000 -0.101783579318 -0.322087438478 0.782777899097 -0.392433917483 0.771982137273 -0.390365757111 -0.159585151021 -0.265944146861
3.974911111000 -0.102411968730 -0.321484704388 0.781785630573 -0.394589908658 0.772225539538 -0.393009825713 -0.160770616207 -0.264908353940
3.975333333000 -0.102820773725 -0.320959208299 0.781520590263 -0.395113709161 0.770472028324 -0.393379125825 -0.160610152086 -0.264648440181
3.975755555000 -0.103141964264 -0.321877258406 0.781562437878 -0.397487750609 0.772585746120 -0.394642791620 -0.160317722151 -0.265109569522
3.976177777000 -0.103862011094 -0.320454945281 0.780124117251 -0.399261056408 0.771038708147 -0.396697530869 -0.161506198085 -0.263454772576
3.976600000000 -0.103956337429 -0.321424422517 0.781187922830 -0.399729105994 0.770465833929 -0.396513706618 -0.161485814596 -0.262931497998
3.977022222000 -0.104345995644 -0.320798578141 0.779697538299 -0.401116151707 0.770451929389 -0.398833482002 -0.160799965598 -0.262243380359
3.977444444000 -0.105285162113 -0.320046030513 0.778785441604 -0.402565677460 0.769294579312 -0.401843535052 -0.161578539815 -0.261499564036
3.977866666000 -0.104764930032 -0.320221848489 0.778882598543 -0.403728636035 0.769349496430 -0.401296099850 -0.161301644272 -0.261636800713
3.978288888000 -0.104929636929 -0.318950012839 0.778388240004 -0.405362378603 0.769933766090 -0.403070530607 -0.162084461865 -0.261857717742
3.978711111000 -0.105433262828 -0.319393871999 0.778020687648 -0.407547271423 0.768183017633 -0.404516313216 -0.162145869264 -0.260794346123
3.979133333000 -0.105281267899 -0.319353278912 0.777387137732 -0.407931609123 0.768264568287 -0.404599393666 -0.160963944812 -0.259808916639
3.979555555000 -0.106542795998 -0.318706732556 0.776987258901 -0.409932824045 0.767557809763 -0.408559034484 -0.162441216459 -0.259783375434
3.979977777000 -0.106617767957 -0.318549568366 0.776158188102 -0.410283805671 0.766432866817 -0.409274354880 -0.161791901145 -0.258276681114
3.980400000000 -0.106905184032 -0.318115151809 0.775680177677 -0.413412020766 0.766513702198 -0.410042028416 -0.162701219399 -0.258452260245
3.980822222000 -0.107301731075 -0.317731195649 0.776308747750 -0.414117271486 0.765405434436 -0.410771602336 -0.161874512092 -0.257921782445
3.981244444000 -0.108687378816 -0.316931000207 0.773904945388 -0.416418851665 0.765284396291 -0.414390145500 -0.163548773587 -0.257370253316
3.981666666000 -0.107437545702 -0.318012960560 0.774175036939 -0.416702274399 0.765153189370 -0.413083684685 -0.162541371853 -0.256664654105
3.982088888000 -0.108512135058 -0.316709774484 0.773155540920 -0.418312646867 0.765046379645 -0.415247939556 -0.163295209975 -0.256057849624
3.982511111000 -0.108773722513 -0.316457884595 0.773157474640 -0.419590766824 0.764737190843 -0.416314254273 -0.162775878673 -0.255999034432
3.982933333000 -0.109817240681 -0.316183204356 0.772242865010 -0.421703881955 0.764356422024 -0.418310865448 -0.163113423650 -0.255345198928
3.983355555000 -0.109944794730 -0.315685204847 0.772112049537 -0.423266774025 0.763870934015 -0.418249325048 -0.163142554502 -0.255483126016
3.983777777000 -0.110272545238 -0.315847571599 0.772709590555 -0.424954754217 0.764413546214 -0.420467398246 -0.163458761531 -0.254382546639
3.984200000000 -0.111045967632 -0.314578466399 0.771401183782 -0.427671586756 0.764522940047 -0.422301192440 -0.164497874135 -0.255413909586
3.984622222000 -0.111374781119 -0.315070993374 0.771636996482 -0.427436025462 0.762875562512 -0.423453625833 -0.163580504807 -0.254353811520
3.985044444000 -0.112116175148 -0.314238672251 0.769556624301 -0.429042704831 0.761532241660 -0.426057287104 -0.164296159833 -0.253247984117
3.985466666000 -0.111926468281 -0.313289738637 0.769102264365 -0.430433449094 0.760653495031 -0.426654997377 -0.164091258836 -0.252414160647
3.985888888000 -0.111562804403 -0.313072659147 0.768503169864 -0.430195944390 0.759378252902 -0.426866077033 -0.163528164960 -0.251138250255
3.986311111000 -0.113196582694 -0.313990670206 0.769086851922 -0.434234259936 0.762349019310 -0.430696584564 -0.165258810536 -0.251750693004
3.986733333000 -0.114291444683 -0.312773436137 0.766852582710 -0.434032773977 0.758329248618 -0.431810586258 -0.164978576075 -0.250007064606
3.987155555000 -0.113996289583 -0.314106274446 0.767282382945 -0.436894754348 0.761409223572 -0.432714630195 -0.164879086823 -0.250839330568
3.987577777000 -0.114824057426 -0.313327188491 0.766960943748 -0.438006499994 0.760391910242 -0.433215429843 -0.165505788155 -0.250628178534
3.988000000000 -0.114471492460 -0.312918691713 0.766782119219 -0.439734673845 0.759948283331 -0.434723927261 -0.165055689890 -0.250471102887
3.988422222000 -0.115056279594 -0.312410044600 0.766295776866 -0.441363022090 0.758995284618 -0.436489062890 -0.166069783080 -0.249292984928
3.988844444000 -0.115820686346 -0.312696031782 0.765619212331 -0.443173218432 0.759240678779 -0.437962617185 -0.165710479530 -0.248895194071
3.989266666000 -0.115566110769 -0.312369209717 0.764149444306 -0.443800443603 0.758486118451 -0.438417341612 -0.165416976501 -0.248356426807
3.989688888000 -0.116205830470 -0.311123821330 0.764028923927 -0.445521754017 0.756182426151 -0.441865236561 -0.165627321617 -0.247918972715
3.990111111000 -0.116016838098 -0.311472974127 0.765058873554 -0.447351421963 0.759839796514 -0.440950036414 -0.166682140276 -0.248919267545
3.990533333000 -0.116890902226 -0.310719102820 0.763073460645 -0.448685704775 0.757382086602 -0.443365032015 -0.165894925028 -0.247025211589
3.990955555000 -0.117758053508 -0.309859977094 0.763243086837 -0.450444972864 0.755850241143 -0.444843489549 -0.166041640139 -0.246861609636
3.991377777000 -0.118603024592 -0.310604031851 0.762032170560 -0.452508439717 0.756709644289 -0.448106322497 -0.166936107907 -0.246289288909
3.991800000000 -0.116944429303 -0.310389364069 0.761028381143 -0.451945145685 0.755014918942 -0.446600709640 -0.166735759724 -0.245460797162
3.992222222000 -0.119181839278 -0.308661226860 0.760453847723 -0.455539149786 0.753844903695 -0.449557922323 -0.166737479350 -0.244704523969
3.992644444000 -0.119634851976 -0.308320247465 0.758405124075 -0.455209179587 0.752666600377 -0.452140198567 -0.166421030156 -0.244074945815
3.993066666000 -0.120242306967 -0.307783201309 0.758685174669 -0.456293397100 0.752130627474 -0.452487562590 -0.166310693863 -0.243550520891
3.993488888000 -0.120695882873 -0.307820341766 0.758481181785 -0.459841539035 0.754236534349 -0.454867859108 -0.167051422649 -0.243719939422
3.993911111000 -0.121472256882 -0.307793609606 0.757463210051 -0.460418891120 0.752832097991 -0.457285507565 -0.167016194976 -0.243194414259
3.994333333000 -0.122262729767 -0.308185778547 0.758554971809 -0.462979477318 0.754129306908 -0.456644191187 -0.167538068176 -0.243639386090
3.994755555000 -0.122311396883 -0.307803791532 0.757565227547 -0.464076022938 0.751937122073 -0.458247094462 -0.166948868398 -0.243067789539
3.995177777000 -0.123320838350 -0.307354606844 0.755741062589 -0.465694907302 0.751732776376 -0.461666934266 -0.168070880766 -0.241651459733
3.995600000000 -0.122825702123 -0.306128181280 0.754267869558 -0.466315270079 0.749058523636 -0.462010255318 -0.166909181879 -0.240726473511
3.996022222000 -0.123360962355 -0.306865079486 0.754340759042 -0.468559856296 0.751914555280 -0.463673061222 -0.167947090449 -0.240723990110
3.996444444000 -0.124296972238 -0.305087737901 0.754046438199 -0.470209213674 0.748990184960 -0.464824224761 -0.167780651016 -0.240173615584
3.996866666000 -0.123762196817 -0.305135103351 0.754945846583 -0.470560409221 0.747511167900 -0.464811574546 -0.167403176729 -0.240035421611
3.997288888000 -0.125824442269 -0.304944920445 0.751986187497 -0.473966262928 0.748133901434 -0.469501827312 -0.168559675091 -0.239111353027
3.997711111000 -0.124823233871 -0.304890548757 0.752199447587 -0.473684517906 0.747105434588 -0.468608378921 -0.168385440207 -0.238730515656
3.998133333000 -0.125719717151 -0.303100865810 0.749711706730 -0.477421174043 0.745798090523 -0.471998953327 -0.168949982098 -0.237358124712
3.998555555000 -0.126509769286 -0.303656113597 0.751025993030 -0.476951510780 0.747003609357 -0.472318199073 -0.168410728052 -0.238053053376
3.998977777000 -0.126492038784 -0.302775657515 0.749374219351 -0.478332434124 0.745247574155 -0.473683702752 -0.168733870795 -0.237157761464
3.999400000000 -0.127627853456 -0.302716080016 0.748803703679 -0.483664154152 0.743705340916 -0.476381785510 -0.170167328013 -0.235390650658
3.999822222000 -0.128308710335 -0.302863439633 0.749119000761 -0.483111754343 0.745656878262 -0.479545484925 -0.169873971070 -0.236530927415
4.000244444000 -0.127433393064 -0.302185887474 0.746966828433 -0.485265712885 0.745420480969 -0.477335887615 -0.169922750466 -0.236379842003
4.000666666000 -0.129289579924 -0.301251178496 0.748199853127 -0.486423860792 0.743212721016 -0.482587548843 -0.170068902601 -0.235142628334
4.001088888000 -0.129199636698 -0.300859098006 0.745101686167 -0.487135037504 0.741806945547 -0.481707743773 -0.169426008678 -0.234938473517
4.001511111000 -0.129719474277 -0.300354399322 0.745410948393 -0.489190069829 0.741758988183 -0.483740694994 -0.169186881951 -0.234649200165
4.001933333000 -0.130297938585 -0.299648481075 0.743788742450 -0.490694612863 0.739922522085 -0.485665948880 -0.169625560427 -0.233434402219
4.002355555000 -0.131095555567 -0.300027488406 0.743974096716 -0.491717896897 0.741301395079 -0.487040841039 -0.169941439081 -0.234076922895
4.002777777000 -0.131411407225 -0.298399730262 0.743619859114 -0.494924217077 0.738936655908 -0.488358457599 -0.170008644558 -0.232156167701
4.003200000000 -0.131835341520 -0.298388568885 0.741521054140 -0.494298186041 0.740010409900 -0.490574896435 -0.170107386541 -0.232435654511
4.003622222000 -0.132671236083 -0.298602145558 0.742440381866 -0.497505427623 0.738740002994 -0.492692887532 -0.171057848305 -0.231621620896
4.004044444000 -0.132838638818 -0.297201166247 0.739162052853 -0.499273259689 0.736876378594 -0.492149359674 -0.170414155473 -0.231710344067
4.004466666000 -0.132137916966 -0.296476149436 0.736945809175 -0.498741356604 0.737572362868 -0.491556697025 -0.169852003913 -0.230330276017
4.004888888000 -0.133574875510 -0.296467662858 0.737950735551 -0.501040148739 0.735303238881 -0.496619212601 -0.169963135423 -0.229604206789
4.005311111000 -0.134969514366 -0.296254991299 0.737228523027 -0.504534383762 0.735417373826 -0.499209421467 -0.170963405071 -0.229692690867
4.005733333000 -0.134515411466 -0.296773942587 0.736109330125 -0.503846525685 0.737744265613 -0.499161337193 -0.171180093458 -0.230054800380
4.006155555000 -0.134411746241 -0.296199639309 0.736480806103 -0.504153536007 0.735628875818 -0.501328395713 -0.170470398326 -0.229279404046
4.006577777000 -0.135087240341 -0.294204728198 0.733575107470 -0.506330483561 0.732711586069 -0.501753707307 -0.169975022301 -0.228281073056
4.007000000000 -0.135069010792 -0.294302390217 0.734976327168 -0.508842370213 0.735331800967 -0.504672156499 -0.171897158705 -0.227823715703
4.007422222000 -0.137219490223 -0.293280265976 0.732330776442 -0.510581117758 0.732178112321 -0.506034255044 -0.171245736977 -0.227866505338
4.007844444000 -0.137501593112 -0.292901433025 0.731337482810 -0.513605748653 0.731345530062 -0.507267678679 -0.171077753605 -0.226481069227
4.008266666000 -0.138420743542 -0.292400848732 0.728914122755 -0.513202725347 0.731143173044 -0.511911575703 -0.171445188144 -0.226205061130
4.008688888000 -0.138502067336 -0.292224390648 0.730110148670 -0.515935826629 0.729758699667 -0.510983004382 -0.171831067713 -0.225756546799
