# GHZ S RI R 50.000000000000
3.950000000000 -0.034926846497 -0.001657531426 0.338810006682 0.917756900975 0.384433748331 0.893809249713 -0.043108438065 0.003987433974
3.950422222000 -0.033714053700 0.000451064670 0.350707045341 0.916469501501 0.382659608811 0.895758357103 -0.043013116853 0.006414065405
3.950844444000 -0.032833302056 0.002138205910 0.356854875429 0.913339631646 0.383523348268 0.896683618969 -0.042274734812 0.008303368773
3.951266666000 -0.030400569316 0.002671659919 0.364850992419 0.910466291362 0.384888370276 0.896441093368 -0.041516363563 0.008063978299
3.951688888000 -0.030186615441 0.003564199384 0.368308256234 0.910208198891 0.384454462631 0.896963402090 -0.041135622871 0.008958701542
3.952111111000 -0.030519943190 0.004329410305 0.369536225408 0.910008402554 0.385279676659 0.897308446049 -0.040972137960 0.010177006022
3.952533333000 -0.030311100472 0.004095729198 0.374092477227 0.909734196456 0.385554336569 0.896845466003 -0.041345608964 0.010294862763
3.952955555000 -0.029399608549 0.005004378101 0.376766328333 0.908853161455 0.387034901507 0.896465321874 -0.040505362327 0.010536702479
3.953377777000 -0.029330785571 0.004995050253 0.379948447778 0.908183376295 0.387668016164 0.895780173696 -0.040112599118 0.010427983231
3.953800000000 -0.029086850587 0.006071539484 0.376703442177 0.908236979240 0.386464484613 0.897153977559 -0.040593981862 0.010651468038
3.954222222000 -0.029349486399 0.006385180487 0.382797383686 0.907253391878 0.391438373608 0.898200430139 -0.039775310867 0.011619546141
3.954644444000 -0.029603777589 0.006200729459 0.384105654504 0.906437286990 0.392192379173 0.896322495654 -0.039510456822 0.010881785302
3.955066666000 -0.029188478121 0.006806597253 0.386618543359 0.908177590354 0.391601409276 0.896080293645 -0.039117310721 0.011720267567
3.955488888000 -0.029165635395 0.007261200494 0.387840115502 0.906827870161 0.392749685419 0.896681846303 -0.039096202178 0.011258570680
3.955911111000 -0.029290305909 0.006572636442 0.389067458157 0.906248803057 0.395089430116 0.894977932748 -0.039493764111 0.011694742207
3.956333333000 -0.029209126631 0.007051067619 0.390015040806 0.906368823368 0.397822287973 0.896672661358 -0.038850487354 0.012251645940
3.956755555000 -0.029848206616 0.008879996566 0.391926298031 0.907046939089 0.397427224128 0.896434921529 -0.038566375021 0.012447765984
3.957177777000 -0.029180371222 0.008479958649 0.392303640235 0.907469027654 0.399029028842 0.896638442208 -0.038953576370 0.012663056907
3.957600000000 -0.030063911509 0.008339221017 0.393775374688 0.904391345449 0.399397390399 0.895203400497 -0.038885798326 0.011729056262
3.958022222000 -0.029524304200 0.009173542402 0.395666733681 0.905290981060 0.401306833468 0.895099051696 -0.038535947887 0.012943086663
3.958444444000 -0.029126327344 0.009144994055 0.395782136431 0.902913191663 0.403047449510 0.894006973918 -0.038028088756 0.011958334618
3.958866666000 -0.029598265954 0.009583762113 0.396827872801 0.905117259395 0.404090792619 0.894167500516 -0.038223997004 0.012930347475
3.959288888000 -0.028924657266 0.009661020609 0.401092477983 0.903633302486 0.406845977966 0.893865579158 -0.037052136119 0.012863801110
3.959711111000 -0.028835596342 0.008913144072 0.401197008842 0.902860484339 0.407754266454 0.892970798245 -0.037373621600 0.012218870985
3.960133333000 -0.028987007470 0.009997661884 0.402854677781 0.903569029504 0.408876449580 0.893159184624 -0.037123481544 0.013221065979
3.960555555000 -0.028523638652 0.011729394200 0.405346819572 0.905877147618 0.408166108732 0.895160821183 -0.036897726520 0.012533380606
3.960977777000 -0.028521541863 0.010754549874 0.406173029895 0.902803947718 0.411341921026 0.893014325038 -0.036756225392 0.012740907743
3.961400000000 -0.028699788998 0.012047385618 0.406790849984 0.904682651190 0.410712123287 0.892489548743 -0.035785965128 0.012856834574
3.961822222000 -0.028514448859 0.012088581170 0.410305090837 0.903138938523 0.414206056043 0.893088765400 -0.036255676770 0.013492557341
3.962244444000 -0.028570376837 0.011564568491 0.409512584118 0.903612572952 0.414698756115 0.892779263621 -0.036367903161 0.013214961832
3.962666666000 -0.028403879616 0.011698123865 0.412536460181 0.900931270239 0.416826496774 0.891172409433 -0.036100399838 0.013049436849
3.963088888000 -0.027964178173 0.012599481955 0.414690294186 0.901634835624 0.418239877869 0.892128728017 -0.035451526631 0.013187571423
3.963511111000 -0.027917765182 0.012727922462 0.415394206315 0.901742493747 0.419720700454 0.892646224257 -0.035732151721 0.013951613362
3.963933333000 -0.028642919900 0.013239803118 0.417208259735 0.903082904400 0.420566338859 0.892210826552 -0.035733686572 0.013973273774
3.964355555000 -0.027325073494 0.013520076787 0.419996809100 0.901365454960 0.422849859382 0.891397797661 -0.034656107234 0.013592523561
3.964777777000 -0.027270985796 0.012519983424 0.420499520762 0.899880298713 0.423575429544 0.890938309375 -0.036458253492 0.012342035046
3.965200000000 -0.027670958170 0.013480440132 0.421141382778 0.900463605925 0.425721291935 0.890965453508 -0.035104023957 0.013805876403
3.965622222000 -0.026991480064 0.014136951686 0.424267520948 0.901178763273 0.426947405253 0.890929158838 -0.034136284384 0.013334904219
3.966044444000 -0.027122524806 0.013812376488 0.424705415217 0.899906482065 0.428385471326 0.890595949498 -0.035204419416 0.013265066611
3.966466666000 -0.027255925834 0.014576191435 0.426921746387 0.898311561152 0.429738750105 0.888602168723 -0.034109211287 0.014137527863
3.966888888000 -0.026678395440 0.014738823242 0.429589292460 0.898141497775 0.431380824426 0.890455098714 -0.033786025612 0.013652577604
3.967311111000 -0.026527202810 0.014535724053 0.430869240814 0.897435131140 0.433551422140 0.889234545801 -0.034231775356 0.012977603699
3.967733333000 -0.025907063730 0.015055615436 0.432987959357 0.897624491155 0.434900246992 0.888576899222 -0.033664914217 0.013445932134
3.968155555000 -0.025773317670 0.015964844090 0.434011733595 0.896896591551 0.435482619778 0.888926106192 -0.032616463134 0.013452304819
3.968577777000 -0.025565592138 0.015998421248 0.435617217743 0.896102891581 0.437042376869 0.888893725722 -0.032426727075 0.013756737137
3.969000000000 -0.024748177174 0.014776422952 0.435331186615 0.891889905621 0.438398416321 0.887855639773 -0.032130430997 0.012704932129
3.969422222000 -0.025619747253 0.016379923082 0.439422494193 0.896118519177 0.440664632302 0.889437179112 -0.033088868254 0.013472441518
3.969844444000 -0.025149290705 0.016426801933 0.441280249801 0.895429146541 0.441495860300 0.886930013594 -0.032081494551 0.013246007841
3.970266666000 -0.024645660023 0.017054849677 0.442487657892 0.895724057480 0.443211431811 0.887918764424 -0.031631604443 0.013331056960
3.970688888000 -0.024946109382 0.016087224735 0.443144628415 0.894534845108 0.445304913773 0.885613842441 -0.032426385163 0.012852606667
3.971111111000 -0.023866171297 0.017581242390 0.445579192371 0.894152663476 0.446764819880 0.887495580810 -0.031310154284 0.013553108845
3.971533333000 -0.023725734943 0.017843798042 0.447104815750 0.894989600325 0.447902000976 0.886167185756 -0.031233766910 0.013558393327
3.971955555000 -0.023568546243 0.017595821442 0.449809238424 0.893036542346 0.449275917629 0.885589302058 -0.031307529358 0.012446712016
3.972377777000 -0.023460443879 0.017461218247 0.451274588108 0.892579815722 0.451439123110 0.885457315918 -0.032234829263 0.013115888667
3.972800000000 -0.022771532853 0.017817654579 0.452878549892 0.891300683410 0.453244994203 0.884196162860 -0.030612987862 0.012976459892
3.973222222000 -0.021902566360 0.017309795181 0.454850144953 0.890046623092 0.455059552175 0.883514146164 -0.030308526503 0.011236759010
3.973644444000 -0.022363032236 0.017246214649 0.456002339922 0.889622760647 0.457049976180 0.883549908888 -0.030906879676 0.011880965420
3.974066666000 -0.022481816808 0.018471274192 0.458429194460 0.890540753096 0.457098255389 0.883814144666 -0.030737433555 0.012770221331
3.974488888000 -0.022592182126 0.017865147270 0.459472707582 0.889164828457 0.458845521405 0.882180817724 -0.031120081078 0.012000709832
3.974911111000 -0.021288266794 0.017767536334 0.462303751292 0.887201840417 0.461643000130 0.881673863591 -0.030016958590 0.011757420342
3.975333333000 -0.021119258537 0.018325617258 0.464191807231 0.887334687877 0.462800693568 0.881329660105 -0.030276698666 0.012482687350
3.975755555000 -0.020492314398 0.018114876967 0.465645208081 0.887098304396 0.464371145123 0.881879509514 -0.030663938412 0.011399411180
3.976177777000 -0.020176683093 0.018373247698 0.467625522282 0.885268044450 0.466321399510 0.880417889158 -0.029142376238 0.012077079454
3.976600000000 -0.020847803596 0.018164354925 0.468012568037 0.885315701365 0.468124960114 0.881203218706 -0.029210190047 0.013466116937
3.977022222000 -0.019444206957 0.018474244682 0.470304694009 0.884501996323 0.469202578788 0.879967560248 -0.028768564231 0.011106752764
3.977444444000 -0.019534428752 0.019005853953 0.472515821463 0.884866602596 0.472030758558 0.879141545158 -0.028930613291 0.011352417139
3.977866666000 -0.019114148948 0.018506217342 0.473382142412 0.882938191742 0.472887312489 0.878279769288 -0.028994894840 0.011762527709
3.978288888000 -0.019267228052 0.018789027297 0.474586971999 0.881712993801 0.472951361791 0.877695089284 -0.028529248131 0.010727926622
3.978711111000 -0.018919987717 0.018788878255 0.476903806374 0.881911286795 0.475272240659 0.877669824871 -0.029618524404 0.010234566759
3.979133333000 -0.018022227993 0.018365708925 0.478241050638 0.880801432414 0.476758794536 0.877494979961 -0.028766347630 0.009041538718
3.979555555000 -0.017787862122 0.017632725351 0.479677202367 0.878823144182 0.480014844755 0.876108532367 -0.029921486775 0.010130968667
3.979977777000 -0.017734784581 0.018612299945 0.481177323743 0.879648690036 0.480544288298 0.876178422369 -0.028844649035 0.009200489628
3.980400000000 -0.017871531495 0.018512295252 0.482646041535 0.879028628577 0.481624164431 0.875154073833 -0.028885773507 0.009510395650
3.980822222000 -0.017396155827 0.018155564997 0.484525838000 0.876967425394 0.483152134774 0.873229411947 -0.028330549745 0.009143441428
3.981244444000 -0.017273204734 0.018333806156 0.486953436422 0.876067203616 0.485972800365 0.872805808204 -0.029144863047 0.009743437628
3.981666666000 -0.017066627706 0.017225928146 0.487113607878 0.874756622806 0.487576840581 0.873200262449 -0.029267740283 0.008537953194
3.982088888000 -0.016670815377 0.018595418111 0.488857422061 0.874584724824 0.488589008075 0.872096712129 -0.027819506494 0.009608560263
3.982511111000 -0.016396589787 0.018505703188 0.490639552316 0.873591194883 0.489933516093 0.870898624137 -0.028153109279 0.008741439367
3.982933333000 -0.015642946874 0.018584196445 0.492149129072 0.872604093181 0.490930458503 0.871109308793 -0.028221255489 0.008403843667
3.983355555000 -0.016391990196 0.018488756540 0.493145466394 0.871868374168 0.492245543010 0.870104541099 -0.028534207399 0.009157884912
3.983777777000 -0.014812586863 0.018169262395 0.496597360570 0.871330732282 0.494613952221 0.869651961765 -0.027185407990 0.007787366253
3.984200000000 -0.014883544735 0.018331142413 0.496440931980 0.869860323859 0.494938026337 0.869305527637 -0.027998570370 0.008264858627
3.984622222000 -0.015034957647 0.017815656914 0.498126627039 0.868885794352 0.498094348558 0.867121876577 -0.028273642779 0.007552333943
3.985044444000 -0.014818476707 0.017685767108 0.500884600722 0.868275779099 0.500265962180 0.865939408204 -0.028770264133 0.007937473492
3.985466666000 -0.013968125946 0.018322821223 0.501793937826 0.867382053542 0.500973579720 0.865637830700 -0.027314946591 0.007585646813
3.985888888000 -0.013374050335 0.018267941177 0.503925291668 0.866170051163 0.502551646531 0.865312898579 -0.026943331477 0.007141460580
3.986311111000 -0.013532353252 0.016859916401 0.504809726454 0.864924213742 0.505648589109 0.865041347967 -0.028004237971 0.006669755992
3.986733333000 -0.013855191145 0.018169554409 0.506342129126 0.864346005219 0.507479277250 0.862187970640 -0.027892083326 0.008838093103
3.987155555000 -0.012904199721 0.017278569763 0.508741680988 0.862944782174 0.507889359153 0.864531952556 -0.028815775139 0.006282171508
3.987577777000 -0.012679753974 0.018296121672 0.510179978562 0.863901688124 0.509402693787 0.863298378252 -0.028389675051 0.007889673116
3.988000000000 -0.012843401077 0.017348172519 0.511834144669 0.862462708466 0.510481513656 0.861888955403 -0.028464328432 0.006247479349
3.988422222000 -0.012438650267 0.017734217767 0.513634356196 0.860535784877 0.511163208582 0.860678779222 -0.027964088059 0.006800608419
3.988844444000 -0.012194491653 0.016711158955 0.514748980459 0.859710522505 0.514242738111 0.859966496164 -0.028493984823 0.006257036078
3.989266666000 -0.011500512557 0.016600100819 0.517408988551 0.858375939905 0.514942649544 0.860941654143 -0.028874360413 0.005448539261
3.989688888000 -0.012315603767 0.016170592551 0.517625915973 0.857935700597 0.517391361513 0.856994905044 -0.028615111119 0.004832322339
3.990111111000 -0.010316466781 0.016846946639 0.520574323691 0.857469517216 0.517573873543 0.859462724836 -0.027712568795 0.005053103721
3.990533333000 -0.010828698853 0.016255482509 0.520745710734 0.855501703148 0.519637867286 0.857215883112 -0.027730623437 0.004786447247
3.990955555000 -0.011190342533 0.016055665826 0.522353778277 0.854554423297 0.521041035938 0.855061138657 -0.028047209889 0.004896569443
3.991377777000 -0.011216623946 0.015230616878 0.523691134285 0.853488015913 0.524103548972 0.855516482853 -0.029261976075 0.004534058876
3.991800000000 -0.009600178576 0.016144240453 0.527198295588 0.853161664065 0.523530365566 0.856989625451 -0.028751881650 0.004641348982
3.992222222000 -0.010385536260 0.015175794571 0.527369819063 0.851214339268 0.525878287479 0.852894025121 -0.028052651608 0.004809167946
3.992644444000 -0.010456703401 0.015342485567 0.527769768215 0.850470894453 0.528769792809 0.851733801034 -0.029166922057 0.004679053727
3.993066666000 -0.009788910577 0.015650802066 0.529732089302 0.849063215366 0.529734890801 0.851137207251 -0.028589893749 0.005103757356
3.993488888000 -0.009781711786 0.014893198001 0.531360513691 0.848913737211 0.530921311091 0.850156194311 -0.028183786482 0.003740643716
3.993911111000 -0.010291377519 0.014315188983 0.532082982807 0.847586317819 0.533332253956 0.848504439888 -0.029046117680 0.003717221761
3.994333333000 -0.009488950818 0.013782340153 0.534565659061 0.845539291464 0.536237897253 0.849844611327 -0.029290412670 0.003613148927
3.994755555000 -0.009869889961 0.014713097290 0.536592925794 0.845109864484 0.534770376810 0.847078643415 -0.029598868519 0.002982101446
3.995177777000 -0.009723162650 0.013818176935 0.536965569799 0.842985382191 0.538997348893 0.846144600687 -0.030178166705 0.003582780375
3.995600000000 -0.009844629394 0.013920764812 0.537717197359 0.843171530576 0.538622411374 0.844453793731 -0.029461811422 0.003442749953
3.996022222000 -0.008622958591 0.013910357554 0.540159299747 0.842147995711 0.540754885603 0.845721926396 -0.029149332756 0.002663732314
3.996444444000 -0.009267719773 0.013683328942 0.540725461220 0.840820602294 0.541116082600 0.842132334149 -0.029308761932 0.003589533703
3.996866666000 -0.009381010957 0.013930431950 0.542367157310 0.840332083834 0.541012485731 0.840779418738 -0.029278482564 0.002903793214
3.997288888000 -0.009358485000 0.013075971784 0.543939368157 0.838204694721 0.545760043980 0.839832457865 -0.030615835770 0.003076951053
3.997711111000 -0.008639730452 0.013165677942 0.545703179993 0.837722569350 0.545854961338 0.840465447177 -0.030241300689 0.002972829588
3.998133333000 -0.008955336538 0.012587258774 0.547176845530 0.836350498058 0.547309754948 0.837457812128 -0.030008232045 0.002925895653
3.998555555000 -0.008288211386 0.012391049939 0.548128393220 0.835781986244 0.549619106379 0.838144777106 -0.029759247983 0.002880148985
3.998977777000 -0.008690367643 0.012451249111 0.548971376399 0.834412121244 0.549864013448 0.836476455834 -0.030391393911 0.002908216969
3.999400000000 -0.008471732630 0.013319248984 0.550761797017 0.833281698596 0.551450729629 0.836868349419 -0.031438933009 0.003344888979
3.999822222000 -0.008908264905 0.011759970162 0.551500099147 0.832540473663 0.554669132118 0.835851098935 -0.031287416790 0.001830380871
4.000244444000 -0.007632576655 0.012324687426 0.555302882782 0.832149693855 0.553997759304 0.835545156523 -0.030594288518 0.002044518970
4.000666666000 -0.008441842239 0.011432241457 0.554755632257 0.831004096622 0.557227520171 0.832594467819 -0.030861538074 0.002014121130
4.001088888000 -0.008982874601 0.011639899157 0.556733801412 0.828145191909 0.557735910607 0.830257746622 -0.031942868085 0.002434322432
4.001511111000 -0.008962565957 0.010565898493 0.557510986840 0.828076732353 0.559413076664 0.829441225513 -0.031256722388 0.001456560420
4.001933333000 -0.008915580130 0.010786449767 0.559244054298 0.827607460898 0.561600210573 0.826684769178 -0.031452172325 0.002522982768
4.002355555000 -0.008271988177 0.012050425631 0.559704424268 0.826935536262 0.561374541481 0.830052585354 -0.031979392988 0.002238946106
4.002777777000 -0.008413614521 0.011280240750 0.561906928588 0.824907102115 0.560926651970 0.826974872465 -0.030836208710 0.002020372934
4.003200000000 -0.008156661408 0.010311988300 0.562377255523 0.823738285106 0.565660793849 0.826405039849 -0.031375542406 0.002172362753
4.003622222000 -0.007937099113 0.010077441158 0.565253970373 0.823415857630 0.568191109990 0.825162179983 -0.031932656638 0.001964379655
4.004044444000 -0.008974658704 0.011155071335 0.566596067380 0.821508682201 0.566188068720 0.821952768774 -0.032742696199 0.002349516157
4.004466666000 -0.007510358430 0.010390391177 0.565874249591 0.817558687615 0.566156859877 0.823671447442 -0.031449254162 0.002852540408
4.004888888000 -0.008640494678 0.009173038356 0.567950827173 0.818225636280 0.571247883463 0.821692991119 -0.032290822097 0.001657333790
4.005311111000 -0.009273582569 0.009508198932 0.570178855659 0.817322286660 0.572272857665 0.819593043796 -0.033442031461 0.001480528623
4.005733333000 -0.007905173743 0.009507513370 0.570884272266 0.816069754659 0.573056277183 0.821911851026 -0.033073555146 0.001486138205
4.006155555000 -0.008761290178 0.008970760395 0.570778661537 0.816284592447 0.574927141803 0.819578775307 -0.032391812488 0.001221616861
4.006577777000 -0.009136201028 0.009342148946 0.572347702692 0.813905945533 0.574281443080 0.816066586824 -0.032734831964 0.002004323528
4.007000000000 -0.008834013158 0.009051480836 0.571635547916 0.812901979469 0.574966286092 0.819432058091 -0.032296404182 0.001697658852
4.007422222000 -0.009303482424 0.009305489070 0.575867325078 0.810461429912 0.577411077722 0.813955593318 -0.033937382466 0.002113224172
4.007844444000 -0.008941121611 0.008373490419 0.577699479283 0.810137620623 0.579643424122 0.813289424269 -0.033358655771 0.001808942670
4.008266666000 -0.009700180600 0.008437165142 0.577420512982 0.808938146142 0.582313531358 0.812265272371 -0.034334810109 0.001840384596
4.008688888000 -0.009319652026 0.008847133760 0.579662887411 0.808782814562 0.582391048358 0.810147433457 -0.034203985198 0.002437735863
4.009111111000 -0.009460462023 0.008268506328 0.579062408485 0.810236679600 0.586398943027 0.810208564773 -0.034093294700 0.002195997809
4.009533333000 -0.009433680879 0.008594298055 0.579882964518 0.807147934417 0.583882481408 0.808874190954 -0.033375604849 0.002624062634
4.009955555000 -0.009360634368 0.008247170952 0.582248748854 0.804704445837 0.584238160500 0.808010311968 -0.033596357517 0.002333219565
4.010377777000 -0.009962941619 0.007874974216 0.583959092966 0.804561867456 0.587468274124 0.806354695985 -0.034118097429 0.002184604907
