# GHZ S RI R 50.000000000000
3.950000000000 -0.036684546770 0.000217553400 0.341210495010 0.922513353340 0.386317180120 0.897667459873 -0.039513846340 0.005147846756
3.950422222000 -0.035852585296 0.001630315306 0.350546006720 0.918425730230 0.383379198081 0.898490846384 -0.039837029028 0.006384428170
3.950844444000 -0.034905259308 0.003717565306 0.358106515988 0.917346526769 0.384075068968 0.900264011628 -0.038978116653 0.008867998390
3.951266666000 -0.032846948715 0.003995789642 0.365229379780 0.915533666666 0.383041047102 0.899013633848 -0.038542908688 0.008102515510
3.951688888000 -0.032463576926 0.004657345015 0.368400592055 0.912180876739 0.385065014259 0.899081573008 -0.037768786848 0.008842341124
3.952111111000 -0.032411733043 0.005046158227 0.370472442714 0.912075315146 0.385716623532 0.897967307605 -0.037050012621 0.009667973472
3.952533333000 -0.032230113142 0.005315738009 0.375182594793 0.913273221037 0.386254399052 0.898370416892 -0.037507114749 0.010496107786
3.952955555000 -0.031166022039 0.006276220524 0.379095682272 0.910796108291 0.388152468593 0.899453494141 -0.036728351799 0.010579465465
3.953377777000 -0.031293519170 0.006276175306 0.379587782162 0.910191191164 0.389835651375 0.897896714001 -0.036586222212 0.010751512965
3.953800000000 -0.029039997023 0.006660258663 0.383893715962 0.903440679230 0.393795677131 0.899341399334 -0.034632181106 0.010636195669
3.954222222000 -0.031380322505 0.007568830442 0.383210464274 0.911489694041 0.391842049104 0.899127511463 -0.035873167836 0.011688610769
3.954644444000 -0.031533220702 0.007888676365 0.385399620178 0.910288560530 0.393995562528 0.899178956238 -0.035796873293 0.011747693935
3.955066666000 -0.031711175176 0.007987819966 0.384826661678 0.910552023244 0.392489167824 0.898054204140 -0.036044100529 0.011787962384
3.955488888000 -0.031323052675 0.008366344144 0.386707072145 0.908699105177 0.394785660293 0.898330422968 -0.035592991499 0.011627780762
3.955911111000 -0.031629276265 0.008073987641 0.387707234192 0.908970304743 0.396369560995 0.897867075656 -0.036568278942 0.012149775017
3.956333333000 -0.031557489422 0.008243469995 0.390419936395 0.908781769873 0.398423659309 0.899049593267 -0.035490745872 0.012367438568
3.956755555000 -0.031836283573 0.010059129925 0.391908289749 0.910430908249 0.399248127836 0.897132205060 -0.034508052027 0.012902498949
3.957177777000 -0.031536255792 0.009453109356 0.391675239611 0.909634608062 0.400172081510 0.897394100988 -0.035138445727 0.012596568333
3.957600000000 -0.032363384169 0.009621167795 0.393548843741 0.908184396440 0.400036386441 0.896335228316 -0.035053897483 0.012052082061
3.958022222000 -0.031570506296 0.010425018602 0.397570948656 0.906855371648 0.402070397440 0.897939705751 -0.035078065010 0.012911313482
3.958444444000 -0.031051702999 0.010764744198 0.399003405046 0.907012530530 0.403328328149 0.896987117412 -0.034142906951 0.012413250223
3.958866666000 -0.030870635314 0.011105340628 0.401510495781 0.908070752676 0.406235057111 0.896498610631 -0.033619913095 0.013471719074
3.959288888000 -0.031376967098 0.011388297252 0.401530938313 0.907111404892 0.407331464931 0.897299009346 -0.034041556441 0.013416511855
3.959711111000 -0.031101019254 0.010928338948 0.402638368570 0.907923368755 0.408392576768 0.896520626975 -0.034060898219 0.013111382091
3.960133333000 -0.031208727447 0.011485807646 0.403830163268 0.906430409528 0.409864709973 0.895765300598 -0.033634297305 0.013756738952
3.960555555000 -0.030758432946 0.012536979120 0.404520745578 0.906964543665 0.409793539988 0.895710954251 -0.033125754278 0.012828616886
3.960977777000 -0.030520708590 0.012176504616 0.407982110975 0.905034512061 0.412680016932 0.895883277600 -0.033206226083 0.013369021114
3.961400000000 -0.030021679348 0.013741807892 0.410220007683 0.907056448184 0.413537237790 0.895999855149 -0.031897575300 0.014051002474
3.961822222000 -0.030828435642 0.013320528671 0.410006053670 0.905182019882 0.415288044853 0.894999411064 -0.032801336886 0.014017208102
3.962244444000 -0.030229977862 0.013062785878 0.412121090175 0.905340144289 0.417026366079 0.895879968541 -0.032627350012 0.014181793860
3.962666666000 -0.030406099256 0.013699332647 0.414266602206 0.905609814213 0.418462248815 0.893882907015 -0.032301034860 0.014244986261
3.963088888000 -0.030250443294 0.014281113554 0.415044796730 0.905634568505 0.419616421619 0.894143459255 -0.031818898376 0.014111587165
3.963511111000 -0.029945501191 0.014507400646 0.417007096406 0.904977358815 0.421358470689 0.895592360938 -0.032252613654 0.015066305267
3.963933333000 -0.030503183352 0.014535590514 0.418446097758 0.904960575086 0.422839354387 0.894253252566 -0.031963207488 0.014855102606
3.964355555000 -0.029504173430 0.014847271445 0.420565585127 0.903415114235 0.424639952126 0.893321465517 -0.031042778906 0.014445925472
3.964777777000 -0.029826587734 0.014226063107 0.420529011126 0.903287282968 0.424444890240 0.893300083402 -0.033118696314 0.013303717005
3.965200000000 -0.029431168587 0.015519475232 0.424516448331 0.904035646829 0.427313566160 0.894343634588 -0.031351003812 0.014904614533
3.965622222000 -0.029248046410 0.015474976056 0.424875216445 0.902940642654 0.428326466427 0.893196963510 -0.030719606555 0.014210178886
3.966044444000 -0.029022037640 0.015396187101 0.426614082652 0.902032526855 0.430339062195 0.893201187886 -0.031579555548 0.014312214613
3.966466666000 -0.028885712775 0.016083615909 0.429452190795 0.900164023352 0.431837105726 0.891138976264 -0.030305097549 0.015130122874
3.966888888000 -0.028958222250 0.016219073776 0.430069187436 0.900802732079 0.433123671247 0.892137009607 -0.030084752699 0.014764056148
3.967311111000 -0.028819626942 0.016417039406 0.431684189307 0.901248015708 0.435303700603 0.891688280863 -0.030735300920 0.014537779794
3.967733333000 -0.028176145637 0.016894732378 0.434011424208 0.900820579740 0.436399997184 0.891186991658 -0.030191984201 0.014727602708
3.968155555000 -0.028243661367 0.017856107956 0.434655451500 0.900594066737 0.436610422249 0.891477404152 -0.029213224340 0.014659375472
3.968577777000 -0.027616051725 0.017898718403 0.437207925398 0.899211729608 0.438818553044 0.891274276061 -0.028820913130 0.015152192171
3.969000000000 -0.026657351717 0.017404418553 0.438639074297 0.897052190975 0.439491550743 0.891587187103 -0.028679840452 0.014060573491
3.969422222000 -0.027996844898 0.017749673910 0.440018408001 0.898312896041 0.442209753243 0.890845733251 -0.029333420047 0.014606589860
3.969844444000 -0.027525506861 0.017995041670 0.441310164935 0.898206522444 0.443326470978 0.888830441196 -0.028676831797 0.014757902215
3.970266666000 -0.026437657220 0.018309871300 0.444018689825 0.896728027985 0.445821129409 0.889781380956 -0.028169976874 0.014620007173
3.970688888000 -0.026938191852 0.017929884694 0.445059510189 0.897288106067 0.446950446024 0.888342676632 -0.029062652943 0.014099061372
3.971111111000 -0.025992814540 0.019151287786 0.447336265908 0.896300406599 0.448143483789 0.889589358355 -0.027657972399 0.014633078803
3.971533333000 -0.025942703587 0.018942642284 0.447942005471 0.896083501487 0.449469863674 0.887693059954 -0.027552807245 0.014361707325
3.971955555000 -0.025953576229 0.019067814586 0.450396208367 0.895251996252 0.450669454220 0.887401863540 -0.027778445651 0.013604490900
3.972377777000 -0.025706316896 0.018687015725 0.451859576150 0.893983371382 0.453385454814 0.887211280198 -0.028816225258 0.014362580310
3.972800000000 -0.025163963108 0.019657622558 0.453885844143 0.894488510645 0.454217679072 0.886459773652 -0.027004768266 0.014314888596
3.973222222000 -0.024633219740 0.019582200588 0.455563028782 0.893910036470 0.455625236815 0.886447930331 -0.027043342684 0.012743647727
3.973644444000 -0.024649648759 0.019186043141 0.457126347811 0.892696689519 0.458221338636 0.886330153004 -0.027548953562 0.013309273912
3.974066666000 -0.025267577437 0.019420134597 0.457168174679 0.891924574571 0.458641784908 0.884696987297 -0.027108676827 0.014252541060
3.974488888000 -0.024951127732 0.019611746322 0.460176446700 0.891468652833 0.460107068326 0.884569243300 -0.027790137889 0.013447248320
3.974911111000 -0.023782760410 0.019543882197 0.462742758591 0.890170233704 0.463111852595 0.883844209875 -0.026492203613 0.013314847703
3.975333333000 -0.023529245083 0.020086014492 0.464763478533 0.889756207011 0.464136548129 0.883422991378 -0.026844408142 0.013918296743
3.975755555000 -0.022993571103 0.019884862464 0.466203469195 0.889277812532 0.465319997739 0.884384805696 -0.027484078696 0.012666733242
3.976177777000 -0.022532575492 0.020332326531 0.468522163381 0.888168690870 0.467611115238 0.882759964912 -0.025803330619 0.013544304480
3.976600000000 -0.022473354258 0.021041949031 0.472020967641 0.889706255638 0.469523168861 0.884469088538 -0.025750862247 0.014958897759
3.977022222000 -0.021920530804 0.020355975256 0.470895862180 0.886960211556 0.470471231128 0.882442069942 -0.025689808594 0.012734356364
3.977444444000 -0.022489698305 0.020737661516 0.471717248155 0.887729721585 0.473064007726 0.881112058907 -0.025722028639 0.012945122223
3.977866666000 -0.021753496922 0.020741348929 0.473823976574 0.886250217203 0.473974547688 0.880834529947 -0.025829074387 0.013301116312
3.978288888000 -0.021479016149 0.021026619099 0.475865791373 0.884841227998 0.474513279029 0.880393062169 -0.025400359009 0.012563351829
3.978711111000 -0.021380910131 0.020407439704 0.477432017286 0.883915107143 0.476703471662 0.879615052956 -0.026269654432 0.011800406749
3.979133333000 -0.020058914385 0.020791344325 0.480121006466 0.884386845183 0.478632122531 0.880041339968 -0.025390524200 0.011076261061
3.979555555000 -0.020086983170 0.020065307682 0.481390008764 0.882440097279 0.481269046495 0.878501401987 -0.026425008270 0.011757947024
3.979977777000 -0.020139928486 0.020491249653 0.481979436122 0.882144578754 0.481951659209 0.878380590530 -0.025677470526 0.010885149543
3.980400000000 -0.019927970276 0.020398641025 0.484315303493 0.881093382226 0.483095268827 0.877438220742 -0.025570364215 0.011225306223
3.980822222000 -0.020116336283 0.020517223251 0.484577685001 0.880700545623 0.484190064480 0.875928087823 -0.025328287388 0.011127892606
3.981244444000 -0.019645500342 0.020289220501 0.487629818567 0.878640110663 0.487568151309 0.875053275280 -0.025789978382 0.011843509798
3.981666666000 -0.019325993367 0.019569639545 0.488713589246 0.877746780668 0.488872409956 0.875885712267 -0.026150635807 0.010585043342
3.982088888000 -0.018654153531 0.020574260338 0.490570874652 0.876537343950 0.490116049514 0.874393288015 -0.024703984304 0.011393267536
3.982511111000 -0.018342712153 0.020586618750 0.492472789030 0.876116690650 0.491384479233 0.873145422604 -0.025036374845 0.010506678770
3.982933333000 -0.017921060485 0.020894088399 0.493576446211 0.875619557624 0.492393623930 0.873628800442 -0.025035096117 0.010347167814
3.983355555000 -0.018703354809 0.020800133353 0.494401321017 0.874906995634 0.493816676736 0.872343352320 -0.025352654584 0.011017066958
3.983777777000 -0.017327325094 0.020346056848 0.497177616037 0.874294297244 0.496093517507 0.872019762018 -0.023799410486 0.009682711936
3.984200000000 -0.017133648936 0.020712025922 0.497900099729 0.873157823513 0.496179732925 0.871727420382 -0.025063496646 0.010429715137
3.984622222000 -0.017236414752 0.020277334512 0.499857183685 0.872006862691 0.499423615446 0.869563134476 -0.025216672234 0.009519229718
3.985044444000 -0.017244151957 0.019818991880 0.501693267563 0.871208567933 0.501699680414 0.868105004258 -0.025561574851 0.009905321397
3.985466666000 -0.016253750973 0.020603866186 0.502768252931 0.870209308216 0.502460967462 0.868019123453 -0.024305584901 0.009597375704
3.985888888000 -0.016011875458 0.020148537829 0.503941288438 0.868633880239 0.504124161625 0.867492366502 -0.023811599249 0.009377591867
3.986311111000 -0.015411976104 0.019379579099 0.507130876195 0.867631225764 0.507182133671 0.867262564682 -0.024807159602 0.008555107951
3.986733333000 -0.016046442452 0.020451037085 0.507759404106 0.867024448757 0.509175937988 0.864692180353 -0.024776117256 0.010999693181
3.987155555000 -0.015264091173 0.019778810820 0.509914488010 0.866202264987 0.509722866739 0.866697837293 -0.025692474489 0.008378186724
3.987577777000 -0.014608144362 0.020456159270 0.511888595224 0.865764303005 0.511138032160 0.865560532713 -0.025334287934 0.009801679072
3.988000000000 -0.014961422843 0.019541496431 0.512944960272 0.864738714208 0.512316411677 0.864256170712 -0.025301575230 0.008175093827
3.988422222000 -0.014750188112 0.020129071067 0.514542719366 0.863642996985 0.513240427179 0.862953128497 -0.024867735632 0.008868731782
3.988844444000 -0.014376855004 0.019168138482 0.516050936493 0.862477552295 0.516047914563 0.862437357051 -0.025362830963 0.008401435972
3.989266666000 -0.013986541413 0.018853953378 0.517919310938 0.861237653733 0.516820151107 0.863137930602 -0.025832411613 0.007586564545
3.989688888000 -0.014434421506 0.018729621839 0.519084552978 0.860683946070 0.518735119281 0.859227881435 -0.025755803987 0.007060700243
3.990111111000 -0.012895203308 0.019058092735 0.520548833402 0.860300392954 0.519427568168 0.862075303423 -0.024596306329 0.007434694571
3.990533333000 -0.013076544547 0.018763128899 0.522235624465 0.858314406396 0.521129771555 0.859243125925 -0.024790228586 0.006984946942
3.990955555000 -0.013114956477 0.018374380336 0.523967497621 0.856813896559 0.522555240513 0.856934830843 -0.025341256603 0.007007454372
3.991377777000 -0.013107407571 0.017651340587 0.525502086778 0.855653363243 0.525778650941 0.857557109443 -0.026389914318 0.006671744951
3.991800000000 -0.012188488843 0.018509731367 0.527267739837 0.856229326958 0.525654760452 0.859277236084 -0.025816982633 0.007135018991
3.992222222000 -0.012516805032 0.017825147541 0.528717138367 0.853852735248 0.527550382409 0.855341811561 -0.025163973736 0.007155198618
3.992644444000 -0.012481975305 0.017904944831 0.529173761360 0.852809714954 0.530048410109 0.854124773996 -0.026499958807 0.006937213874
3.993066666000 -0.012252349376 0.017980933358 0.530158684192 0.851885852208 0.531779454178 0.853390393425 -0.025711827328 0.007471054630
3.993488888000 -0.011711161784 0.017270855525 0.532564032705 0.851074383747 0.532241828458 0.852705624187 -0.025476919373 0.006097997079
3.993911111000 -0.012277968232 0.016945332124 0.533483520911 0.850269513020 0.534947793458 0.850788924738 -0.026250525056 0.006102466944
3.994333333000 -0.011470018732 0.016582945811 0.536543558756 0.848348880696 0.537575150745 0.851367179956 -0.026499023024 0.005752499107
3.994755555000 -0.012349347969 0.017059255775 0.536953357557 0.848113818560 0.536737640601 0.849096434791 -0.026833171876 0.005377680026
3.995177777000 -0.011899971204 0.016617585113 0.538167335584 0.845876273324 0.539880168583 0.848808055376 -0.027460011898 0.006270995457
3.995600000000 -0.011712960269 0.016524184205 0.538949255303 0.845478360872 0.540028051113 0.846789293846 -0.026778506930 0.005884162385
3.996022222000 -0.010752937669 0.016366333439 0.541392657585 0.844454936622 0.541873101229 0.847780221920 -0.026574709584 0.005069639913
3.996444444000 -0.011349197612 0.016318445719 0.542143739066 0.843640439254 0.543091453274 0.844077356181 -0.026585009369 0.005979062422
3.996866666000 -0.011649000496 0.016752141925 0.543291231483 0.843218676676 0.542354128448 0.843276707389 -0.026613297231 0.005475552267
3.997288888000 -0.011669287001 0.015953752750 0.545138743382 0.841318536732 0.547355548814 0.842366084974 -0.027922478920 0.005712336644
3.997711111000 -0.010821281609 0.015983306436 0.546802789026 0.840618756610 0.547208998680 0.842604027955 -0.027655197976 0.005624121142
3.998133333000 -0.010865423533 0.015300527385 0.548338444312 0.838866331830 0.548873376036 0.840028521322 -0.027443478283 0.005620739131
3.998555555000 -0.010296160708 0.015071721998 0.549588657484 0.838302133008 0.550549396520 0.840027473966 -0.027211110034 0.005332201306
3.998977777000 -0.010529384449 0.015285204770 0.550451796821 0.836942650780 0.551335816620 0.839024322455 -0.027742500171 0.005469601144
3.999400000000 -0.010307807582 0.015575624531 0.551997369702 0.835547973489 0.553829004658 0.839014001460 -0.028977759991 0.005931975843
3.999822222000 -0.010661793861 0.014360224731 0.553303476517 0.834979239542 0.556689221994 0.837934202409 -0.028746964407 0.004459331216
4.000244444000 -0.009349794414 0.015303282805 0.556895048166 0.834597088593 0.555002623412 0.838435568654 -0.028014522703 0.004759312979
4.000666666000 -0.010185175503 0.014284651923 0.556020240518 0.833577592458 0.559068676421 0.835879016257 -0.028356805270 0.004711867973
4.001088888000 -0.010564977932 0.014700566293 0.558463004710 0.830666078242 0.559230615472 0.832951184542 -0.029493831371 0.005019937261
4.001511111000 -0.010855786429 0.013697177653 0.559128701946 0.830720837438 0.560646840231 0.832083200226 -0.028788676896 0.004192712043
4.001933333000 -0.010793822398 0.013754611870 0.560939757084 0.830344714053 0.562755779709 0.829221662091 -0.028945569299 0.005232440631
4.002355555000 -0.010389665859 0.014425546954 0.560956915048 0.829552963058 0.563476012152 0.831272732546 -0.029635209283 0.004970583175
4.002777777000 -0.010074237983 0.013351808460 0.563119185104 0.827213742266 0.563701732121 0.828295731869 -0.028539601129 0.004799043772
4.003200000000 -0.009928694346 0.013245568845 0.563924602264 0.826273744321 0.567448055670 0.828458264211 -0.029075358802 0.004994316019
4.003622222000 -0.009658564799 0.013194703652 0.566728490640 0.825961814416 0.569671701423 0.828185844090 -0.029578272849 0.004728184334
4.004044444000 -0.010372259113 0.013796771391 0.568058347623 0.823969632977 0.568130107842 0.824919244092 -0.030481679151 0.005093569316
4.004466666000 -0.009782844748 0.013288808605 0.567235231156 0.820119685494 0.567513785986 0.825687358168 -0.029162717904 0.005759057560
4.004888888000 -0.010513574360 0.012058335462 0.569479221285 0.820960759144 0.572725511181 0.823431998791 -0.029977724843 0.004472406120
4.005311111000 -0.010870804906 0.012366693987 0.571500715052 0.819976109081 0.574699737354 0.821889720921 -0.031094013953 0.004341680013
4.005733333000 -0.009640139243 0.012709642878 0.572178086951 0.818762024022 0.574721795614 0.824568736922 -0.030831796618 0.004356374295
4.006155555000 -0.010612237635 0.012123971600 0.572209055008 0.819064463180 0.575779755275 0.821786127520 -0.030080067252 0.004159609699
4.006577777000 -0.010695738062 0.012166721278 0.573755782329 0.816561407394 0.576123476319 0.818582861221 -0.030507329662 0.004891559030
4.007000000000 -0.010503229789 0.012997920545 0.572989141464 0.815407129287 0.575085374671 0.823028332428 -0.030058280794 0.004602337654
4.007422222000 -0.010965939832 0.012233102247 0.577416548405 0.812901870857 0.579154501369 0.815930479703 -0.031780384669 0.004934795405
4.007844444000 -0.010868064771 0.011560118442 0.578891169730 0.812728609018 0.580742397462 0.815617831625 -0.031227357193 0.004715645200
4.008266666000 -0.010781107202 0.011268974809 0.578737215691 0.811837358136 0.584860702908 0.815047499181 -0.032111021739 0.004799684094
4.008688888000 -0.010902341694 0.012008932977 0.581015517986 0.811496317751 0.583526576492 0.813397078972 -0.032005853484 0.005362663410
4.009111111000 -0.011458461252 0.011687392028 0.580333667436 0.812670550279 0.587006549824 0.813515233314 -0.031993603724 0.005110047560
4.009533333000 -0.011126114229 0.011838632684 0.580861869706 0.809608627651 0.584497872658 0.810960189681 -0.031286429024 0.005593137176
4.009955555000 -0.011252084072 0.010939376144 0.583732895619 0.807398166027 0.586372920330 0.808739649923 -0.031470791827 0.005357641767
4.010377777000 -0.011483213406 0.010728094655 0.585573722607 0.807359891402 0.589834260674 0.807895222690 -0.031982064106 0.005163549979
