# GHZ S RI R 50.000000000000
3.950000000000 -0.129642271733 -0.223127313056 0.384041026831 0.539434724148 0.399274873532 0.510816717638 -0.041690443907 -0.420423863278
3.950422222000 -0.128619456736 -0.223513578125 0.391294364670 0.533716741802 0.398140054667 0.512140151757 -0.048876658625 -0.418293657432
3.950844444000 -0.127757021111 -0.222698884378 0.394542956305 0.533152008219 0.397680699609 0.512388248508 -0.052788789200 -0.417102133446
3.951266666000 -0.126919851628 -0.223270315546 0.397675386774 0.528703211893 0.397308152485 0.511888788620 -0.055949677524 -0.416568650069
3.951688888000 -0.126618676271 -0.223109790154 0.399734300432 0.528722460568 0.397607714075 0.513341447112 -0.059117971624 -0.414907735604
3.952111111000 -0.127064538338 -0.222372858152 0.400211949292 0.529207456771 0.397349244366 0.513637433355 -0.059925429851 -0.414686348912
3.952533333000 -0.126736027723 -0.223600134696 0.401257898492 0.525840703627 0.397977993552 0.512721861822 -0.063295795700 -0.413229573402
3.952955555000 -0.126110321827 -0.223605239367 0.402343713434 0.525727789474 0.397936698652 0.512884322566 -0.064900606551 -0.412398567275
3.953377777000 -0.126121742560 -0.223422480591 0.403989650720 0.525554950318 0.398288063569 0.513282317587 -0.066965309063 -0.412070817618
3.953800000000 -0.125697299243 -0.223327469887 0.404059445253 0.525246508064 0.397370963102 0.514109798461 -0.066788406731 -0.411428496760
3.954222222000 -0.126056535897 -0.223396397623 0.404407286600 0.525976470528 0.398977715874 0.513973984391 -0.069987930827 -0.411379322697
3.954644444000 -0.126487535138 -0.223507979318 0.405832398449 0.525728143700 0.400054397382 0.513470520046 -0.070336867422 -0.410788503653
3.955066666000 -0.125887447563 -0.223532958182 0.405584516478 0.525861805733 0.399387690214 0.513017245792 -0.071672195879 -0.409929553976
3.955488888000 -0.125970287762 -0.223334579766 0.406920586702 0.526331300557 0.399872478292 0.514684114007 -0.073801258770 -0.409013310948
3.955911111000 -0.126096495692 -0.223917496713 0.408039777514 0.524902355868 0.401669696474 0.514283781869 -0.075573433533 -0.407742014693
3.956333333000 -0.125837212160 -0.223961637604 0.407772209053 0.525686006519 0.401931562485 0.514574265737 -0.076947649843 -0.408934140502
3.956755555000 -0.126013672088 -0.222950828472 0.409183188865 0.525431308003 0.402638005800 0.514806770358 -0.078168307724 -0.407130972196
3.957177777000 -0.126247040296 -0.224125095835 0.409596122444 0.524295109242 0.402849906836 0.514650471069 -0.078677420591 -0.406695902850
3.957600000000 -0.125956598823 -0.223802814936 0.411133386725 0.524750892435 0.402926235515 0.514403385642 -0.080704514391 -0.406608477406
3.958022222000 -0.125636825072 -0.223327077608 0.412746149795 0.524796669068 0.404461916375 0.515475986517 -0.082647789343 -0.405174947316
3.958444444000 -0.125195317566 -0.223763333060 0.413932148560 0.523628806557 0.404678076430 0.515053403627 -0.083541304768 -0.404834136810
3.958866666000 -0.125568755566 -0.224157185602 0.413065856488 0.524731931710 0.405370862655 0.514886471455 -0.085600940020 -0.403756195779
3.959288888000 -0.126148026191 -0.224090388522 0.412871580170 0.524542237745 0.405363996536 0.514768357474 -0.086055398796 -0.403979492834
3.959711111000 -0.125860874862 -0.224629876802 0.414514354148 0.523902376693 0.406477924415 0.514997864483 -0.086878249337 -0.403605790156
3.960133333000 -0.125408212836 -0.224455705173 0.415352021390 0.523326374434 0.407394999278 0.515290307588 -0.089150465087 -0.402117821629
3.960555555000 -0.124656843612 -0.223867469679 0.416408910244 0.524282321456 0.407052605593 0.516141438557 -0.090868037672 -0.402861270562
3.960977777000 -0.124914883168 -0.224501124603 0.417198066223 0.523862081047 0.408171310965 0.515635895823 -0.092151352156 -0.401684677837
3.961400000000 -0.124056239927 -0.224272078740 0.418099181801 0.522706166046 0.408882143514 0.515925277223 -0.093680075884 -0.399978369599
3.961822222000 -0.125378556046 -0.223883227333 0.418500147703 0.523793882977 0.408935099234 0.515718211758 -0.094742071081 -0.400623158311
3.962244444000 -0.124788045706 -0.225196163904 0.418700450732 0.522721661522 0.410071705840 0.516148242058 -0.096245218957 -0.399297676525
3.962666666000 -0.124902784590 -0.224841058280 0.419389727952 0.522428177664 0.410448176205 0.515313612063 -0.098034600500 -0.398708311601
3.963088888000 -0.124876368243 -0.224949403230 0.420192858806 0.522468968516 0.410916986322 0.515491214006 -0.098207330489 -0.398476763106
3.963511111000 -0.124693749708 -0.225066619726 0.421625183710 0.522243153332 0.412018036721 0.516501316019 -0.100336999001 -0.397605149633
3.963933333000 -0.124945853176 -0.225240803519 0.422416244886 0.522148393395 0.413087454826 0.516165554413 -0.101850773300 -0.396266583583
3.964355555000 -0.124410527919 -0.225128269942 0.423256876628 0.521802530712 0.413461779362 0.515685742642 -0.102331438031 -0.396052992903
3.964777777000 -0.124691141333 -0.225529477739 0.423313126872 0.522597302755 0.413553829286 0.516469398691 -0.104930869162 -0.396849655704
3.965200000000 -0.124802908776 -0.225469851114 0.423869057881 0.522319901527 0.414325058585 0.516713511309 -0.106472920455 -0.395839333034
3.965622222000 -0.124500917339 -0.226041713508 0.424454835503 0.521359417079 0.415310904815 0.515906720844 -0.106374623023 -0.394508526446
3.966044444000 -0.124385403286 -0.226244558577 0.425735240197 0.520844355844 0.416049285315 0.516463635220 -0.108551588181 -0.394061354781
3.966466666000 -0.124470638928 -0.225574562376 0.426680754171 0.521360633135 0.415903074334 0.515259609516 -0.109546362492 -0.392705272659
3.966888888000 -0.123989912838 -0.225976262478 0.427621829174 0.520717664160 0.417365199804 0.516374792432 -0.111017231648 -0.392623675527
3.967311111000 -0.124172452872 -0.226398078975 0.428103614991 0.521173386524 0.418489249428 0.516283737354 -0.113206688570 -0.391573941610
3.967733333000 -0.123830593565 -0.226383972729 0.427946290116 0.520685480034 0.418654816321 0.515700785569 -0.114235767436 -0.391094881234
3.968155555000 -0.123637206132 -0.225792181856 0.429837423759 0.520251605265 0.419245075627 0.516686906085 -0.114785896168 -0.390134049820
3.968577777000 -0.123657278670 -0.225991061304 0.429754873125 0.520356771484 0.419929405705 0.516579661120 -0.115691848742 -0.389577526105
3.969000000000 -0.122991501647 -0.226539800549 0.430648777919 0.520202604078 0.420017328432 0.517656612674 -0.116656442932 -0.389584227498
3.969422222000 -0.123526484988 -0.226758856885 0.432017861911 0.519111855474 0.422250354236 0.516891119091 -0.119364981263 -0.388300282017
3.969844444000 -0.123629939997 -0.226685101805 0.432853723124 0.519070091391 0.422095831059 0.516003002112 -0.119909931347 -0.387556108338
3.970266666000 -0.122943086266 -0.226918080605 0.433306653049 0.518593134036 0.423328852952 0.516462130510 -0.121009617835 -0.386677898872
3.970688888000 -0.123278460514 -0.227429172523 0.433871460074 0.518800235473 0.424343629609 0.515910493863 -0.123760095668 -0.386080021877
3.971111111000 -0.122484065961 -0.227118857693 0.435042975907 0.518327337358 0.424963047963 0.517004155187 -0.124555201853 -0.384579324481
3.971533333000 -0.122112550043 -0.227058601384 0.435935269839 0.518476589421 0.425440522518 0.516181891954 -0.125824907559 -0.384279995419
3.971955555000 -0.122509890553 -0.227118803144 0.436968216070 0.518100539474 0.426032611859 0.516228506025 -0.127071176539 -0.384329102334
3.972377777000 -0.122833484193 -0.227848608695 0.436732414865 0.517732230397 0.427268330028 0.516149181668 -0.129090128884 -0.383117570677
3.972800000000 -0.122226976734 -0.227808507870 0.437751303672 0.517572220012 0.427739142880 0.515829982067 -0.129350524179 -0.381461465111
3.973222222000 -0.121976905005 -0.228244236792 0.437841062960 0.517844955800 0.428637253125 0.515905184006 -0.130305685106 -0.382140430101
3.973644444000 -0.122373943081 -0.228637435860 0.439637345751 0.517058452134 0.429932000335 0.516360768962 -0.132604966727 -0.380842579150
3.974066666000 -0.122184505741 -0.228403423941 0.440168606753 0.516149432565 0.430163673231 0.515966588980 -0.133430077951 -0.378759308011
3.974488888000 -0.122601345514 -0.228720317908 0.440878352568 0.516587900394 0.431051333049 0.515524268426 -0.134184587122 -0.378618268356
3.974911111000 -0.121810186342 -0.228777847236 0.441946016502 0.516189661408 0.432240511772 0.515484896456 -0.136833405206 -0.378228530463
3.975333333000 -0.121982147830 -0.228543613755 0.442596287151 0.516026420552 0.432575645585 0.515267284392 -0.137951122358 -0.377472858199
3.975755555000 -0.121653920586 -0.229658891491 0.443260938055 0.515328515303 0.433730344502 0.516121897856 -0.138506715993 -0.376740081453
3.976177777000 -0.121207056456 -0.228996346411 0.444450810844 0.514653103726 0.434383663530 0.515482291180 -0.140508131347 -0.375169611384
3.976600000000 -0.121877422539 -0.229948538043 0.445040691752 0.514728099802 0.435556593272 0.515968966291 -0.141951131368 -0.373820881286
3.977022222000 -0.121173038151 -0.230068018669 0.445393279063 0.514960187364 0.436007442962 0.515977595499 -0.141910789055 -0.373406657090
3.977444444000 -0.121640561557 -0.230205999519 0.445731429071 0.514360551694 0.437716684183 0.515081065657 -0.143801053681 -0.372955489849
3.977866666000 -0.121052923542 -0.230605173542 0.446467235040 0.513921268554 0.438147209323 0.515119481211 -0.144541390965 -0.371009486097
3.978288888000 -0.120504241230 -0.229821241751 0.447439579259 0.513413205382 0.438165723282 0.515378133580 -0.145722502591 -0.371759339452
3.978711111000 -0.120571767641 -0.230705316959 0.448554940271 0.513725042508 0.439716083932 0.515211493896 -0.148476442473 -0.370045836006
3.979133333000 -0.120088043510 -0.231505408203 0.449400931654 0.513476870590 0.440453827051 0.515577057002 -0.149505531854 -0.369556737616
3.979555555000 -0.120185960991 -0.231668359664 0.450118890173 0.512609998286 0.442195768266 0.514851145440 -0.151207553197 -0.368041513611
3.979977777000 -0.120088353115 -0.232043620598 0.450933713608 0.512720902115 0.442537259248 0.515097476980 -0.152134320544 -0.367230108581
3.980400000000 -0.119964424395 -0.231848637365 0.451921671889 0.512492402487 0.442998686280 0.514823209975 -0.153347818335 -0.366211701752
3.980822222000 -0.120257894768 -0.232030836807 0.451978366447 0.512433875851 0.443513220036 0.514060452641 -0.153716694413 -0.365340895725
3.981244444000 -0.120445858595 -0.232024792048 0.453006658523 0.511339086481 0.445269517608 0.513941432566 -0.155774496688 -0.364328853601
3.981666666000 -0.119701879365 -0.233397898008 0.454475601244 0.511487959716 0.446480697232 0.514723329332 -0.158558266872 -0.363380153294
3.982088888000 -0.119490049603 -0.232496873678 0.454155120129 0.510615103476 0.446777537166 0.514120015367 -0.157813655044 -0.361740872296
3.982511111000 -0.119551466659 -0.232732185035 0.455033442107 0.510419182795 0.447487267059 0.513541021004 -0.159169503863 -0.361294611786
3.982933333000 -0.119380092083 -0.233106948945 0.455667651652 0.509942104171 0.447972176081 0.514079943318 -0.159623049428 -0.360265571763
3.983355555000 -0.119601154929 -0.232909520452 0.456671289139 0.509497153594 0.448828373311 0.513448943450 -0.161450651444 -0.358874521019
3.983777777000 -0.118969581697 -0.233775326540 0.457739494142 0.509671254643 0.450074022669 0.513667283212 -0.162198231598 -0.358595280266
3.984200000000 -0.118624415140 -0.232529137896 0.458769828989 0.509546530384 0.450046291688 0.513251042210 -0.164509879706 -0.358876050795
3.984622222000 -0.119410000693 -0.233646107242 0.458967405827 0.509127746362 0.452005377078 0.512464120267 -0.165406316827 -0.356010630850
3.985044444000 -0.119572880924 -0.234239734393 0.460158807504 0.508543557301 0.453261444792 0.511863945003 -0.167052803032 -0.355049981836
3.985466666000 -0.118655534199 -0.233830874361 0.460333663467 0.508294043316 0.453457647462 0.512238367874 -0.166885330900 -0.354238160684
3.985888888000 -0.118358838771 -0.234371430416 0.460716448431 0.507897017008 0.454580711627 0.512268579456 -0.168226901803 -0.353026040796
3.986311111000 -0.118466417685 -0.235553979140 0.462383100457 0.507382294119 0.456600735855 0.512420154729 -0.170488924606 -0.351957011715
3.986733333000 -0.119204702024 -0.234968942601 0.462583536256 0.506287595779 0.457090084264 0.510662114544 -0.171078337689 -0.348180950307
3.987155555000 -0.118905042550 -0.236528797128 0.463662170983 0.506527526423 0.458196541776 0.512123583117 -0.173486983043 -0.349911218652
3.987577777000 -0.118433921674 -0.235980756764 0.464783583222 0.506283597648 0.458600541691 0.511633215863 -0.174108788035 -0.347685330564
3.988000000000 -0.118423965271 -0.236498027896 0.465564564233 0.506031643616 0.459574674779 0.511563424974 -0.175140907661 -0.347667192608
3.988422222000 -0.118101003702 -0.236061483117 0.466095608779 0.505376522739 0.459762234666 0.510721067739 -0.176203950217 -0.345641154898
3.988844444000 -0.118359994142 -0.237505197865 0.466821601648 0.505128059619 0.461736064564 0.510722246406 -0.177491693955 -0.344651740920
3.989266666000 -0.118022845569 -0.237968219640 0.468277894754 0.504565333938 0.462581910607 0.511291732837 -0.179416590570 -0.344790091937
3.989688888000 -0.118348400555 -0.237442044557 0.468791603884 0.504769760494 0.463408958004 0.509355591562 -0.180165948691 -0.343005435608
3.990111111000 -0.116927617500 -0.237675553989 0.469377654127 0.504700531827 0.463935004327 0.511584399311 -0.180638937170 -0.343187727795
3.990533333000 -0.117579371483 -0.237945209521 0.469854692847 0.503887606936 0.464836962097 0.509961147613 -0.181435842235 -0.341333878931
3.990955555000 -0.118140682720 -0.237877789885 0.470690864203 0.503378264622 0.465444265956 0.508982252922 -0.182684905951 -0.339665532245
3.991377777000 -0.118250871017 -0.239262047216 0.471964722478 0.502848823893 0.467486423370 0.509293761511 -0.185383761082 -0.338342766029
3.991800000000 -0.116328851300 -0.239431334926 0.472966786720 0.502918883104 0.467383632257 0.510168017235 -0.187086397234 -0.337379220214
3.992222222000 -0.117903825653 -0.239060811134 0.473328630788 0.502080942254 0.468089045408 0.508760840232 -0.185780530656 -0.335596617631
3.992644444000 -0.117895110314 -0.239716923216 0.473249905004 0.501377433193 0.470229808711 0.508055445217 -0.187646551101 -0.334168947752
3.993066666000 -0.118092956842 -0.239413691883 0.473726099243 0.501211165870 0.471028509759 0.507355398106 -0.188325598219 -0.332916403142
3.993488888000 -0.117516266566 -0.240233144829 0.475166411514 0.501144850872 0.471747596687 0.507896821966 -0.188881598174 -0.332778539373
3.993911111000 -0.118165081451 -0.240824860422 0.476015002878 0.500735686034 0.473330625980 0.506865295437 -0.190622797073 -0.330939783926
3.994333333000 -0.117922905618 -0.241266371449 0.477772220489 0.499460777225 0.474533863040 0.507837028871 -0.192217237358 -0.330064393636
3.994755555000 -0.118372777345 -0.240950515082 0.478163350059 0.499707286040 0.473928065725 0.506145461139 -0.193103465752 -0.328519998791
3.995177777000 -0.118282233138 -0.241567114037 0.478554157424 0.498656312138 0.476245783970 0.505962367147 -0.195035082633 -0.326076651664
3.995600000000 -0.118191096257 -0.241920397811 0.478874176761 0.498843475195 0.476398762594 0.505022422550 -0.194761975834 -0.325345702149
3.996022222000 -0.117332588990 -0.242535447923 0.480172523043 0.498507289232 0.477609150838 0.506304876142 -0.196260668221 -0.324533063071
3.996444444000 -0.117974674561 -0.241715158965 0.480954849099 0.498059833012 0.477483382073 0.504557549288 -0.196484214488 -0.322342118701
3.996866666000 -0.118054213722 -0.241964890774 0.481254013716 0.498255663744 0.477908970101 0.503505123168 -0.197937881524 -0.321678534892
3.997288888000 -0.118824974103 -0.243150602786 0.482323006056 0.497080565448 0.481373294086 0.503119395120 -0.200075347823 -0.319902418702
3.997711111000 -0.117657666917 -0.243241433498 0.483347040949 0.496976982916 0.481353682731 0.503813104789 -0.200805362171 -0.318867523908
3.998133333000 -0.118004700301 -0.243367271326 0.484172443771 0.496226000491 0.481780606701 0.502285716843 -0.201670034515 -0.317172708518
3.998555555000 -0.117876543288 -0.243466464024 0.484773262334 0.496429429348 0.482773560512 0.502758163201 -0.201959132001 -0.316204628719
3.998977777000 -0.117998445043 -0.243860572950 0.485269906410 0.495698199569 0.483703135195 0.502449600272 -0.203307358367 -0.314845762328
3.999400000000 -0.116957120893 -0.245006407189 0.486124117274 0.494994232861 0.486619441193 0.502508738258 -0.204857588280 -0.313273850810
3.999822222000 -0.118609416253 -0.245052679232 0.487127247590 0.495105206270 0.486910793614 0.502278141552 -0.206341467054 -0.312736517067
4.000244444000 -0.117361753405 -0.244796043621 0.489183547108 0.494787558279 0.485150563345 0.502129079561 -0.207594303882 -0.311471333837
4.000666666000 -0.118422028250 -0.245820704143 0.488733984420 0.494875558288 0.488708054710 0.500640923832 -0.207663698811 -0.310115810982
4.001088888000 -0.118789782505 -0.244983222660 0.490087707480 0.492790163847 0.488242094700 0.499545584882 -0.209483168359 -0.307335863734
4.001511111000 -0.118745361947 -0.245676247412 0.490681750066 0.493442176230 0.490251583621 0.499169412516 -0.209525333735 -0.307640515858
4.001933333000 -0.119237851390 -0.246015110786 0.491983457802 0.493239529005 0.491274010009 0.497176238553 -0.210904275368 -0.304816206916
4.002355555000 -0.118880614767 -0.245933237752 0.491839741144 0.492878716911 0.491297515558 0.499377331527 -0.211403657834 -0.304126657057
4.002777777000 -0.118651200755 -0.246067939039 0.493156253762 0.491709457464 0.491443436516 0.498212234993 -0.211053897911 -0.302523350829
4.003200000000 -0.119248652505 -0.246648527483 0.493476769728 0.491483605642 0.493829615661 0.497938931990 -0.213182751116 -0.301177946069
4.003622222000 -0.119053003439 -0.247474038793 0.495462002133 0.491491321534 0.495922564622 0.497676883314 -0.214699586286 -0.299791752394
4.004044444000 -0.119293661103 -0.246531589815 0.496385864796 0.490015763977 0.494606821243 0.496305118542 -0.215594200639 -0.298028569679
4.004466666000 -0.118186519552 -0.246040902326 0.495029843138 0.487921289692 0.493826999482 0.497699864613 -0.214605247297 -0.295653486119
4.004888888000 -0.119526479261 -0.247930908804 0.497029885879 0.489135891316 0.497778691722 0.495706180363 -0.216750301257 -0.295144782757
4.005311111000 -0.120106299882 -0.248150400579 0.498617995015 0.488669225444 0.498480100706 0.494698114380 -0.218824877770 -0.293650245250
4.005733333000 -0.118916958893 -0.248835501175 0.498680395614 0.487946739903 0.498959710317 0.496719249002 -0.219103895109 -0.292888892660
4.006155555000 -0.119402408916 -0.249563973824 0.499059251361 0.488863918207 0.500640654561 0.494969787640 -0.219106254335 -0.291510990275
4.006577777000 -0.119617502499 -0.248280062824 0.499649375155 0.487433857952 0.500082791889 0.493601798267 -0.219464596095 -0.289297569405
4.007000000000 -0.119021050746 -0.248361817192 0.498712684817 0.486423959820 0.499480418394 0.496389914947 -0.220692377234 -0.288273851287
4.007422222000 -0.120482861326 -0.248242753453 0.501807716498 0.485286676576 0.502745099868 0.492183962714 -0.222237979979 -0.286171885866
4.007844444000 -0.120371310092 -0.249537932864 0.503005104386 0.485698575898 0.502964215578 0.492268407453 -0.222491535834 -0.284913097932
4.008266666000 -0.121442709584 -0.249712026118 0.502853908096 0.485106188922 0.505750463415 0.491492253208 -0.224231826415 -0.283103132309
4.008688888000 -0.120480707310 -0.249919327304 0.504585287688 0.484973954370 0.506399948089 0.490919061351 -0.224644211759 -0.281290590564
4.009111111000 -0.121527785170 -0.250295006317 0.504340468194 0.486235278749 0.507488138884 0.490152928929 -0.225444634154 -0.281103662293
4.009533333000 -0.120047604048 -0.249391020963 0.504489280963 0.484639995669 0.506727771536 0.489872686408 -0.225033228276 -0.278765955315
