# GHZ S RI R 50.000000000000
3.950000000000 -0.029667246552 0.009620634955 0.373083356351 0.912833873224 0.368392086052 0.908036433870 -0.043260870842 0.010359991374
3.950422222000 -0.030668460975 0.009895724690 0.376305724578 0.911637406443 0.368779316469 0.908024314292 -0.043035440517 0.010303099346
3.950844444000 -0.031533757304 0.010199105768 0.374002852741 0.912118670540 0.370663478931 0.905750826134 -0.042306316445 0.010922335375
3.951266666000 -0.030835333168 0.010585303748 0.374240263483 0.913457685367 0.371724086132 0.905216585229 -0.042768539481 0.010381394619
3.951688888000 -0.031136734913 0.011504133900 0.376204830128 0.912067199511 0.374339598059 0.907441693219 -0.042421534389 0.011120171398
3.952111111000 -0.032003097572 0.011529354582 0.373053069155 0.911866246087 0.375364203783 0.905892104839 -0.042545930358 0.011516161531
3.952533333000 -0.031848223353 0.011063292875 0.378565811231 0.910928955478 0.376095190331 0.905382647798 -0.042297376556 0.011183321715
3.952955555000 -0.031294867460 0.012217065735 0.377707790026 0.910596030558 0.378707760863 0.905647018396 -0.042292490449 0.011893212000
3.953377777000 -0.031830091064 0.012414110880 0.378564068382 0.911967765664 0.378502628811 0.904869031736 -0.042449919115 0.011730542914
3.953800000000 -0.030905978496 0.013685034631 0.380248345051 0.912544858175 0.377309808841 0.907440628588 -0.042114214487 0.011930680612
3.954222222000 -0.031719590303 0.013309991855 0.382007391250 0.910245290679 0.382029897826 0.906040349059 -0.041577050133 0.012205731786
3.954644444000 -0.032460608336 0.013401974293 0.381645607474 0.911661946639 0.381682029461 0.904315390107 -0.041991029984 0.011699084326
3.955066666000 -0.031187406399 0.013789559201 0.384091930845 0.909953211034 0.385174027075 0.904008123083 -0.040867745294 0.012868117102
3.955488888000 -0.031445069554 0.014606558335 0.386063832180 0.910391051565 0.384392573959 0.905776084010 -0.041275887086 0.012483447434
3.955911111000 -0.031473998043 0.013400776208 0.386187857638 0.908313681822 0.387362102292 0.902357352718 -0.041339860013 0.012189298837
3.956333333000 -0.031946016323 0.013834663996 0.386910833654 0.909448133882 0.388021012172 0.904456278706 -0.041193901185 0.012384695767
3.956755555000 -0.032139347822 0.015867340101 0.389529315394 0.911581429141 0.387946640549 0.903360781199 -0.040313593693 0.012938299641
3.957177777000 -0.031553113592 0.014895454516 0.391259349486 0.909706400675 0.388825279432 0.903648824551 -0.040478982058 0.012190224291
3.957600000000 -0.032155059397 0.015925923481 0.390930672885 0.910269160522 0.391433546217 0.903331642392 -0.040685929504 0.013244777835
3.958022222000 -0.031327390281 0.016821817300 0.393794557566 0.910060980359 0.393931339031 0.904540033210 -0.040813474463 0.014554254488
3.958444444000 -0.030556813054 0.016663181438 0.397301346688 0.908721621341 0.393980389117 0.902583213854 -0.039218113381 0.012834908222
3.958866666000 -0.031373384157 0.016793023645 0.396507519481 0.907746225988 0.395749312075 0.903386523918 -0.040290382196 0.013423025780
3.959288888000 -0.031425092282 0.017109674918 0.398190823070 0.909303788431 0.396855668887 0.902665870667 -0.039471963963 0.013443528649
3.959711111000 -0.030325265105 0.016639054065 0.402273359540 0.908754840654 0.399096845270 0.902139530643 -0.038718502077 0.013001719588
3.960133333000 -0.030800435861 0.017393081329 0.401936632638 0.908064476896 0.399856227539 0.902155670106 -0.039091058300 0.013741112894
3.960555555000 -0.030071614793 0.018334109785 0.403178592925 0.908066012322 0.401117950363 0.901734073062 -0.037969233627 0.012804797088
3.960977777000 -0.030436413635 0.018415884753 0.404883695471 0.908236816125 0.402262941685 0.902700491146 -0.038939403547 0.013359441348
3.961400000000 -0.030278963965 0.019361416871 0.405427421620 0.908739616066 0.402725578711 0.901360759246 -0.037627789889 0.013703781892
3.961822222000 -0.030211598849 0.018929291701 0.407917735546 0.906289639634 0.405355766895 0.900730392106 -0.037893698576 0.013619966285
3.962244444000 -0.030043987650 0.018919048961 0.408262039047 0.907726399312 0.406447592729 0.901530579941 -0.038058340504 0.013841865627
3.962666666000 -0.029812551171 0.019493528217 0.412405105512 0.906370063700 0.407811906754 0.900853613579 -0.037941746863 0.013489025091
3.963088888000 -0.029589683052 0.019866800576 0.412509164077 0.905838134163 0.409496106582 0.900508968835 -0.037290603684 0.013488988122
3.963511111000 -0.029314928147 0.020444089965 0.414342187033 0.906778796277 0.411052246852 0.901887317776 -0.037650076759 0.014350112052
3.963933333000 -0.029445873348 0.020449289230 0.417431324548 0.906646504236 0.413010452159 0.900700356868 -0.036741512679 0.014384570008
3.964355555000 -0.029218227891 0.020604634144 0.416649524659 0.905382056699 0.413645318422 0.899584307357 -0.036554235063 0.013676450484
3.964777777000 -0.028853901921 0.020098805854 0.418720391640 0.905107150805 0.414677487122 0.899939892703 -0.038267480541 0.012781155695
3.965200000000 -0.028852777885 0.020904889525 0.420154425148 0.904847269073 0.417546107678 0.899864621566 -0.036602455389 0.014029002286
3.965622222000 -0.027954505126 0.020982019225 0.423292911356 0.903828315532 0.418677245424 0.898907860376 -0.035409794986 0.013203914709
3.966044444000 -0.027973701154 0.020994795573 0.424106457245 0.903513880126 0.420292586918 0.899247324815 -0.036555636653 0.013283145280
3.966466666000 -0.028270616935 0.021971404991 0.425340438078 0.903239997896 0.421392559263 0.896938415903 -0.035451576754 0.014460595492
3.966888888000 -0.027858504007 0.021715493247 0.426870723109 0.902011026476 0.423179501729 0.898210430752 -0.035247002443 0.013822918607
3.967311111000 -0.027559412966 0.022005983385 0.429603394570 0.901955941571 0.425320353106 0.898159265438 -0.035770909091 0.013185342076
3.967733333000 -0.027309100822 0.022203969165 0.430098530833 0.901420559205 0.425986526133 0.896970099183 -0.035351175377 0.013463755286
3.968155555000 -0.026522226526 0.023491007648 0.433057449027 0.901179231724 0.427463957469 0.898128935637 -0.034231000776 0.013558902466
3.968577777000 -0.026372332715 0.023914253021 0.434666539902 0.901811977599 0.428952719698 0.898034844434 -0.033801608832 0.013891052842
3.969000000000 -0.028194100834 0.024815630916 0.429315288416 0.907384587883 0.425362561825 0.897913683492 -0.034468765685 0.013240727547
3.969422222000 -0.026640982535 0.023335849287 0.436699159638 0.899619754581 0.432243935031 0.897622380858 -0.034512901264 0.013242663532
3.969844444000 -0.025795259599 0.024073643197 0.439715384874 0.900471473288 0.433879207796 0.896117729323 -0.033578416953 0.013675694660
3.970266666000 -0.025275569859 0.024267765005 0.440708449310 0.900402636620 0.435501909320 0.896179075767 -0.032881617876 0.013390149653
3.970688888000 -0.024926573982 0.023146336052 0.443036822312 0.897180264320 0.437909905990 0.894519316996 -0.033805025285 0.012516299269
3.971111111000 -0.024619460619 0.024788582040 0.443646969839 0.898186791594 0.438304183419 0.896010669961 -0.032584788101 0.013226340525
3.971533333000 -0.024097483371 0.024440755738 0.444877588630 0.896957519865 0.440727118529 0.894509505397 -0.032544995326 0.013429516255
3.971955555000 -0.023927872837 0.024660755918 0.447848353030 0.896893584801 0.441826744528 0.894395277281 -0.032687190580 0.012576015973
3.972377777000 -0.024160952578 0.024195341420 0.448612500359 0.896060700940 0.443393287227 0.893547880899 -0.033482687109 0.012693865166
3.972800000000 -0.023489512877 0.025463032800 0.450752427334 0.897028219610 0.444664501256 0.893454183248 -0.031987148598 0.012850669798
3.973222222000 -0.022913498532 0.024796525916 0.451492926647 0.895402054039 0.446336110939 0.892628018948 -0.031811784494 0.011258639962
3.973644444000 -0.022240730476 0.024958075575 0.455698065621 0.894914458323 0.449129635048 0.893094367419 -0.031940383435 0.011633002797
3.974066666000 -0.023188047431 0.025009979608 0.454982818306 0.893070768052 0.449279597072 0.891808602241 -0.032073959673 0.012199181838
3.974488888000 -0.022908197340 0.025396668641 0.457494697044 0.894180148548 0.450711702849 0.891364499991 -0.032402770208 0.011671428412
3.974911111000 -0.021368364100 0.025078377624 0.460733939136 0.891815287564 0.454094769640 0.890687350907 -0.031005092489 0.011465581229
3.975333333000 -0.021332676496 0.025553021768 0.461564332124 0.891540815705 0.455016999401 0.890179385304 -0.031318346283 0.012379570109
3.975755555000 -0.020917588177 0.025638725348 0.463095178503 0.891985548427 0.456076577013 0.891281800659 -0.031991551292 0.011043957892
3.976177777000 -0.020447120891 0.026044326609 0.465572554378 0.891138034788 0.458264537936 0.889686798882 -0.030247331875 0.011850847093
3.976600000000 -0.020856614646 0.024785831269 0.465151584433 0.887883801399 0.460580365915 0.890063810392 -0.030759543037 0.013125702148
3.977022222000 -0.019548512105 0.026052987351 0.468585147693 0.889812722114 0.460955643934 0.889085035108 -0.029690262773 0.010570122284
3.977444444000 -0.019253580999 0.026247936378 0.471619662461 0.889154844826 0.463863414284 0.888024530697 -0.029944926579 0.010555521656
3.977866666000 -0.019573444945 0.025767963860 0.469907762225 0.888026992443 0.464805075248 0.887434322435 -0.030222715248 0.011413099716
3.978288888000 -0.019755725204 0.025876080852 0.470614073503 0.886506700096 0.464998718699 0.886807941417 -0.029906476678 0.010453668102
3.978711111000 -0.018615599967 0.025857303966 0.474967211150 0.886804797978 0.468234873913 0.886302828678 -0.030180806730 0.010105979920
3.979133333000 -0.018131679649 0.026149124353 0.475553363071 0.887323643013 0.468933820503 0.886533371152 -0.029431129757 0.008673640427
3.979555555000 -0.017904156560 0.025208355805 0.477033782224 0.884411289235 0.471910983040 0.885162814657 -0.030719389310 0.009319923703
3.979977777000 -0.017203140805 0.025843985761 0.479645486973 0.884463292146 0.473063513156 0.885367253223 -0.029792683112 0.008561895652
3.980400000000 -0.017417782235 0.025611792680 0.480491639472 0.883808671922 0.473943517954 0.884423284702 -0.029589543826 0.009121750396
3.980822222000 -0.016918564263 0.025840970548 0.482702647468 0.883071671265 0.475581545990 0.882696837988 -0.029051860228 0.008976653088
3.981244444000 -0.016809274324 0.025777439092 0.485206928397 0.881717393616 0.478227227091 0.882445117097 -0.029798830960 0.009562629876
3.981666666000 -0.016868332975 0.025018244654 0.484885333698 0.881288930675 0.479494887568 0.882703426519 -0.029863682152 0.008242244257
3.982088888000 -0.015781137600 0.025749922130 0.487524467412 0.879113503832 0.480773263734 0.881550145955 -0.028682472894 0.009089341711
3.982511111000 -0.015622249692 0.026111943606 0.489295562377 0.879496224364 0.482049709844 0.880458102548 -0.028712533318 0.008095785569
3.982933333000 -0.014874795372 0.026055674954 0.490887794413 0.878260067747 0.483200501179 0.880695589423 -0.028760292844 0.007920033271
3.983355555000 -0.015511434611 0.025412771369 0.491050607679 0.876263631905 0.484683446694 0.879368851730 -0.029241058142 0.008504933047
3.983777777000 -0.014386437217 0.024926260787 0.493327085013 0.875695839727 0.486915516486 0.878921288363 -0.027752390359 0.007081965304
3.984200000000 -0.013741293281 0.026267925359 0.496278695285 0.876532885996 0.487183940574 0.878867262985 -0.028663372970 0.007213412760
3.984622222000 -0.013866608211 0.025204977888 0.497014238585 0.873988186659 0.490527313645 0.876477762232 -0.028730231877 0.007085187773
3.985044444000 -0.014093429775 0.024984124832 0.498579679905 0.874007536618 0.492789025808 0.875268433940 -0.029182243885 0.007325569886
3.985466666000 -0.013145358347 0.025229397152 0.499141272668 0.871920935661 0.493118987364 0.875171368993 -0.027993215736 0.006840614445
3.985888888000 -0.013104277012 0.025044930683 0.499861549655 0.871465175998 0.494838270999 0.874940341825 -0.027311868957 0.006866527184
3.986311111000 -0.011984511051 0.024204187014 0.504017953583 0.870216121467 0.498320346584 0.874468753663 -0.028156220436 0.005798453247
3.986733333000 -0.012732300453 0.025533971027 0.504882363997 0.870288438310 0.500317963601 0.871633215543 -0.027895400488 0.008165645425
3.987155555000 -0.011859081020 0.024598396154 0.507132085686 0.868784280356 0.500681100036 0.873707500335 -0.028913578914 0.005442492715
3.987577777000 -0.011393311016 0.025038215927 0.508236989859 0.868424426714 0.502093966709 0.872671418539 -0.028492258719 0.006995708640
3.988000000000 -0.011844995875 0.024220151472 0.509213788138 0.867759425825 0.503434209556 0.871618737591 -0.028584196993 0.005416559930
3.988422222000 -0.011094023890 0.024687092364 0.511855365563 0.865637185525 0.503994959520 0.869997804308 -0.028051082882 0.005919344042
3.988844444000 -0.010724619663 0.024023665145 0.513822917288 0.865510342285 0.506774873768 0.869555114192 -0.028440122597 0.005371251768
3.989266666000 -0.009781694591 0.023430660296 0.516240220265 0.863230634304 0.507662221988 0.870191657843 -0.029035054288 0.004452122607
3.989688888000 -0.011217291764 0.023304259963 0.515609388792 0.864145416885 0.510273985874 0.866358956451 -0.028622702835 0.004066336631
3.990111111000 -0.009210499582 0.023556859257 0.517854996472 0.862913315257 0.510578429321 0.868887112650 -0.027612263842 0.004110811663
3.990533333000 -0.009814401364 0.023092137104 0.517753981620 0.861350353642 0.512525325510 0.867021509194 -0.027703593067 0.004023341794
3.990955555000 -0.009372695015 0.022883786392 0.520792266425 0.859559448183 0.513780681166 0.864313293373 -0.028212114633 0.003865749258
3.991377777000 -0.009118167900 0.022432005968 0.523427342822 0.858863101544 0.516899201944 0.864428727998 -0.029198311168 0.003348953252
3.991800000000 -0.007900666911 0.022607837975 0.524698498751 0.857661089130 0.516418846403 0.866471120768 -0.028886055014 0.003743108679
3.992222222000 -0.008987835247 0.022155076887 0.524877109703 0.857247402416 0.519061112680 0.862701760121 -0.027823159372 0.003959692831
3.992644444000 -0.008452184109 0.022156363326 0.525886598855 0.855603774425 0.521232064627 0.862234192799 -0.028923512091 0.003849491591
3.993066666000 -0.008323820917 0.022031297643 0.526703556668 0.854312676012 0.522561478030 0.861253101435 -0.028395021664 0.004464900700
3.993488888000 -0.007786756065 0.021182492508 0.529214021858 0.853526426263 0.523281563134 0.860307242360 -0.028089636972 0.002975768075
3.993911111000 -0.008471204338 0.020708272957 0.529916522120 0.852557922085 0.526179824189 0.858475602084 -0.028918678594 0.002852044695
3.994333333000 -0.007278587539 0.020634685464 0.533939299457 0.850700811367 0.528032517698 0.858655302611 -0.029037609530 0.002542830068
3.994755555000 -0.008033477087 0.021123204451 0.534736276889 0.850653500408 0.527928124586 0.856335608033 -0.029183242720 0.001968561228
3.995177777000 -0.007966898280 0.020226024652 0.534767177084 0.848483463584 0.531766671468 0.856065120147 -0.029809392983 0.002814512288
3.995600000000 -0.007815933208 0.020594447228 0.535743949369 0.849032758939 0.532254490828 0.854384759101 -0.028787499042 0.002537236606
3.996022222000 -0.006797058307 0.020295250567 0.538193606668 0.847301276215 0.532474671063 0.855361406762 -0.028838362143 0.001775131959
3.996444444000 -0.007269120422 0.020271389346 0.539156428776 0.846720853605 0.534753435326 0.851530064098 -0.028647207483 0.002374750294
3.996866666000 -0.007477907093 0.020323861753 0.540093590065 0.846065551974 0.534744747108 0.851139377927 -0.028629627668 0.002086853190
3.997288888000 -0.007204852807 0.019454764600 0.542078796220 0.843513428203 0.538894324483 0.850214013014 -0.030089305039 0.002095568662
3.997711111000 -0.006399320990 0.019861068380 0.544050683932 0.843639673268 0.539181707924 0.849988221742 -0.029529012772 0.002029108262
3.998133333000 -0.006823982423 0.019108684798 0.545433597883 0.841731751231 0.539818939564 0.847098711727 -0.029432631857 0.001942220225
3.998555555000 -0.005854935056 0.018620647908 0.546428212837 0.841155999043 0.542744753173 0.848213657221 -0.029067639209 0.001861573973
3.998977777000 -0.006029191195 0.018609750335 0.547315354972 0.839725486781 0.543251059883 0.846872849315 -0.029609736291 0.001825530966
3.999400000000 -0.006284925693 0.020180848007 0.549258332734 0.839341879931 0.543973859676 0.847265835748 -0.030538284336 0.002407059483
3.999822222000 -0.006425440758 0.017992484551 0.549987096759 0.838076170833 0.548237925127 0.845525311228 -0.030508284563 0.000794263743
4.000244444000 -0.005061484311 0.018786497993 0.553914309502 0.838087816442 0.547456078635 0.845127775546 -0.029659983228 0.000901665694
4.000666666000 -0.005888121999 0.017417974466 0.552753361600 0.836815241656 0.551151327438 0.842519385834 -0.029970364993 0.000853157901
4.001088888000 -0.006234122335 0.017559060983 0.554871913446 0.833743937136 0.551895799763 0.840354214181 -0.030997468017 0.001238209531
4.001511111000 -0.006380809139 0.017249079713 0.556120283778 0.833791286672 0.552292224425 0.839660019957 -0.030319994738 0.000240831624
4.001933333000 -0.006481248311 0.017140545497 0.557831281505 0.833519729240 0.554804853194 0.836671379444 -0.030327284800 0.001298083941
4.002355555000 -0.005898961865 0.017931329023 0.557742140256 0.832626468676 0.554575185860 0.839254172891 -0.030991111255 0.001061341754
4.002777777000 -0.005529029875 0.016844457522 0.560127270801 0.830432934744 0.555512219986 0.836367755496 -0.029859405457 0.000811744687
4.003200000000 -0.005491583336 0.016412454204 0.560818092689 0.829738643337 0.559748015556 0.837009121841 -0.030167328370 0.001003749434
4.003622222000 -0.005184487349 0.016415800052 0.563702121517 0.829201950563 0.561610900161 0.835474014673 -0.030750779757 0.000772034200
4.004044444000 -0.006107684827 0.016731305414 0.564975378967 0.827102078096 0.560463577857 0.831795274045 -0.031593609629 0.001037092502
4.004466666000 -0.005329931861 0.016567374393 0.564104923900 0.823217405706 0.558946576854 0.833798870676 -0.030250367633 0.001767860990
4.004888888000 -0.006211310819 0.015208153187 0.566528302781 0.824007247993 0.564407916343 0.831595989266 -0.030951135895 0.000407809195
4.005311111000 -0.006606686490 0.015260415872 0.568614740909 0.822982131979 0.566288314912 0.829152278271 -0.032189883136 0.000230797824
4.005733333000 -0.005666462109 0.015526392358 0.569055563825 0.821755714928 0.565188434830 0.832261138671 -0.031710175830 0.000300495818
4.006155555000 -0.005780980967 0.014865913607 0.569049504907 0.822235407950 0.568219742326 0.830051295829 -0.031010737277 0.000029344255
4.006577777000 -0.006090124509 0.014832145941 0.570676817939 0.819592203493 0.568079052586 0.826365155676 -0.031383102259 0.000836233300
4.007000000000 -0.006554997495 0.012907717742 0.570027332599 0.818703863142 0.570043021428 0.825854098070 -0.030906678676 0.000456749345
4.007422222000 -0.006371036963 0.014902850652 0.574280265908 0.816153093130 0.571546614880 0.824504373530 -0.032464647842 0.000679520375
4.007844444000 -0.006529152951 0.013984950432 0.575938957243 0.815988538363 0.572099031914 0.822814979449 -0.031765706740 0.000499575398
4.008266666000 -0.006604410773 0.013572954118 0.575577263925 0.814745285675 0.577237576565 0.822950381778 -0.032846366258 0.000506631835
4.008688888000 -0.006633527764 0.014481338049 0.577809162999 0.814640510825 0.574684157562 0.820497123601 -0.032514094282 0.001162110264
4.009111111000 -0.006476985517 0.013927933314 0.576999449369 0.816007469847 0.579991046655 0.821045236166 -0.032587629318 0.000835342355
4.009533333000 -0.006908920384 0.014081188481 0.577987426224 0.813147886887 0.576297186335 0.817616864656 -0.031696806984 0.001432059931
4.009955555000 -0.006542429985 0.013851988026 0.580653559158 0.810957695114 0.577642921122 0.818260520569 -0.031710212135 0.001049784840
4.010377777000 -0.007053794647 0.013333878012 0.582501598167 0.810566989071 0.580832505151 0.817875629527 -0.032260446989 0.000865659056
