# GHZ S RI R 50.000000000000
3.950000000000 -0.041232357187 -0.007577019019 0.376491532851 0.898570195168 0.360171888346 0.897248011987 -0.032696411357 0.017991457046
3.950422222000 -0.042563609973 -0.009168050712 0.375164846344 0.894812858755 0.361003267992 0.895521848732 -0.034589480411 0.016518515406
3.950844444000 -0.041193757414 -0.010039194940 0.378676642095 0.892285843224 0.363791056338 0.893639527668 -0.033027282668 0.016763347406
3.951266666000 -0.042361625027 -0.009546687035 0.379848530926 0.896027367915 0.364060722554 0.894320349186 -0.034416096820 0.018257469222
3.951688888000 -0.042811540870 -0.009369187726 0.379720138159 0.892537169177 0.364452628193 0.894026609971 -0.034252174548 0.017847540664
3.952111111000 -0.042761858925 -0.008950760911 0.384489232523 0.894317031915 0.366237481072 0.894653086417 -0.033737984015 0.018924468950
3.952533333000 -0.043562208519 -0.008645720912 0.380224098255 0.893966900489 0.367566229964 0.892161525361 -0.033781371395 0.019098085315
3.952955555000 -0.043745497407 -0.008889220159 0.383177120454 0.892526140831 0.368255084256 0.893490189061 -0.034452608097 0.019004001717
3.953377777000 -0.043393723657 -0.009588655049 0.385254534806 0.892129810763 0.369095238712 0.891095099105 -0.034353099974 0.018591828532
3.953800000000 -0.041951245033 -0.008294898722 0.385989698358 0.889939477895 0.372633335272 0.892642116437 -0.032862508267 0.019108470539
3.954222222000 -0.044041174881 -0.008495562769 0.386604616773 0.893427267059 0.372122619896 0.891694902488 -0.033958974216 0.019749025033
3.954644444000 -0.043660769092 -0.007011520655 0.390399412824 0.893184348916 0.374339995550 0.892811909817 -0.033531883902 0.020851985660
3.955066666000 -0.043625709328 -0.007408034332 0.390185801363 0.891271183304 0.374721223475 0.891300054959 -0.033085982403 0.020044607301
3.955488888000 -0.044632585772 -0.007510401987 0.389541316520 0.890706214716 0.375346578466 0.890511547764 -0.033323823888 0.019619145546
3.955911111000 -0.045430685958 -0.006059051660 0.391004492983 0.894581145766 0.377435408292 0.891923483467 -0.034137703493 0.022345574418
3.956333333000 -0.045015320518 -0.006679612889 0.391590504999 0.892768642882 0.378955174964 0.890797600936 -0.033163896830 0.021369341551
3.956755555000 -0.044786551476 -0.006681981187 0.395363183718 0.889430130377 0.378915217667 0.890799804629 -0.033109995193 0.020952589135
3.957177777000 -0.044224171718 -0.006165081105 0.397747424441 0.889917885697 0.382299338879 0.892307144182 -0.033031877360 0.021560569189
3.957600000000 -0.044120217963 -0.004620939769 0.399520490183 0.893032304658 0.383538939379 0.891551828495 -0.032645433991 0.022829626809
3.958022222000 -0.044535252607 -0.006407422381 0.396446663618 0.889109496571 0.384904823437 0.889147148608 -0.032245290712 0.021336823654
3.958444444000 -0.044091254545 -0.005405368316 0.399487129985 0.890778973187 0.384862398584 0.890271904128 -0.032959458589 0.021349134341
3.958866666000 -0.045232541862 -0.006021068788 0.401436797938 0.890859486717 0.385515969014 0.889600856844 -0.032811581823 0.021691509436
3.959288888000 -0.045304909029 -0.004413197899 0.401030178598 0.890267021705 0.388343274091 0.890467473679 -0.032791925952 0.023697159177
3.959711111000 -0.044402395610 -0.003407129926 0.404807581124 0.890054130282 0.389137424259 0.892974699094 -0.032778772611 0.022502246237
3.960133333000 -0.044823446994 -0.003746419196 0.407198867452 0.890413955450 0.390100162630 0.890787429827 -0.031984501449 0.023664449455
3.960555555000 -0.043858576956 -0.003621474181 0.409114765845 0.886895707930 0.393005551384 0.889444935353 -0.031013929887 0.022081744751
3.960977777000 -0.044370843055 -0.003151573566 0.409223204458 0.888972040503 0.393870501164 0.888332622744 -0.031172046799 0.022885463667
3.961400000000 -0.042238242269 -0.001912543872 0.419914966274 0.889751300119 0.395642029544 0.892912721441 -0.031438090972 0.023979716043
3.961822222000 -0.044833486142 -0.002993225787 0.412960851857 0.888235527675 0.394597837967 0.887867587502 -0.031277865291 0.023545698730
3.962244444000 -0.044706421593 -0.002435407253 0.413974240310 0.887595630237 0.397258433210 0.889022489127 -0.030936706064 0.023544773739
3.962666666000 -0.044673832849 -0.001592684138 0.415922075290 0.887155541571 0.398140436788 0.887426129964 -0.030672229952 0.024395896952
3.963088888000 -0.044170557802 -0.001671989263 0.416441671871 0.888227179846 0.399772534298 0.887977710830 -0.030780258500 0.023953565844
3.963511111000 -0.043993789572 -0.001390897168 0.419984817201 0.887260163839 0.401978689479 0.888220114614 -0.031015687020 0.024060298315
3.963933333000 -0.044106933601 -0.000873911945 0.422546077460 0.885854115269 0.404567788298 0.887991014386 -0.029982054863 0.024609236106
3.964355555000 -0.043503485629 -0.000520325047 0.423760838140 0.887336721975 0.405239874014 0.889099295334 -0.030431181708 0.024982472834
3.964777777000 -0.042876250744 -0.001115793468 0.423927436425 0.883273823326 0.408328303714 0.888091095998 -0.029499974995 0.024056329741
3.965200000000 -0.043283359976 -0.000371267859 0.426223810795 0.886046908615 0.407899911401 0.887882621948 -0.030303789184 0.023978628968
3.965622222000 -0.042789229081 0.000463956542 0.429238742390 0.885704274821 0.409787134773 0.887223024544 -0.029952057421 0.024951080218
3.966044444000 -0.043074346200 0.000524368404 0.428435635401 0.883869376842 0.410354976994 0.886784017046 -0.029208085173 0.025104029847
3.966466666000 -0.042357592207 0.000532313296 0.431021910274 0.885515764702 0.411347970972 0.886237394797 -0.029846683880 0.023522205040
3.966888888000 -0.043155640091 0.000870583434 0.433547001970 0.885213185013 0.413955744560 0.886906754966 -0.029379813313 0.025079301658
3.967311111000 -0.042622786385 0.001621986964 0.435587998791 0.884073941368 0.414754886995 0.885782984068 -0.028676293300 0.025258039630
3.967733333000 -0.042837469260 0.001868909832 0.437185918740 0.884778123695 0.417170802395 0.885705029587 -0.028738964905 0.025379250844
3.968155555000 -0.043333022796 0.000983382499 0.436282570587 0.882964310730 0.418485423624 0.883923753572 -0.029331815198 0.024874295204
3.968577777000 -0.041948953833 0.001566013647 0.440086091447 0.881392942497 0.419790233268 0.884572665430 -0.028627851432 0.024854828560
3.969000000000 -0.043421113088 -0.000649440552 0.436822205762 0.875985458648 0.423959829039 0.880167468252 -0.029356453419 0.025399376598
3.969422222000 -0.042916939145 0.001992748151 0.441172989527 0.879788125328 0.422860048828 0.882680785528 -0.028432596008 0.025157305396
3.969844444000 -0.040719284878 0.002440619739 0.445159898780 0.880632636266 0.424172791866 0.885192578795 -0.027643898049 0.025332113241
3.970266666000 -0.041672544421 0.002624930453 0.445937046954 0.880188274963 0.427991525753 0.882262114798 -0.027271035081 0.025026943497
3.970688888000 -0.041254553781 0.002318551971 0.446859247713 0.878138770808 0.428092068382 0.882071085863 -0.027590531562 0.024540048270
3.971111111000 -0.040225312089 0.003111803581 0.450196263559 0.879707860130 0.430048982928 0.883733491587 -0.027428838014 0.024606482310
3.971533333000 -0.040737416518 0.003296827751 0.450741182963 0.877977270982 0.430944632629 0.880416423288 -0.027256938993 0.024853688880
3.971955555000 -0.040815897245 0.003429759719 0.451398670672 0.878798548304 0.432551937797 0.882603416562 -0.027758007833 0.024507459563
3.972377777000 -0.040443523370 0.004258109436 0.453488979397 0.877731246217 0.434083176242 0.880980536145 -0.026705831128 0.025419427218
3.972800000000 -0.039827132604 0.003186528379 0.456014019493 0.876087660303 0.434567047852 0.881223445686 -0.027038436789 0.024248954953
3.973222222000 -0.040157150453 0.003838671390 0.455660967662 0.875475286612 0.436785624630 0.879501565586 -0.026163770175 0.024521109310
3.973644444000 -0.039748294806 0.004221854656 0.458918756841 0.875365108840 0.439201506854 0.880202311392 -0.026744698031 0.024994447816
3.974066666000 -0.040219296579 0.004596842991 0.461350302973 0.875274390670 0.440770541450 0.877126484724 -0.026449162829 0.025341234114
3.974488888000 -0.038520902854 0.004545929582 0.463062939618 0.873536437115 0.442043713582 0.879805796353 -0.025806841957 0.024480155048
3.974911111000 -0.038742448178 0.004661173625 0.463462313519 0.874018293107 0.443714958125 0.879273979453 -0.025959917705 0.025366620860
3.975333333000 -0.039523630044 0.004379096778 0.464284818746 0.871564805128 0.444494976400 0.876638826625 -0.026677614163 0.024580861198
3.975755555000 -0.038837590011 0.004548425551 0.465900511564 0.872812234769 0.447961630477 0.877764092213 -0.026811175079 0.024842971442
3.976177777000 -0.038114867654 0.005519030514 0.468388822287 0.872320657214 0.447300729096 0.876853408902 -0.025265557082 0.024844366053
3.976600000000 -0.039075142581 0.005066319691 0.466745962578 0.870595760729 0.449472604689 0.873733504229 -0.024424711016 0.024221300502
3.977022222000 -0.037555440118 0.004974540207 0.471348672816 0.870581487049 0.451527671077 0.876432508619 -0.025841197756 0.023412618435
3.977444444000 -0.037123681267 0.005672193578 0.473655189711 0.869109210163 0.451698885724 0.874594352370 -0.024735684474 0.023628269170
3.977866666000 -0.036693705070 0.005529939563 0.476025492440 0.869104856187 0.454427472857 0.876868240737 -0.025920047313 0.023445553121
3.978288888000 -0.036695955050 0.005246283613 0.477343851957 0.867265992433 0.456223192038 0.873866245871 -0.024797639948 0.023933724677
3.978711111000 -0.036104616878 0.005672424445 0.479443667330 0.866593152184 0.457570826233 0.873091879079 -0.024623948101 0.023923295284
3.979133333000 -0.035555461517 0.005326431777 0.480268316526 0.865713577580 0.459650183788 0.873326795984 -0.024577861320 0.022635184091
3.979555555000 -0.035388663424 0.005277599034 0.481656383180 0.864853704680 0.462254872863 0.874272605761 -0.024946102361 0.023341463485
3.979977777000 -0.036137067527 0.005278323287 0.481798557254 0.863914336950 0.462897678645 0.870479618388 -0.024650090043 0.022962097748
3.980400000000 -0.034543789328 0.005837165270 0.485264675470 0.863434815906 0.463709763945 0.872584792406 -0.024340961519 0.022437359120
3.980822222000 -0.034897238262 0.005540854699 0.487181478543 0.863684300277 0.466540161945 0.871468594814 -0.024976355419 0.022048482232
3.981244444000 -0.034333083523 0.005188709088 0.488570064512 0.861336026569 0.468319966218 0.871671825120 -0.024309175539 0.022886082613
3.981666666000 -0.035800284939 0.005341676819 0.488582250502 0.859497098314 0.471271276140 0.867553915053 -0.025301041912 0.023711689217
3.982088888000 -0.034942035801 0.005498445247 0.489971172953 0.859342634940 0.470871690466 0.867487750773 -0.024466931695 0.022513764322
3.982511111000 -0.033342800745 0.005507547303 0.492362058011 0.859336195128 0.472685950477 0.870197242510 -0.024426293633 0.022023254103
3.982933333000 -0.033736561502 0.005069930036 0.494263405912 0.859396851650 0.475070329186 0.868692572466 -0.024183368865 0.021289204331
3.983355555000 -0.034072094259 0.005612253664 0.494976666009 0.857134259396 0.476316562979 0.865775511796 -0.024673376460 0.022133654691
3.983777777000 -0.034122545380 0.005363187215 0.497697106116 0.855715462831 0.478593524194 0.866614407197 -0.024993748225 0.022062036208
3.984200000000 -0.032885130978 0.006200865316 0.501710657412 0.856252410114 0.481100121646 0.864346707098 -0.024470689283 0.021437034859
3.984622222000 -0.033245733474 0.005185722908 0.499326985275 0.854394686289 0.480579265113 0.863539426743 -0.024261768535 0.021356157688
3.985044444000 -0.033321333282 0.005516048405 0.502121156498 0.853146918306 0.481909926406 0.862534846300 -0.025337591208 0.021528461034
3.985466666000 -0.031888337358 0.005860349881 0.504026208594 0.853123038664 0.482713491199 0.863493891000 -0.024174300028 0.020816292755
3.985888888000 -0.032906932523 0.004808798872 0.504247407115 0.850463539688 0.486942127049 0.861140671737 -0.025028621889 0.021542880258
3.986311111000 -0.032140482848 0.005864045369 0.506276882568 0.851905347619 0.485871225016 0.860661268050 -0.024521312097 0.020203791001
3.986733333000 -0.032141681725 0.004055759783 0.508232029962 0.847737423272 0.491668629191 0.859050139931 -0.025360877252 0.020207535367
3.987155555000 -0.032294177824 0.005876697611 0.509115630725 0.848800261744 0.488922162213 0.859229583532 -0.024761736328 0.020562372043
3.987577777000 -0.030812190483 0.006144873210 0.511765761318 0.849037174259 0.492065777417 0.860681039683 -0.025422401309 0.020924001467
3.988000000000 -0.031626844202 0.004484049347 0.513101562573 0.847920031709 0.495309119721 0.859512970808 -0.025843540530 0.019332231612
3.988422222000 -0.030584346172 0.005079463163 0.513443738010 0.847176085368 0.494801344674 0.858905065023 -0.024592044034 0.019750679286
3.988844444000 -0.030924150727 0.005191614165 0.515141078201 0.845753848904 0.497141873859 0.856823199621 -0.024828553376 0.019792204264
3.989266666000 -0.029641186920 0.004579931171 0.520748336190 0.843667009784 0.499689148286 0.858030303415 -0.025818324501 0.018321336449
3.989688888000 -0.030609248310 0.004340184066 0.519406393974 0.841867265045 0.500668858945 0.855842629846 -0.025983906923 0.019387664340
3.990111111000 -0.029676432748 0.004965067204 0.520869684668 0.842023119817 0.500614052445 0.855005140863 -0.024698108786 0.019362238672
3.990533333000 -0.029775441655 0.004827893342 0.522310400647 0.842091779322 0.502880366139 0.854585949744 -0.025219859858 0.018776347399
3.990955555000 -0.030097060575 0.003904813850 0.524232441232 0.839942218970 0.506983718245 0.852607075433 -0.026700935487 0.018519464632
3.991377777000 -0.029650411028 0.004168061101 0.526138817343 0.838899526915 0.506867369322 0.853026238860 -0.026595228541 0.018420224043
3.991800000000 -0.029655476558 0.003925689677 0.527419731335 0.837213953969 0.508121172769 0.850769100346 -0.026351062235 0.018381942916
3.992222222000 -0.029833668121 0.004361759355 0.526585758940 0.837797136172 0.507568310613 0.850272317195 -0.025773392558 0.018836183120
3.992644444000 -0.029978663393 0.004462669103 0.529482166645 0.835381475265 0.509719984835 0.846773910303 -0.026843841389 0.019216610045
3.993066666000 -0.029018825299 0.003681592695 0.531341446697 0.834698681524 0.512474614856 0.848671441368 -0.026553725402 0.018353749313
3.993488888000 -0.029403672380 0.003577151740 0.532223702504 0.832883413909 0.515280414835 0.846365753627 -0.027523519998 0.018732120094
3.993911111000 -0.028608361461 0.004295586845 0.532861429997 0.834102725102 0.514360841981 0.846438854749 -0.026206040279 0.018594754246
3.994333333000 -0.028078556644 0.002475454691 0.536497701278 0.831611514252 0.517167871401 0.848667099225 -0.026996980412 0.015835765171
3.994755555000 -0.029294090636 0.003526854835 0.534840175263 0.830420661816 0.518255029549 0.844186632513 -0.027074444691 0.018169318750
3.995177777000 -0.028220885717 0.003068205503 0.537975254199 0.830609629477 0.519239122246 0.846068304486 -0.026962819999 0.017066451434
3.995600000000 -0.028576254352 0.003029159876 0.539243452159 0.828999505397 0.522225467485 0.843382968013 -0.027834057580 0.017024700654
3.996022222000 -0.029246071546 0.002672432575 0.538095913483 0.826940685183 0.523059342514 0.840533235252 -0.027538536381 0.017869184838
3.996444444000 -0.028019853161 0.003418487587 0.541823129128 0.827960981177 0.523392656440 0.842087312274 -0.027436826675 0.017355998215
3.996866666000 -0.029017182850 0.003226885010 0.541619655301 0.825964682567 0.524699470862 0.840962723449 -0.028425058761 0.017392853725
3.997288888000 -0.028297896485 0.003837252737 0.543686686597 0.825311671823 0.525360330508 0.838449022677 -0.027696363402 0.017585973339
3.997711111000 -0.028164414289 0.002035295369 0.545717150872 0.824251868694 0.529889376239 0.838208798083 -0.028438448546 0.016543489387
3.998133333000 -0.028297851632 0.002830620376 0.545334231406 0.822417501793 0.529728116111 0.836604397570 -0.028037383250 0.017288952556
3.998555555000 -0.028553387158 0.001990486149 0.548224573440 0.820895609971 0.534826977065 0.834047613724 -0.029607589241 0.016909469711
3.998977777000 -0.028205643338 0.002921123974 0.548001749467 0.820691420401 0.530965621245 0.834211781365 -0.028279580835 0.017495214242
3.999400000000 -0.029933204313 0.002707170745 0.554778754293 0.820705129700 0.535795951391 0.828300774349 -0.030437508768 0.016905341416
3.999822222000 -0.027848600386 0.002151221254 0.552470259729 0.818748927040 0.536103183645 0.832519923504 -0.028677102000 0.016381849829
4.000244444000 -0.028187751949 0.001888676056 0.552735839541 0.818351972748 0.537436986906 0.831071314487 -0.029237699277 0.016892311298
4.000666666000 -0.028392463485 0.001955159389 0.554655020756 0.816300476050 0.538300858056 0.830197243252 -0.029510346775 0.016336405990
4.001088888000 -0.027184087506 0.001625632217 0.555385196619 0.815575232392 0.540999236922 0.829711541684 -0.029015356565 0.016792903235
4.001511111000 -0.028248269001 0.001895391192 0.555652478928 0.814229980530 0.541894184419 0.829705159692 -0.030187578421 0.016803538739
4.001933333000 -0.027770381823 0.002576335260 0.557515271456 0.813799844169 0.542247893230 0.828860303919 -0.030220826689 0.016749001919
4.002355555000 -0.027575336484 0.002363028213 0.558470041184 0.811181215563 0.542688468728 0.828122675552 -0.029844494674 0.016889089553
4.002777777000 -0.028115299192 0.000871802051 0.561826353899 0.812494606585 0.548746580508 0.825543850797 -0.030522062784 0.015272332856
4.003200000000 -0.028170755113 0.002050537243 0.563174221679 0.810178961107 0.546910387235 0.824220889884 -0.031062789399 0.016202356257
4.003622222000 -0.027944826381 0.001933451402 0.563041108404 0.809524596868 0.548076768402 0.823667625745 -0.030950031929 0.017089193333
4.004044444000 -0.027699833192 0.001433039922 0.563525110949 0.808117362428 0.550397015254 0.823299256608 -0.030480728080 0.016831936367
4.004466666000 -0.028097253224 0.001757886998 0.564230036648 0.806902742092 0.550555577574 0.821299013431 -0.031441810361 0.017232506490
4.004888888000 -0.029016875442 0.001371562362 0.565725851052 0.806688299330 0.552048029957 0.820550108943 -0.031297068703 0.015898166026
4.005311111000 -0.028323161918 0.001504874018 0.566440499775 0.803799491324 0.552358486864 0.819106072609 -0.031227199489 0.016931850202
4.005733333000 -0.028579512934 0.000587667576 0.567534473738 0.803641288856 0.556168575681 0.817415667123 -0.031338990756 0.016464370108
4.006155555000 -0.027931776271 0.001659879548 0.568275267846 0.802210419874 0.555547587350 0.819402415239 -0.031964009027 0.017179088412
4.006577777000 -0.028314901506 0.000700126633 0.571392857386 0.800946251691 0.558537786160 0.817163629369 -0.032081893553 0.016440645719
4.007000000000 -0.025354786033 0.002320499395 0.577109293681 0.802077314040 0.563955952028 0.816812194879 -0.032737195954 0.017609897658
4.007422222000 -0.028017557261 0.000912951972 0.572568206086 0.799235980950 0.560614694299 0.814632928657 -0.031983977203 0.017223428272
4.007844444000 -0.029373955041 0.000760963227 0.573435139936 0.798448214324 0.560793945265 0.812960189649 -0.032076962260 0.016355766625
4.008266666000 -0.028782977167 0.000944474920 0.576246165277 0.795386864618 0.561554079256 0.810786480394 -0.032741928955 0.017379214360
4.008688888000 -0.028871350766 0.000754930934 0.575351577016 0.794989531646 0.564503353854 0.809602910308 -0.032769717847 0.017249777958
4.009111111000 -0.029600864991 0.000285330468 0.577002364776 0.795501891014 0.567337010186 0.806760097381 -0.033154846151 0.016650145825
4.009533333000 -0.028487624470 0.000758444901 0.578835084260 0.791562620720 0.565800116158 0.808988042398 -0.032903290167 0.017537116069
4.009955555000 -0.030275763791 0.000643745120 0.579233970370 0.790219456892 0.566788593301 0.801999904188 -0.034147744499 0.018023104089
4.010377777000 -0.029246127123 0.000942042594 0.580661969455 0.791567295963 0.569375373604 0.806051782664 -0.033877218102 0.017428998365
