# GHZ S RI R 50.000000000000
3.950000000000 0.220737288271 -0.405102697620 0.794684874519 0.340829677279 0.785963638296 0.338486661017 0.127006762390 -0.421719268342
3.950422222000 0.217722399221 -0.405159013663 0.795422472819 0.339995704953 0.785417387654 0.338494213785 0.124412567523 -0.422556364925
3.950844444000 0.217618516851 -0.407147082318 0.795553488681 0.340103131088 0.784761118368 0.338061404021 0.122674662334 -0.421246350634
3.951266666000 0.214985224990 -0.407901473777 0.796514285562 0.335242613136 0.784951542052 0.336411483871 0.120152450459 -0.421868236362
3.951688888000 0.214222538446 -0.407336066839 0.795881983978 0.334864227988 0.784776083477 0.336546777794 0.119294639668 -0.421025063698
3.952111111000 0.213564400652 -0.408850752713 0.798474072449 0.332801592985 0.785731022881 0.335391326181 0.118344180324 -0.421775482736
3.952533333000 0.211658345184 -0.407209649120 0.795839113487 0.332378503683 0.785204042013 0.335229050273 0.117793034931 -0.421427608621
3.952955555000 0.210736057244 -0.407766950134 0.796538345120 0.330249777739 0.786498716479 0.333747836250 0.116650950214 -0.421785909869
3.953377777000 0.211409994032 -0.408963629109 0.799448532569 0.329702186105 0.786856562546 0.332795420272 0.115856542753 -0.422174709744
3.953800000000 0.212279028146 -0.407993649860 0.797832142899 0.330382047371 0.786711244299 0.331790846190 0.116013483806 -0.422871028567
3.954222222000 0.209817158222 -0.408914375764 0.800111592590 0.328479304634 0.787909270991 0.331078359573 0.115114014348 -0.422240118518
3.954644444000 0.209822516657 -0.409954842409 0.803484741283 0.325861146160 0.788194279539 0.329804248995 0.115379632928 -0.422800830640
3.955066666000 0.209887331577 -0.408910099001 0.801636128999 0.324923822337 0.789150809419 0.329634170310 0.113961531396 -0.422409288192
3.955488888000 0.208627685720 -0.410137740722 0.803262134184 0.323850472448 0.790478253366 0.328048755049 0.114218034706 -0.423419367317
3.955911111000 0.207381769294 -0.410381662598 0.805274296514 0.323073990818 0.791012232948 0.326598298125 0.113745510823 -0.422707389075
3.956333333000 0.207649069263 -0.411179587846 0.805857435958 0.322007384841 0.792880878647 0.325569362798 0.113043342817 -0.422855019435
3.956755555000 0.206966727240 -0.409273843347 0.805400735568 0.320441108892 0.791769394528 0.325685544837 0.112409916977 -0.424133796233
3.957177777000 0.207374219914 -0.411599829079 0.807046011837 0.320251708199 0.793943363883 0.323314590865 0.112763106048 -0.423684112731
3.957600000000 0.207061149858 -0.410686683925 0.807147267157 0.318164661133 0.793813751054 0.322976905919 0.110501223862 -0.423409938259
3.958022222000 0.206171702762 -0.411562866628 0.807133574773 0.317628800590 0.794720479866 0.321668708165 0.110885987732 -0.423338729974
3.958444444000 0.207138394441 -0.411753914453 0.809284809681 0.316655689094 0.795367928135 0.321418945080 0.109440656223 -0.424772343788
3.958866666000 0.204547566040 -0.412584316886 0.809347503875 0.316879265873 0.796838201960 0.320127288084 0.111321651428 -0.423617421375
3.959288888000 0.205452153997 -0.411361320166 0.810688055393 0.315361926576 0.796864291128 0.319065692808 0.110520993976 -0.424763951982
3.959711111000 0.205066568348 -0.412119660158 0.811179062767 0.312291975736 0.798045917226 0.318915456417 0.108798139772 -0.425245321053
3.960133333000 0.203529413504 -0.412197674309 0.811659539986 0.311229462118 0.798069190928 0.317179831224 0.108803217092 -0.425131925216
3.960555555000 0.204368970048 -0.412262669248 0.812945643481 0.311425125433 0.798405594924 0.316311531294 0.107798988614 -0.425700027792
3.960977777000 0.203573681080 -0.411666310726 0.813642990599 0.309547011503 0.799172000180 0.314698068665 0.106866297898 -0.426376876628
3.961400000000 0.203013697639 -0.413222147921 0.815099691215 0.308036004573 0.799342745056 0.314157438795 0.106323671055 -0.426425724967
3.961822222000 0.202711472778 -0.412530579584 0.814731664733 0.307324089927 0.800081970436 0.313680761362 0.106042973631 -0.425146362735
3.962244444000 0.202403384772 -0.412671162142 0.815312514710 0.307780306817 0.802508030088 0.311839421605 0.106959116659 -0.426207973692
3.962666666000 0.201565121963 -0.413164383809 0.816675025861 0.305397198803 0.801357748847 0.310978806809 0.106051126546 -0.426425840282
3.963088888000 0.202138653014 -0.414163982500 0.818024281120 0.303733643805 0.802491108812 0.309879893369 0.103515469449 -0.426759075958
3.963511111000 0.200960856917 -0.414643692525 0.818700436588 0.303061987173 0.803823309708 0.307634689620 0.103294709416 -0.426902785985
3.963933333000 0.200353781860 -0.414155525877 0.819301124829 0.300305206500 0.804150669134 0.306824035476 0.101956766080 -0.426948634067
3.964355555000 0.200597035826 -0.415509832687 0.820071996314 0.299700011415 0.805128162178 0.306542854464 0.101678948058 -0.427801187349
3.964777777000 0.200084376341 -0.415694589413 0.820099454010 0.299198784170 0.806519384660 0.305546509261 0.102276712649 -0.427996320741
3.965200000000 0.200560062699 -0.416505522161 0.821330263018 0.298315741661 0.806897113671 0.304195343503 0.100262829250 -0.427574060056
3.965622222000 0.198718796822 -0.414722489301 0.821602502154 0.296385549787 0.806973043095 0.303120911487 0.100783811779 -0.428780229892
3.966044444000 0.198948937392 -0.415524706353 0.822444939976 0.294008128840 0.807515782418 0.302617890761 0.099948125218 -0.428657170604
3.966466666000 0.198988032087 -0.416193894173 0.823390499519 0.293147840562 0.808122430653 0.302144037340 0.098181342057 -0.428405057075
3.966888888000 0.197337037790 -0.417990297378 0.824211833348 0.292135148782 0.809660656005 0.299496851084 0.098112124668 -0.428052713247
3.967311111000 0.197918857266 -0.416722874095 0.825384730436 0.291124648609 0.808854883507 0.298234970361 0.097067747502 -0.429351463011
3.967733333000 0.196665654749 -0.417933286943 0.825910794322 0.289170308095 0.810655205624 0.297352859436 0.096905440056 -0.428662242502
3.968155555000 0.195977740775 -0.418351655417 0.826708971183 0.288698797835 0.811516706835 0.295203898451 0.096009580048 -0.429583222260
3.968577777000 0.195880375393 -0.417997963328 0.827528842721 0.286825266264 0.811380631831 0.296073932842 0.096332778304 -0.429397329340
3.969000000000 0.194917429964 -0.418487656466 0.828108414689 0.286312256142 0.813425631949 0.292071034306 0.094363097575 -0.430658273143
3.969422222000 0.194466985909 -0.418367517476 0.828384131352 0.283530865051 0.813161700371 0.292795689862 0.094677141035 -0.429803349516
3.969844444000 0.195050501643 -0.419513849095 0.829393276333 0.282495646455 0.813541889117 0.293905194976 0.093749177762 -0.430367241503
3.970266666000 0.193528540368 -0.419580916280 0.829938683295 0.281547787906 0.814787396138 0.289495799524 0.092273332992 -0.430947084684
3.970688888000 0.193293433729 -0.420379445260 0.829953241278 0.280289549195 0.815694938396 0.288947826581 0.092503840048 -0.430807900013
3.971111111000 0.193538901905 -0.420842579824 0.831036932046 0.279057572855 0.816444006452 0.289085902061 0.091410114658 -0.431252560458
3.971533333000 0.192554097100 -0.419921455760 0.831562428402 0.278048405927 0.815638343317 0.286617040372 0.091263184724 -0.431307297325
3.971955555000 0.191594294381 -0.421434519260 0.832356635024 0.276041113656 0.817580915212 0.286571071529 0.089677271538 -0.431685853339
3.972377777000 0.190999567218 -0.420648348396 0.832587814303 0.274568727644 0.817529095251 0.284890698231 0.090301941090 -0.431920257696
3.972800000000 0.191540560057 -0.422230902238 0.833552723840 0.274047789371 0.818637007135 0.284775341677 0.088930994317 -0.432433030667
3.973222222000 0.190421276161 -0.421858724886 0.834346246542 0.272295689950 0.818222456474 0.283328207631 0.088018993558 -0.432016071027
3.973644444000 0.189718420215 -0.422738447697 0.834751593129 0.271033382780 0.820082224555 0.280966944166 0.086877799297 -0.432861810857
3.974066666000 0.187690274973 -0.421919633997 0.835859184639 0.269653936228 0.818583112086 0.278728270646 0.085979364314 -0.431838775591
3.974488888000 0.189980297404 -0.423436932631 0.836107223521 0.268439742674 0.821495790461 0.279478603996 0.085664081723 -0.434142854380
3.974911111000 0.188851978503 -0.424331748949 0.836454929363 0.266831401687 0.822708767042 0.278768841009 0.085568583223 -0.433291778582
3.975333333000 0.187700627644 -0.423454154689 0.837539909254 0.265708389702 0.821992475457 0.276495926043 0.084400440444 -0.433281116803
3.975755555000 0.186806020321 -0.425302662073 0.838224973787 0.263965312451 0.823695748038 0.276064258109 0.083491687137 -0.432820169772
3.976177777000 0.187497820195 -0.424101772660 0.837990998621 0.263320772257 0.822727536158 0.275856827829 0.083629942537 -0.433239236110
3.976600000000 0.186411091387 -0.424645438010 0.839158750853 0.262153268722 0.821409930676 0.272436150685 0.080954122051 -0.432655403025
3.977022222000 0.186300124144 -0.426027737801 0.839484437905 0.260512573197 0.825345755497 0.273112261689 0.081527312207 -0.434531530637
3.977444444000 0.185971479471 -0.424602543022 0.840060279136 0.259636309410 0.824637333541 0.271269760833 0.081367672443 -0.435723530753
3.977866666000 0.186327578804 -0.426714154174 0.840886566637 0.257658706500 0.827317792454 0.271806947467 0.079885769801 -0.435555311409
3.978288888000 0.184291597927 -0.426275974517 0.841454541949 0.256332986262 0.826063734419 0.269493184274 0.079621393055 -0.434854538093
3.978711111000 0.184198201292 -0.426490720464 0.841881844926 0.254927616145 0.825919761580 0.268134491704 0.078454328650 -0.434923563147
3.979133333000 0.183570104208 -0.428133247518 0.842727736499 0.253760610308 0.827444489988 0.268689075759 0.078729220906 -0.434391790609
3.979555555000 0.183213166859 -0.429229970134 0.842803934424 0.252409047905 0.830076678891 0.265396261369 0.076206780953 -0.436436914587
3.979977777000 0.181793851428 -0.428097996581 0.843170430129 0.251476960134 0.828799170293 0.263453581664 0.076445596045 -0.435651854177
3.980400000000 0.182473885749 -0.428442548226 0.844150889995 0.250224070175 0.828810744593 0.264750609152 0.075639032343 -0.436072684413
3.980822222000 0.181402045138 -0.429833657918 0.844919222201 0.249060188658 0.830702384154 0.262078197693 0.074058791313 -0.436671583309
3.981244444000 0.181121814593 -0.430418900082 0.845317748193 0.247367640410 0.831156371090 0.262078265734 0.073864138469 -0.436030806384
3.981666666000 0.178391462131 -0.430052103617 0.845378793110 0.245182328315 0.831161033589 0.258474311193 0.072801442678 -0.433891695290
3.982088888000 0.179210726060 -0.429610691237 0.845930437601 0.244667190170 0.831429082022 0.258751234389 0.072957962423 -0.435906963072
3.982511111000 0.180087520858 -0.431389862546 0.846791743334 0.243216965348 0.833699947515 0.258567269697 0.071610321153 -0.437827179171
3.982933333000 0.178166425455 -0.431725702022 0.847773076713 0.242351101853 0.832479595806 0.257195109747 0.070389684387 -0.436692315984
3.983355555000 0.177116697046 -0.430884162028 0.847588174932 0.240518246296 0.833112671016 0.254034087313 0.069520571401 -0.436769743759
3.983777777000 0.176466314296 -0.432672502590 0.848450704972 0.238096823586 0.836173071568 0.253877656746 0.069070025574 -0.437356053812
3.984200000000 0.175411417633 -0.430526853483 0.848686687621 0.237842135864 0.834827560276 0.254033979087 0.069485416198 -0.436434905733
3.984622222000 0.175729057859 -0.431867686988 0.849259523201 0.237047913195 0.833903573224 0.252231419592 0.068587258093 -0.436401707251
3.985044444000 0.174467416949 -0.432558056305 0.849705029273 0.235448014812 0.833954734614 0.249459789999 0.066597071314 -0.435667837869
3.985466666000 0.175543412088 -0.433437525181 0.850266072304 0.234266698252 0.835574189336 0.249822588307 0.066743575015 -0.437876197985
3.985888888000 0.172554998331 -0.433898641027 0.850146275814 0.232333765098 0.836392609806 0.246782457082 0.065146057930 -0.436225772101
3.986311111000 0.173815194358 -0.433711832535 0.851551634505 0.231544760691 0.837046900390 0.247269153968 0.065542806259 -0.438224707322
3.986733333000 0.170593699416 -0.434846408319 0.851727939644 0.229896514753 0.837148680690 0.244702126527 0.063430163630 -0.435629537887
3.987155555000 0.171961567467 -0.434016851179 0.851952325354 0.228093229432 0.837511956398 0.244735132904 0.063792942526 -0.437530596675
3.987577777000 0.172402565816 -0.436263501436 0.853006953269 0.227721417855 0.839162531039 0.243518991706 0.062434789042 -0.437374972807
3.988000000000 0.171134078501 -0.436746108976 0.854148127047 0.225719494334 0.841562003900 0.243865035999 0.061920150643 -0.438629702069
3.988422222000 0.171120770929 -0.437197843818 0.854012353160 0.224770172211 0.841184259015 0.241889893226 0.062246976538 -0.439088384800
3.988844444000 0.168735450660 -0.436230262712 0.853344137284 0.223872491290 0.840022347406 0.238920347894 0.060417518663 -0.437990881357
3.989266666000 0.169301232184 -0.438052850024 0.855160019310 0.220974373893 0.843800405467 0.240536975718 0.058888669022 -0.439606977549
3.989688888000 0.167515406165 -0.438121233603 0.854958473749 0.220022964967 0.842355461121 0.237718487161 0.058624181767 -0.437470136683
3.990111111000 0.168237243603 -0.438289294129 0.855437440359 0.219196822350 0.842203707235 0.236924469468 0.058632532630 -0.438121624129
3.990533333000 0.166592416932 -0.438434220337 0.856132887593 0.217768851973 0.842410674183 0.235264530121 0.057477382268 -0.438772278782
3.990955555000 0.165134831732 -0.439674270324 0.857365724746 0.216233194644 0.843942746369 0.232992215599 0.055695205717 -0.437945458927
3.991377777000 0.165215217882 -0.439665318386 0.857792183911 0.214747876919 0.844444368625 0.233053332758 0.055102963925 -0.438605818919
3.991800000000 0.163743674443 -0.440768845741 0.857197632335 0.212255603726 0.846042941590 0.229759636557 0.053956764285 -0.439071840939
3.992222222000 0.164463285882 -0.439000359516 0.857936396994 0.213265108293 0.843860570553 0.231158949841 0.055425259091 -0.438587720273
3.992644444000 0.162458083357 -0.438926399654 0.857591009459 0.210636634296 0.843403288762 0.227928721207 0.053180540533 -0.437037791044
3.993066666000 0.162194178262 -0.441447273316 0.858221787874 0.209221490027 0.846539623696 0.227111396856 0.051879676708 -0.438411639495
3.993488888000 0.159473319584 -0.441442929563 0.858119131173 0.207307234371 0.847012747733 0.223062588324 0.050177621652 -0.437955774355
3.993911111000 0.161314656492 -0.441186538404 0.859902147309 0.207734881786 0.846318523173 0.225992590785 0.052787145657 -0.438381429584
3.994333333000 0.160724708534 -0.444116358373 0.861022401174 0.205563100124 0.849795997300 0.225830365548 0.050056068401 -0.439810639534
3.994755555000 0.158802970975 -0.441570095008 0.859103949819 0.204716931941 0.846963447949 0.222285365016 0.050227787298 -0.437112561385
3.995177777000 0.159142527274 -0.444134239266 0.861113935176 0.202263997336 0.850778489871 0.222918428351 0.049765623760 -0.440157987450
3.995600000000 0.157516961131 -0.444056756162 0.861013266938 0.201331589532 0.850463639421 0.219318350547 0.047324734778 -0.438906118488
3.996022222000 0.155275632971 -0.442396005993 0.860213143812 0.200304217716 0.849413229747 0.217087908115 0.048130954980 -0.438219078655
3.996444444000 0.156781181644 -0.443782747715 0.862070218439 0.198699075408 0.850694506397 0.217887124104 0.046956560778 -0.439847808575
3.996866666000 0.155705551816 -0.444366302512 0.862488915764 0.197350755720 0.852397035223 0.216123516879 0.046390163404 -0.439737350555
3.997288888000 0.155522075885 -0.443762299517 0.862838001653 0.196119558025 0.850686865969 0.216236777453 0.046464140266 -0.438545073533
3.997711111000 0.153651835015 -0.445912530024 0.864009123368 0.194355990921 0.854402723296 0.212470138054 0.043864191493 -0.440639873176
3.998133333000 0.152945772626 -0.444707728635 0.862705683842 0.193935002364 0.852158017615 0.211444338437 0.044352895325 -0.438198039096
3.998555555000 0.150599930840 -0.445983172219 0.863440471044 0.192625877319 0.854212908306 0.208189350018 0.041808883170 -0.438169366976
3.998977777000 0.151654475777 -0.444213624697 0.863849055905 0.192226878244 0.850444919080 0.209452070933 0.043366449961 -0.437531622630
3.999400000000 0.147552266371 -0.445900606966 0.866428807663 0.187125674879 0.851071970266 0.205477031065 0.039918664654 -0.436678431107
3.999822222000 0.149267533451 -0.446894293031 0.865692449268 0.187999023824 0.854756944813 0.205693760007 0.040323541537 -0.439256852642
4.000244444000 0.148539531612 -0.447606580980 0.865351683319 0.187729312379 0.855862942214 0.205432776157 0.040773608758 -0.438600351483
4.000666666000 0.147429209133 -0.447292787206 0.866577017262 0.184528846255 0.854323991589 0.202778950722 0.038384665359 -0.438005651265
4.001088888000 0.146886449130 -0.448514554785 0.865536589721 0.184965826692 0.857233686913 0.202066535445 0.039235527675 -0.438540176699
4.001511111000 0.146434307310 -0.448430625949 0.865970522771 0.183407447858 0.856603932426 0.200506345580 0.037326781429 -0.437516481396
4.001933333000 0.147029330578 -0.447913806279 0.866912467668 0.182046907906 0.857492570835 0.202670456989 0.038673542394 -0.438718682892
4.002355555000 0.144834440293 -0.448388204017 0.865543767869 0.179834291636 0.855942260296 0.199304030423 0.037007390221 -0.436843245931
4.002777777000 0.142629139539 -0.449688696926 0.870176137461 0.177592519733 0.859007150560 0.195415370402 0.033913768162 -0.440047284841
4.003200000000 0.142675747686 -0.449222498241 0.868731047517 0.175562020266 0.857888480884 0.195249785994 0.033462228037 -0.438229850908
4.003622222000 0.142225742968 -0.450473518669 0.868985204043 0.177117839420 0.859934693661 0.192816884795 0.033534318805 -0.438684886129
4.004044444000 0.140779347385 -0.450500733482 0.868604469230 0.174653768022 0.859631936206 0.193035882622 0.033905101034 -0.438309805335
4.004466666000 0.141537462726 -0.450159226812 0.868699393681 0.174024498201 0.860526147783 0.193275695441 0.033732031196 -0.438150441405
4.004888888000 0.139627305958 -0.450389035865 0.869039516705 0.172499725520 0.861280698795 0.190218003224 0.031929570333 -0.438854015870
4.005311111000 0.139504693843 -0.450359359501 0.868850849760 0.169672350118 0.858964162393 0.191498765748 0.032447058810 -0.436442309097
4.005733333000 0.137003410693 -0.451277092210 0.869264473109 0.169697352857 0.862304750777 0.187308553222 0.031329066924 -0.438426872074
4.006155555000 0.138381631791 -0.450923214596 0.869390325558 0.167079490147 0.860685216101 0.188912977447 0.030637898921 -0.437057000382
4.006577777000 0.135675558212 -0.451086616141 0.870096183216 0.164193904842 0.862554402039 0.185167583334 0.028370491561 -0.438348527824
4.007000000000 0.132953521190 -0.451919266038 0.878556665728 0.162353979514 0.860952024945 0.176463494521 0.023042054372 -0.439592115724
4.007422222000 0.133907681296 -0.452402858509 0.870319023018 0.163568412667 0.863728415825 0.182006725270 0.028101250181 -0.437603765240
4.007844444000 0.133263427363 -0.452759415947 0.872151124026 0.163250083568 0.865560685153 0.179834408103 0.026773609138 -0.439055126183
4.008266666000 0.131831103595 -0.452665675510 0.870963283862 0.159418232230 0.864512552173 0.179448304867 0.026213277536 -0.437285243322
4.008688888000 0.131196887510 -0.451801686293 0.870167545734 0.159486669813 0.862766169285 0.178249343753 0.026419253428 -0.435973087246
4.009111111000 0.129598756080 -0.452774512153 0.872567301400 0.159327320778 0.864724512758 0.174881998574 0.025111453582 -0.437085507317
4.009533333000 0.129470409118 -0.452748267447 0.872436167159 0.155631588847 0.864286757783 0.174144296761 0.023186278988 -0.436897547060
4.009955555000 0.127418662816 -0.452857898221 0.871491054149 0.154147647914 0.866497460981 0.171929526052 0.022993140515 -0.436443890140
4.010377777000 0.127940555852 -0.453447029716 0.872511933924 0.152918593448 0.867131205630 0.174614628271 0.023998961581 -0.437679271085
