# GHZ S RI R 50.000000000000
3.950000000000 -0.041373651454 -0.002383917804 0.373338238907 0.902204427238 0.357321366558 0.900427395741 -0.037482110300 0.018445432342
3.950422222000 -0.041975905951 -0.002953249687 0.374378489465 0.901708394072 0.361132797183 0.900538359184 -0.038782264510 0.019029804130
3.950844444000 -0.042409904241 -0.004122658814 0.372109529898 0.899510278262 0.357865703770 0.899011708138 -0.039783993831 0.017668324491
3.951266666000 -0.042822136391 -0.004674509080 0.374376343415 0.899138743641 0.360566839791 0.896751253927 -0.039746851425 0.018149022846
3.951688888000 -0.042771391636 -0.003340170787 0.377714757473 0.899956691661 0.361484861840 0.899196197220 -0.039324296294 0.019467669067
3.952111111000 -0.043641916713 -0.003627123598 0.377512408043 0.897599540718 0.362297261337 0.899327232454 -0.040053759820 0.019109698639
3.952533333000 -0.043844171080 -0.003222249669 0.377505076264 0.898228921959 0.363271225265 0.897187934179 -0.039308530982 0.019346604534
3.952955555000 -0.044036711278 -0.003367497375 0.379027085558 0.897099884745 0.364985136526 0.898280857922 -0.040101771361 0.019753406141
3.953377777000 -0.043619189479 -0.003315210930 0.381597187869 0.896898715604 0.366695321149 0.898538269222 -0.040324619999 0.019877198625
3.953800000000 -0.042959031303 -0.002672884526 0.378884565054 0.899347458655 0.365795652085 0.895267981339 -0.039026127480 0.019434613072
3.954222222000 -0.044466962108 -0.002816047525 0.380934210498 0.898932405144 0.368173740781 0.896572710563 -0.039873356031 0.020181557424
3.954644444000 -0.043728206958 -0.002398922454 0.386086923942 0.896220690108 0.369952525227 0.894556558784 -0.038360891826 0.020138911766
3.955066666000 -0.044179130586 -0.001581062727 0.385762124484 0.896416879692 0.369751204773 0.897541396619 -0.039297202085 0.020559995515
3.955488888000 -0.044165376553 -0.001393195321 0.386616827706 0.897776264653 0.372445806024 0.895542549988 -0.038322234785 0.020876799982
3.955911111000 -0.044980073031 -0.001128155177 0.389384693673 0.897129887162 0.373633627028 0.896040791627 -0.038834116141 0.021901214411
3.956333333000 -0.044101187216 -0.001070506374 0.390154551838 0.896641722347 0.377413856009 0.896177495487 -0.038021887560 0.022254913453
3.956755555000 -0.044713805523 -0.000461678799 0.391032600780 0.897774290784 0.375240327330 0.895749983730 -0.038754924886 0.022101770689
3.957177777000 -0.043984095050 -0.001178234826 0.393623429047 0.894623177080 0.378521331177 0.894583669160 -0.037736729479 0.021198733589
3.957600000000 -0.044550612240 0.000572204714 0.393845767269 0.896833974422 0.379282420141 0.895699456951 -0.038384548905 0.022434796105
3.958022222000 -0.044817200469 -0.000490694889 0.391126665665 0.895993060082 0.380625981783 0.894348239046 -0.038264807149 0.021960328311
3.958444444000 -0.043448825573 0.000272373367 0.396439254400 0.896155455055 0.381747987336 0.895135148033 -0.038201183995 0.021842055660
3.958866666000 -0.044646462762 -0.001097729885 0.396299797517 0.892249348345 0.383609545388 0.893681547266 -0.038090650360 0.021764641992
3.959288888000 -0.044508536546 0.000857393024 0.400365776188 0.894670925328 0.384305524690 0.894588445002 -0.037233649977 0.023180323654
3.959711111000 -0.043914557365 0.001522254528 0.400623719877 0.895412369041 0.385402803444 0.894675626994 -0.036961993877 0.022319575855
3.960133333000 -0.044561158412 0.001360410757 0.401914565324 0.893779728758 0.387152886591 0.894608177797 -0.037406231507 0.023536534324
3.960555555000 -0.043379569385 0.002409799281 0.405108766672 0.894280224170 0.389205888850 0.894592629152 -0.036525525589 0.022882182394
3.960977777000 -0.043532813816 0.002556625876 0.407080325418 0.894467407064 0.390424104767 0.893571413382 -0.036295189653 0.023133630224
3.961400000000 -0.042852161916 0.001742813439 0.407222001121 0.890370178781 0.393143155249 0.893072114831 -0.037174637496 0.023380847858
3.961822222000 -0.044500115730 0.002843940827 0.407618915464 0.893438234590 0.391093525394 0.893644860980 -0.037180869894 0.024021501079
3.962244444000 -0.044098163694 0.003218910461 0.410070263629 0.893054179391 0.393682344594 0.893763520278 -0.036094196991 0.023651972950
3.962666666000 -0.044091866428 0.004476081618 0.412477164430 0.893570450111 0.394076626549 0.893824614710 -0.036387479258 0.024798815619
3.963088888000 -0.043524190325 0.003855838719 0.412786138329 0.893473446111 0.395925180270 0.892216883189 -0.035715538233 0.023597696606
3.963511111000 -0.043133635166 0.003832835020 0.415903820712 0.891228483725 0.399370007104 0.891913748229 -0.035758850220 0.024054267482
3.963933333000 -0.043972774010 0.004682636007 0.416642727645 0.891933588943 0.400621454323 0.892060173380 -0.035290227030 0.024649076421
3.964355555000 -0.043157543672 0.004545572013 0.418351694734 0.891689793517 0.400902239552 0.892786199121 -0.035647224615 0.024237959425
3.964777777000 -0.042760212589 0.004658901632 0.419279592955 0.890871021121 0.402746263488 0.892221984364 -0.034558965324 0.023668445564
3.965200000000 -0.042768191745 0.004670787488 0.420557504363 0.890710235558 0.404546259698 0.891547878573 -0.035247827262 0.023680298722
3.965622222000 -0.042638999210 0.005546469984 0.422682218115 0.889831998393 0.405673811905 0.891494891258 -0.035506959928 0.024601479206
3.966044444000 -0.042487249291 0.006469566848 0.424204453514 0.890581932562 0.406115518452 0.891875954742 -0.034415334749 0.024775516733
3.966466666000 -0.041336431808 0.005437635595 0.427117716615 0.887903480778 0.407848890888 0.891037951700 -0.035123859779 0.022832713087
3.966888888000 -0.042454491045 0.005854385550 0.428016031368 0.888646095770 0.410312124567 0.891323031507 -0.034895096199 0.024404917219
3.967311111000 -0.041736317852 0.006688196815 0.430486001341 0.888444079273 0.411477675506 0.890270399230 -0.034040295066 0.025029737685
3.967733333000 -0.042490760943 0.006516687347 0.429937024995 0.887785687898 0.413034071806 0.889561948418 -0.034420151170 0.024775584122
3.968155555000 -0.042208785784 0.006552358240 0.432786129886 0.888579107461 0.415010361969 0.888557874517 -0.034192113913 0.024708615338
3.968577777000 -0.041775574945 0.006734135365 0.433691296353 0.886776688060 0.415016862304 0.888756464904 -0.033954849795 0.024575488814
3.969000000000 -0.042593653244 0.006475744854 0.434846082295 0.885679935001 0.418827582427 0.887241582190 -0.034745690105 0.025207160149
3.969422222000 -0.041817567155 0.007853252541 0.437911151839 0.886267032929 0.418745398741 0.887967494169 -0.033272168807 0.024860444644
3.969844444000 -0.039910116459 0.007906841186 0.441187109288 0.885828327165 0.419193687268 0.890247910672 -0.032828942851 0.023996939655
3.970266666000 -0.040415430049 0.007651693581 0.441664944056 0.883965630003 0.424392450204 0.887431693657 -0.032725719976 0.024091367563
3.970688888000 -0.040187835816 0.008374015639 0.442527646216 0.885784963624 0.424843245508 0.887243665509 -0.032486193349 0.024633917353
3.971111111000 -0.039385912649 0.008225333684 0.445105528007 0.884367410170 0.425988085012 0.888028007201 -0.032401566131 0.023713870558
3.971533333000 -0.040096396868 0.008818189545 0.445406327181 0.883965180426 0.426228897281 0.885187265713 -0.032385182449 0.024142244513
3.971955555000 -0.039040961505 0.008363432475 0.448244152747 0.882673430159 0.429824252056 0.886803111379 -0.032179579010 0.023941675911
3.972377777000 -0.039096576360 0.009283499700 0.449400689321 0.882371274044 0.430653457617 0.885427039389 -0.031349254107 0.024921075123
3.972800000000 -0.039070103062 0.008391560998 0.450131845698 0.881140541831 0.430478710427 0.886521114832 -0.032509459225 0.023675793952
3.973222222000 -0.037682586863 0.008778661762 0.454311837773 0.878545877126 0.434080799622 0.884858052974 -0.030984007842 0.023623848468
3.973644444000 -0.038402792621 0.009291304709 0.454482788516 0.880388886396 0.435610192804 0.885162904289 -0.031388535411 0.024445009806
3.974066666000 -0.038512622335 0.009482584346 0.457329727834 0.879752518908 0.437996002031 0.881773156583 -0.031097537043 0.024834423000
3.974488888000 -0.037595956489 0.009949341489 0.457715090318 0.879553067250 0.438241941957 0.885121278722 -0.030809542625 0.024160371627
3.974911111000 -0.037532457047 0.009791766313 0.458670704850 0.879237274205 0.440213685221 0.883970886687 -0.030733379382 0.024425559849
3.975333333000 -0.037538478465 0.009705928278 0.461201677004 0.877212496098 0.441758718724 0.881694297357 -0.031317461600 0.024357201861
3.975755555000 -0.036761591003 0.009321148100 0.462935812413 0.876771947037 0.444920546137 0.882364211415 -0.031227481352 0.023746822237
3.976177777000 -0.036782438395 0.010251090579 0.463091852531 0.876968680448 0.443692813553 0.881628368161 -0.030002446872 0.023939051762
3.976600000000 -0.038356627327 0.010610852736 0.461186565306 0.877486714955 0.445333855490 0.878365577720 -0.028743877909 0.023317348891
3.977022222000 -0.035372654547 0.010059102839 0.468482152019 0.875207164554 0.448672961492 0.881619342659 -0.030253881237 0.022724686844
3.977444444000 -0.035891868468 0.010245940341 0.467778772565 0.873620396304 0.448048458971 0.879415306796 -0.029444312604 0.022792138346
3.977866666000 -0.034995179373 0.010331998147 0.471705289710 0.873852369021 0.451240280809 0.881268828876 -0.030124709351 0.022506491186
3.978288888000 -0.035297065648 0.010203639109 0.471861824558 0.872682626338 0.452641709292 0.879127553929 -0.029724384028 0.023357473042
3.978711111000 -0.034881233609 0.010670646375 0.473977201376 0.872353177357 0.453702285596 0.877948753293 -0.029032591432 0.023297175385
3.979133333000 -0.033545513097 0.009606375548 0.476310626488 0.869574519613 0.456567617563 0.877998572844 -0.029048208596 0.021448425225
3.979555555000 -0.033446607840 0.010481496117 0.478018991106 0.870691064120 0.458855030268 0.879632482494 -0.029392320020 0.022504027801
3.979977777000 -0.033913648254 0.010674487617 0.479128569644 0.870192833315 0.459408125463 0.876038458463 -0.029053526105 0.021964087682
3.980400000000 -0.033020788033 0.010892083121 0.480525496034 0.869374633103 0.460362236392 0.877649521525 -0.028648205959 0.021421773837
3.980822222000 -0.032850729803 0.010283914334 0.483236231304 0.868956891916 0.463403098240 0.876358410381 -0.029142084770 0.021209362239
3.981244444000 -0.032902706402 0.010372968264 0.483473611513 0.868040152388 0.464796274803 0.876908348298 -0.028315410731 0.021952379475
3.981666666000 -0.034246602943 0.010085912819 0.483352171163 0.865388382668 0.467793959574 0.872818928594 -0.029576043673 0.022941258503
3.982088888000 -0.032824549510 0.010627809403 0.486694624765 0.865143293977 0.467390650432 0.872817614289 -0.028601954845 0.021244047967
3.982511111000 -0.031240935820 0.010454416984 0.488847349170 0.864892102530 0.469162409417 0.875113127085 -0.028306870763 0.020712546234
3.982933333000 -0.031702137377 0.009425125490 0.489436805536 0.864106791032 0.471463605659 0.873716641719 -0.028567254771 0.020344800982
3.983355555000 -0.031969541719 0.010397031956 0.491274433168 0.862505852167 0.472637934868 0.871136615999 -0.028970944503 0.020962881920
3.983777777000 -0.032290926760 0.010068138069 0.492899280340 0.861828025148 0.475249406172 0.871760256407 -0.029401874937 0.021058582761
3.984200000000 -0.030242279858 0.009175873731 0.496869021523 0.857386458616 0.477753012671 0.869233135489 -0.029216555439 0.020403756033
3.984622222000 -0.031170058952 0.010235815698 0.495488021370 0.860572590339 0.477036307785 0.868869780058 -0.028169478902 0.020242861643
3.985044444000 -0.031791314932 0.009963484711 0.496718456447 0.859201861520 0.478421662273 0.867564045055 -0.029429141571 0.020615693493
3.985466666000 -0.030280108894 0.010473881259 0.498818235098 0.859607839712 0.479578031045 0.868741063848 -0.028005608264 0.019841247085
3.985888888000 -0.030337428707 0.009595963514 0.501434073957 0.856102955853 0.483525786317 0.866203079107 -0.028835763142 0.019878203555
3.986311111000 -0.030009642990 0.010232315705 0.501747056200 0.857108173070 0.482495701803 0.866137476442 -0.028441703114 0.019254996169
3.986733333000 -0.029696026702 0.008378965708 0.504136758832 0.853087973842 0.488236212420 0.864465234931 -0.029426804218 0.019282821840
3.987155555000 -0.029770417013 0.010401024846 0.505922141104 0.854293799120 0.485733960365 0.864462010014 -0.028411396927 0.019346847541
3.987577777000 -0.028787333841 0.010529014502 0.506943041145 0.854891310372 0.488550379686 0.866325458957 -0.029144712864 0.020184868794
3.988000000000 -0.029322152635 0.008799767239 0.508934618689 0.853411745743 0.491819834668 0.864874379757 -0.029860624503 0.018075504725
3.988422222000 -0.028043566112 0.009689571306 0.510261782644 0.852882007642 0.491463488735 0.863904289855 -0.028060680458 0.018405360045
3.988844444000 -0.028573294050 0.009058436212 0.510554697760 0.850777422221 0.493658056433 0.861883518115 -0.028711714394 0.018398298438
3.989266666000 -0.028013668555 0.008440953664 0.514393774036 0.849770542170 0.496546027698 0.863892421928 -0.029484780674 0.017417494283
3.989688888000 -0.028280878890 0.008776070956 0.515458354811 0.848451844607 0.497745977664 0.860733041575 -0.029515048277 0.018030952350
3.990111111000 -0.027312976976 0.009523649932 0.516982979006 0.848483106379 0.497616538063 0.860279850991 -0.028100413390 0.018066700936
3.990533333000 -0.027253107370 0.008624943499 0.518005962572 0.846886443649 0.499575430255 0.859741002904 -0.029069747530 0.017301013942
3.990955555000 -0.028008582109 0.007798737445 0.519161291936 0.845578505746 0.503069677150 0.858464070328 -0.030389259025 0.017528473418
3.991377777000 -0.027420788648 0.008171831985 0.521636956750 0.845132188515 0.504125721494 0.858021920889 -0.030144539066 0.016982047005
3.991800000000 -0.027212819903 0.007640361927 0.522572326715 0.842766160309 0.505519974749 0.856223980198 -0.029725431340 0.017044825113
3.992222222000 -0.026762198116 0.008850150706 0.523962805768 0.843742072193 0.504447466378 0.855208290900 -0.029123764942 0.017227871904
3.992644444000 -0.027409689981 0.008431657540 0.525424866870 0.841434001016 0.506650591472 0.852318253421 -0.030113007516 0.017926702558
3.993066666000 -0.026553932544 0.007501763804 0.526900622081 0.840645849529 0.510159069692 0.854604466082 -0.029600109439 0.017021566726
3.993488888000 -0.027013639517 0.007309142645 0.527662273127 0.838816842906 0.512658465865 0.851751793497 -0.030847653799 0.017405379214
3.993911111000 -0.025963630217 0.008453360916 0.529221873549 0.840244185160 0.511920158575 0.851663854581 -0.029428244837 0.017011846159
3.994333333000 -0.025199541576 0.006512547012 0.533622354799 0.837550061470 0.514349896836 0.853075623033 -0.030203322748 0.014057641194
3.994755555000 -0.026482713828 0.007351705869 0.531005158063 0.835899420439 0.515372158706 0.849043075606 -0.030312691085 0.016424675135
3.995177777000 -0.025501297491 0.007148563972 0.534546986426 0.836815520700 0.517166897075 0.851412826327 -0.029786066999 0.015340779040
3.995600000000 -0.026169364669 0.006633949791 0.535209077532 0.835271522170 0.519964964100 0.848276293184 -0.030807382058 0.015485569719
3.996022222000 -0.026473170580 0.006413879669 0.534730128413 0.832815496125 0.520095594282 0.845254112915 -0.030479505365 0.016298680738
3.996444444000 -0.025352862055 0.006910498244 0.537581328554 0.833638789162 0.520443903242 0.847397454464 -0.030500655447 0.015773545426
3.996866666000 -0.025616360619 0.007366404242 0.538759635999 0.831856289254 0.522061662633 0.846707441978 -0.031373002311 0.015546393015
3.997288888000 -0.025782703454 0.007343910135 0.539412315361 0.831491571709 0.522760877115 0.844721483932 -0.030524938379 0.016197069064
3.997711111000 -0.025170973623 0.006064551778 0.542897940468 0.830280454607 0.527064696872 0.843911248161 -0.031166750161 0.014845545388
3.998133333000 -0.025462419772 0.006007324612 0.541405492995 0.828183787748 0.526599641255 0.841683413848 -0.030942968768 0.015651369849
3.998555555000 -0.026019627586 0.005268506041 0.544263156739 0.827067211363 0.532168471966 0.839618437470 -0.032366335328 0.015292344700
3.998977777000 -0.025397376695 0.006469975100 0.544637313561 0.826839921131 0.528463297278 0.839499549562 -0.030915909551 0.015801825384
3.999400000000 -0.026110263792 0.005513292381 0.551004187207 0.825437758373 0.533115904950 0.834782504144 -0.033329986168 0.015256165383
3.999822222000 -0.024576892627 0.005341622129 0.549005529547 0.824285727107 0.533729235253 0.838649727566 -0.031403895328 0.014615841385
4.000244444000 -0.025552489839 0.005174382806 0.549077412475 0.824353051594 0.535445441831 0.836680658794 -0.031799823458 0.015261283247
4.000666666000 -0.025332702322 0.004666923988 0.550921913688 0.821844217019 0.536429016923 0.835501759839 -0.032247913166 0.014567629726
4.001088888000 -0.024576569389 0.004634967738 0.551754428908 0.821226716937 0.537944796483 0.835107272728 -0.031599007059 0.014988544746
4.001511111000 -0.025176974460 0.005098621173 0.552232747640 0.820312149046 0.540112466280 0.835741910055 -0.032582985169 0.015149523019
4.001933333000 -0.024941864953 0.005420602416 0.553934372817 0.819588697162 0.538734942260 0.833442088990 -0.032791668635 0.014968985794
4.002355555000 -0.025209478534 0.005445271520 0.554997027617 0.817477957638 0.539454800063 0.833007784461 -0.032248327618 0.015219521302
4.002777777000 -0.025580219072 0.003959594548 0.558312577501 0.818560430281 0.544967972913 0.830606477176 -0.032937956053 0.013606863862
4.003200000000 -0.025469338592 0.005174435438 0.560015676052 0.815859855685 0.543363552080 0.830025431341 -0.033468035864 0.014478834894
4.003622222000 -0.025136618357 0.004836151894 0.559964840980 0.815363460876 0.545959659491 0.829098524763 -0.033315321874 0.015175710986
4.004044444000 -0.024796064684 0.003925969001 0.560479285742 0.813672635344 0.546895389165 0.828511568530 -0.032789160372 0.014911318447
4.004466666000 -0.025573549422 0.004542382798 0.561048029376 0.812365558947 0.546646394028 0.826412941397 -0.033640100980 0.015369842317
4.004888888000 -0.025582902476 0.003961118988 0.562589964371 0.812334624806 0.550928841546 0.825948219791 -0.033569673651 0.013960826560
4.005311111000 -0.025470433377 0.004055062391 0.563290176256 0.809671139837 0.549931051963 0.824429743260 -0.033387864138 0.015119531134
4.005733333000 -0.025470677726 0.003115806424 0.564286286583 0.809831333050 0.553584982659 0.823433675211 -0.033471913462 0.014661316168
4.006155555000 -0.025061091778 0.004057559205 0.565076664620 0.808333118463 0.552821834359 0.824109130389 -0.033903581839 0.015426383958
4.006577777000 -0.026009379882 0.003138748758 0.568121743599 0.806797313158 0.554489969991 0.820405103195 -0.034155356857 0.014520670348
4.007000000000 -0.024890201117 0.004457961414 0.573946528076 0.807625416354 0.557500348835 0.818135730846 -0.034708798531 0.015633366427
4.007422222000 -0.025608250193 0.003437114701 0.569393970149 0.805008572102 0.557289768694 0.819266823642 -0.033959215776 0.015476403981
4.007844444000 -0.026129787370 0.003322857115 0.569982968088 0.804478325525 0.558966339207 0.819163951029 -0.034009659917 0.014502668749
4.008266666000 -0.025947166738 0.003525629993 0.572900415506 0.801486870682 0.559479450937 0.816324184600 -0.034595656464 0.015403537519
4.008688888000 -0.026240125512 0.003435309792 0.572281018262 0.800689505070 0.560324836398 0.815614075353 -0.034524719734 0.015257668865
4.009111111000 -0.027117961594 0.002382786504 0.574131668466 0.801194498549 0.563456295471 0.812640741789 -0.034961184914 0.014719976428
4.009533333000 -0.025905730153 0.002971849121 0.575568816587 0.797266812331 0.563105487255 0.813021183207 -0.034779786975 0.015847027431
4.009955555000 -0.026958024749 0.002630180685 0.576626860889 0.795829804129 0.565049479464 0.808997777957 -0.035971303506 0.015970066006
4.010377777000 -0.026826973024 0.002954502750 0.578235657745 0.796937929788 0.566101839682 0.811009742058 -0.035613329372 0.015506999341
