# GHZ S RI R 50.000000000000
3.950000000000 -0.035493208543 0.005104923307 0.369824458613 0.912147951625 0.361754388721 0.910546402398 -0.040408599142 0.028505032889
3.950422222000 -0.036682133326 0.003708044706 0.371175644823 0.910982513418 0.360372768166 0.909925068612 -0.042506219639 0.027628403931
3.950844444000 -0.035694529823 0.003318633277 0.374041814971 0.909703050102 0.361101288350 0.909442500986 -0.041799275830 0.027932247989
3.951266666000 -0.036228691250 0.003552802567 0.379287378412 0.911677427960 0.361793974858 0.910227159901 -0.042238709371 0.029215300301
3.951688888000 -0.036627297084 0.003439924878 0.375422182140 0.908278932675 0.363285487471 0.907417861612 -0.041873637312 0.028768158246
3.952111111000 -0.036693223757 0.004352351725 0.378619635127 0.909273979664 0.366477893150 0.909821926412 -0.042147019225 0.030395639660
3.952533333000 -0.037383680090 0.004190548063 0.379025172028 0.908089556326 0.364337033019 0.907726372242 -0.041644962505 0.029533437481
3.952955555000 -0.037281365046 0.004150882908 0.380101325330 0.908192273424 0.366564322819 0.907622426628 -0.042179126096 0.030085616681
3.953377777000 -0.036876216663 0.003557707808 0.383479164573 0.906054327832 0.367498003856 0.906505704133 -0.042012823618 0.029307348410
3.953800000000 -0.035525412698 0.004666524083 0.380077984788 0.905351436070 0.372317144450 0.905094039405 -0.040341523003 0.030066482769
3.954222222000 -0.037444976262 0.004302655772 0.383392418879 0.907083822799 0.371209930805 0.905957106560 -0.041465694309 0.030374049123
3.954644444000 -0.037579967186 0.005503696961 0.386748473331 0.906704263817 0.370396028914 0.906495372218 -0.041440871404 0.030462646046
3.955066666000 -0.037178727490 0.006135377942 0.388690776951 0.906428525258 0.372156148299 0.908192371916 -0.041079101495 0.030838228679
3.955488888000 -0.037499626982 0.007035747131 0.388044064945 0.910316436952 0.374855703109 0.907368466893 -0.040738636199 0.032216717644
3.955911111000 -0.038575356483 0.007113325735 0.388456876422 0.909226372535 0.376743674112 0.906735983043 -0.041294763125 0.033130385209
3.956333333000 -0.038783464567 0.006836713437 0.388330509336 0.908423719446 0.376439513307 0.907284118685 -0.041421412738 0.032411118361
3.956755555000 -0.038253168776 0.007559371734 0.390925396112 0.908524263874 0.377703751070 0.906471712682 -0.041084574039 0.032940559357
3.957177777000 -0.037296133382 0.007703668449 0.395591367610 0.907722807795 0.380712957956 0.907637784572 -0.040151985058 0.032871286219
3.957600000000 -0.037167362091 0.008166414051 0.398185392142 0.905074363726 0.382059537390 0.906415600189 -0.039580628011 0.032721816233
3.958022222000 -0.038173919859 0.006984968350 0.393334028724 0.903951773378 0.382471152281 0.904972578871 -0.040103155646 0.031790094246
3.958444444000 -0.036154477310 0.007519510468 0.402119850400 0.903631611106 0.384058552159 0.905303094404 -0.038847823264 0.031382139821
3.958866666000 -0.038080916632 0.007676212993 0.398249936798 0.906458155344 0.385343529888 0.905520247603 -0.040091997037 0.033157584137
3.959288888000 -0.037857456902 0.009408685263 0.401468017443 0.907610655518 0.386183577812 0.906208891959 -0.039215950456 0.034437974860
3.959711111000 -0.037361782269 0.010025914453 0.400714942294 0.906100397772 0.388892387895 0.907159596584 -0.039472509241 0.033651369389
3.960133333000 -0.037766423756 0.009361124203 0.404762713269 0.904085869434 0.389117561377 0.905661635875 -0.038764773366 0.033954295580
3.960555555000 -0.037185509619 0.010794631122 0.406602054215 0.906610212063 0.389836988118 0.905701110213 -0.038186130238 0.033441539933
3.960977777000 -0.037295930104 0.011102810759 0.407481663354 0.905725087561 0.392476406039 0.905553937992 -0.038354890019 0.033974967528
3.961400000000 -0.036314946974 0.011325958563 0.411812474348 0.906636255122 0.393421425763 0.906290537974 -0.038753079296 0.034611092094
3.961822222000 -0.037587924660 0.010788222260 0.410413135397 0.904042488930 0.394048423279 0.903359800354 -0.037843046542 0.034248476972
3.962244444000 -0.036990299454 0.011682484209 0.412458470490 0.904695145385 0.397632207390 0.904968702202 -0.037138106098 0.035013166098
3.962666666000 -0.037383706071 0.012427732405 0.413941131821 0.904588913977 0.396463086803 0.903655921067 -0.037412840158 0.035259688525
3.963088888000 -0.036630554798 0.012223809091 0.415159349396 0.903620879741 0.398710036797 0.904098147217 -0.037279718088 0.034413793799
3.963511111000 -0.036410548853 0.012050688683 0.417722619864 0.902003686281 0.402269589650 0.903311045030 -0.037233008901 0.034857819010
3.963933333000 -0.037121507413 0.012373351890 0.418389649243 0.901377238861 0.403433692588 0.901832066724 -0.036053840974 0.034914139497
3.964355555000 -0.036239683633 0.012827252346 0.420476152174 0.902224676174 0.403474811245 0.904038440067 -0.036824747737 0.034803295577
3.964777777000 -0.036130401519 0.013238100870 0.421042857435 0.902141108516 0.404862920292 0.903972222283 -0.035988937802 0.034267817894
3.965200000000 -0.035530573170 0.013042740279 0.424437064867 0.900942634077 0.407787716633 0.902986307037 -0.035973994386 0.034346443973
3.965622222000 -0.035272678457 0.014025359954 0.426998706021 0.900980874362 0.408603451612 0.902673682021 -0.035895122524 0.035277863120
3.966044444000 -0.034955437566 0.014593792913 0.429348409129 0.900492228271 0.409203571759 0.902411729417 -0.034383169822 0.035338099010
3.966466666000 -0.034223279323 0.014412319322 0.430179082509 0.900803484955 0.410999160535 0.902790552229 -0.035686820669 0.034202203785
3.966888888000 -0.035408963756 0.014384628271 0.431009146353 0.899874016533 0.412985911491 0.902836988603 -0.035711500696 0.035340610190
3.967311111000 -0.034883967784 0.015132316715 0.433067693525 0.899103819775 0.413968496240 0.901139210387 -0.034532741752 0.035534253236
3.967733333000 -0.034816141749 0.014972931659 0.434916149395 0.898192597327 0.416799706811 0.901089534566 -0.034545162523 0.035378776329
3.968155555000 -0.034962179670 0.014995449911 0.436627378763 0.899366314624 0.418064755766 0.899786935175 -0.034420171711 0.035154076682
3.968577777000 -0.034263025773 0.015114504460 0.438246388358 0.897302679919 0.418140048568 0.899972417243 -0.033931023859 0.034907601519
3.969000000000 -0.032346577816 0.014493911462 0.445750184252 0.891693051274 0.426166786632 0.900215774069 -0.034296660031 0.035997937962
3.969422222000 -0.034741019729 0.015876604754 0.440349097802 0.895740772511 0.422344092064 0.898610463943 -0.033640858736 0.035113149979
3.969844444000 -0.032967913782 0.016286237616 0.443401584217 0.897609358578 0.422831206663 0.900625360887 -0.032693060780 0.035211229917
3.970266666000 -0.033654330893 0.016125534433 0.444413654539 0.895179529182 0.427027971457 0.898106730231 -0.032584061885 0.034702098538
3.970688888000 -0.032730520798 0.016321284846 0.446304736739 0.895185011286 0.428570193436 0.897732773842 -0.032158419800 0.035177256239
3.971111111000 -0.032456906161 0.016319569562 0.446813854184 0.894275775182 0.429221110754 0.898978804461 -0.032793138398 0.034282555592
3.971533333000 -0.032831767687 0.017272332447 0.448441846174 0.895503836967 0.429913083677 0.895811453690 -0.032107264132 0.035049822495
3.971955555000 -0.032522726311 0.017059508321 0.450083878059 0.893799003053 0.432210894231 0.898363074382 -0.032591943325 0.034320412477
3.972377777000 -0.031953480297 0.017404209137 0.452491336148 0.891819727561 0.433973282810 0.896199464757 -0.031123356688 0.034908605928
3.972800000000 -0.031844854899 0.017280520770 0.453997486406 0.893120772575 0.433915177562 0.897666990412 -0.031926887233 0.034149908358
3.973222222000 -0.031350442581 0.018184902538 0.456453180548 0.892414857755 0.435967185341 0.896365630868 -0.030724646602 0.033910238989
3.973644444000 -0.031782453017 0.018073165116 0.456590750044 0.891963306642 0.438613921971 0.896126840704 -0.031478541678 0.034990935881
3.974066666000 -0.032149993780 0.018348540434 0.458808452464 0.892038598702 0.440626459736 0.893294095914 -0.031132313166 0.035616276354
3.974488888000 -0.030652097238 0.018654362536 0.460783119968 0.891314185040 0.441349618851 0.895865997269 -0.030166320797 0.034525948779
3.974911111000 -0.030360927503 0.018289209949 0.461947236883 0.889192938256 0.443465465873 0.895431551284 -0.030622688378 0.034558004951
3.975333333000 -0.030880880670 0.018522259972 0.463916614694 0.888983787440 0.444464414146 0.892775903043 -0.030846086873 0.034512494945
3.975755555000 -0.029900517590 0.018447773143 0.466229668666 0.889479652845 0.448066009249 0.893889519081 -0.030612476172 0.034379520897
3.976177777000 -0.029564324758 0.019316603124 0.466772938375 0.888686473506 0.447118440491 0.893231501763 -0.029485285370 0.034605378249
3.976600000000 -0.029184465363 0.018660448511 0.469114692859 0.884616274097 0.449984302257 0.890005578553 -0.028097765544 0.033262407666
3.977022222000 -0.028145439087 0.018586919172 0.471696635098 0.886142097704 0.452135539541 0.892780149894 -0.029441533762 0.033252150349
3.977444444000 -0.029241476867 0.019135936367 0.470270407715 0.885896546682 0.451000736693 0.890498861178 -0.028787656550 0.033354313696
3.977866666000 -0.027930543047 0.018863219727 0.474680037335 0.884783773667 0.454466566913 0.892395952306 -0.029434745997 0.032915529272
3.978288888000 -0.028403263991 0.018742317216 0.474706159703 0.883963863830 0.455925756100 0.889886431929 -0.028558693125 0.033553283761
3.978711111000 -0.027097627464 0.019378290958 0.479366146930 0.882869319707 0.457332321225 0.889174318938 -0.027845966736 0.033495994581
3.979133333000 -0.027007320420 0.019320337463 0.479270067854 0.883615876980 0.459387072188 0.889341301905 -0.027966625431 0.031873740047
3.979555555000 -0.026597823029 0.018877935359 0.480339271767 0.881654048523 0.462361529156 0.890323084256 -0.028261181650 0.032924539404
3.979977777000 -0.026863280923 0.018888990938 0.482460995529 0.880714553902 0.463219996480 0.886353794097 -0.027516760599 0.032289740340
3.980400000000 -0.025434500474 0.019201486363 0.484931507526 0.879373938244 0.464213220267 0.888386474947 -0.027257818890 0.031765222999
3.980822222000 -0.026062176982 0.018218964969 0.484961221596 0.878551899269 0.466845237375 0.887232488887 -0.028118216168 0.031390752653
3.981244444000 -0.025752977686 0.018948959289 0.487152491776 0.879036211394 0.468200979392 0.887883534904 -0.027005465685 0.032269286828
3.981666666000 -0.026650094376 0.019075580171 0.488467913499 0.876623759600 0.471363301982 0.883816475639 -0.028044926791 0.032915838209
3.982088888000 -0.025737121310 0.019215601324 0.489723124756 0.876256681457 0.471129708746 0.883800763090 -0.027218404735 0.031460265143
3.982511111000 -0.024368242797 0.019350304627 0.491979927913 0.876785132599 0.472722760168 0.886474067053 -0.026812309322 0.030932518955
3.982933333000 -0.024682914627 0.018623032783 0.493287973097 0.876046183906 0.475345245192 0.884701748898 -0.026762217519 0.030228658782
3.983355555000 -0.024513070833 0.019033501031 0.495902963044 0.873224708620 0.476460015292 0.882009913117 -0.027149119983 0.030899543473
3.983777777000 -0.024683916389 0.018274932025 0.497301049636 0.871275413499 0.479135266547 0.882522680025 -0.027610834688 0.030922526354
3.984200000000 -0.024946528387 0.018697129431 0.497162408010 0.872600161859 0.481561724272 0.880501587743 -0.026699951374 0.030745756880
3.984622222000 -0.023987673902 0.018556399701 0.498952909600 0.871476244521 0.481387825656 0.879645063582 -0.026335169109 0.030137287841
3.985044444000 -0.024319899713 0.018989264045 0.501333401735 0.870547690841 0.482549990717 0.878609520813 -0.027202443594 0.030245808129
3.985466666000 -0.023245569490 0.019277496233 0.502587596428 0.870976348115 0.483549289450 0.879514277125 -0.026179361031 0.029967244877
3.985888888000 -0.023496274754 0.017696365264 0.503639488716 0.866487538913 0.488005107797 0.876940108410 -0.026865378931 0.030186969945
3.986311111000 -0.022350792579 0.018768887920 0.506576200743 0.867589078865 0.486673119046 0.876905943861 -0.026344680214 0.029292063431
3.986733333000 -0.023059499848 0.017161999047 0.507202227239 0.864915930330 0.492625314889 0.875288931111 -0.026858903119 0.029432719030
3.987155555000 -0.022924181461 0.018206322577 0.508293526964 0.863945129273 0.489612838956 0.874711758409 -0.026765762789 0.029092537713
3.987577777000 -0.021352015053 0.019384717979 0.511625383457 0.865952345100 0.492750960289 0.876767429413 -0.026740180375 0.029672532500
3.988000000000 -0.022123042660 0.016948354894 0.512401402352 0.863476873349 0.496146535931 0.875408397401 -0.027699139982 0.027934264204
3.988422222000 -0.020772604401 0.018374689928 0.514332661055 0.863762645168 0.495575801275 0.874759196776 -0.025591051652 0.028241467898
3.988844444000 -0.021191684312 0.017557841580 0.514794634400 0.860882408882 0.497805055875 0.872674687779 -0.026190115651 0.028083410928
3.989266666000 -0.020945120318 0.017097954424 0.518130728267 0.860625067435 0.500712460621 0.874296917849 -0.027156508698 0.027201366409
3.989688888000 -0.020881653370 0.017036563947 0.518976247900 0.858324993431 0.502348031487 0.871683167074 -0.026888187399 0.027611463433
3.990111111000 -0.020730393848 0.017611784565 0.519385658717 0.859488802048 0.502813873874 0.871000441545 -0.025334820059 0.027639733900
3.990533333000 -0.020238973054 0.017196965595 0.521810818126 0.857934571371 0.503666606147 0.870325231834 -0.026368079290 0.027085838267
3.990955555000 -0.020373241288 0.016615021243 0.523954210669 0.856117211133 0.507488828111 0.869243386770 -0.027553163272 0.027085357269
3.991377777000 -0.020359890417 0.016882049679 0.525958771096 0.856027447188 0.508405984643 0.868799844657 -0.027084989543 0.026607484686
3.991800000000 -0.019289144794 0.015884684209 0.527716029259 0.851529013726 0.509011386009 0.866638058906 -0.027233393154 0.026295264953
3.992222222000 -0.019965397329 0.017210457554 0.527310165386 0.854385253706 0.509051511723 0.866207767399 -0.026050201897 0.026866815464
3.992644444000 -0.020489617443 0.016864839345 0.528886737020 0.852035229018 0.511028848021 0.863228231460 -0.027051242592 0.027478112356
3.993066666000 -0.019295057617 0.015834572017 0.531058263933 0.851082213300 0.514600706971 0.865128160675 -0.026644982558 0.026526358362
3.993488888000 -0.019813258434 0.015861148814 0.532348984392 0.849251486758 0.516752148520 0.861833061694 -0.027785835757 0.026637818541
3.993911111000 -0.018888895097 0.016627457891 0.533301909863 0.850723556793 0.516085722864 0.862505705025 -0.026276731367 0.026591892100
3.994333333000 -0.018312058752 0.015185381251 0.537664671013 0.848826103516 0.518473552552 0.863843290357 -0.026923855268 0.023686331097
3.994755555000 -0.019645539040 0.016003467592 0.535383992867 0.847002351582 0.519325990295 0.859508381534 -0.027031409175 0.025833345690
3.995177777000 -0.018162056236 0.015561984979 0.538803395600 0.847141370954 0.521166183289 0.861945509506 -0.026553553819 0.024751945652
3.995600000000 -0.019115605198 0.014742586133 0.538926096876 0.845222922317 0.523713092522 0.859170185530 -0.027587401521 0.024914893067
3.996022222000 -0.019496001233 0.014683843545 0.538409659932 0.843147253649 0.524593392709 0.856239784691 -0.027225319983 0.025563801853
3.996444444000 -0.018237563530 0.015924705600 0.542653473740 0.844659875186 0.524870836858 0.857590847157 -0.026913520561 0.024921786668
3.996866666000 -0.018912670423 0.015529930456 0.542497725292 0.842563843292 0.526023999410 0.856654009923 -0.027954919373 0.025077986144
3.997288888000 -0.018667527100 0.015696705223 0.543768616020 0.841716704007 0.526721396622 0.855511522757 -0.027033915679 0.025387100100
3.997711111000 -0.018196467885 0.014243847582 0.546689268189 0.840809496061 0.530865783704 0.854259052059 -0.027676140346 0.024222497508
3.998133333000 -0.018413310987 0.014486928789 0.545870930025 0.838696401883 0.531467951092 0.852539476748 -0.027124184552 0.024802309307
3.998555555000 -0.019022477131 0.013890019742 0.548849265513 0.837735557116 0.536327420936 0.849922028389 -0.028634471232 0.024584407622
3.998977777000 -0.018578465798 0.014699144157 0.548688353911 0.837071615422 0.532571408824 0.849474759135 -0.027257012396 0.024954397839
3.999400000000 -0.019209592614 0.014039645591 0.555399106288 0.836113976358 0.538120785828 0.845232841345 -0.029419657131 0.024293107663
3.999822222000 -0.017685149419 0.013714346502 0.553226950015 0.834986610244 0.537954740247 0.849079919403 -0.027475506662 0.023845038892
4.000244444000 -0.018343699953 0.013196072601 0.553540618142 0.834659949881 0.540359595841 0.846711948105 -0.027895028737 0.024314354483
4.000666666000 -0.018930618689 0.013623260506 0.555320020050 0.832767783513 0.539958836952 0.845747031179 -0.028161557924 0.023713304531
4.001088888000 -0.017755355138 0.013176631333 0.556151822088 0.832021108086 0.542094880739 0.845987298934 -0.027509808768 0.024161168306
4.001511111000 -0.018250349156 0.013583541916 0.556535611348 0.830765427762 0.543267897536 0.845663340713 -0.028636720104 0.024112495015
4.001933333000 -0.017892870798 0.014345848273 0.558424036967 0.830187717198 0.543266122308 0.844792175943 -0.028522424525 0.023973475439
4.002355555000 -0.018242585133 0.013334163521 0.559135843818 0.827635251740 0.544189669410 0.842798118902 -0.028200417110 0.024111807968
4.002777777000 -0.018691145216 0.012164080835 0.562460401627 0.829351301594 0.550560203178 0.840656924088 -0.028651491171 0.022462785068
4.003200000000 -0.018413966188 0.013006416918 0.564108714808 0.826605161909 0.549206996927 0.839513936396 -0.029116148775 0.023381545979
4.003622222000 -0.017968716694 0.013159597625 0.563919639091 0.826105901005 0.550606598134 0.839624961653 -0.028917447318 0.024118988770
4.004044444000 -0.017562654943 0.012393685629 0.564282878812 0.824457640854 0.552935790929 0.839740537120 -0.028423247407 0.023836566181
4.004466666000 -0.018339132062 0.012813042025 0.565297266162 0.823104795885 0.552220958434 0.837441223460 -0.029119126709 0.024189812493
4.004888888000 -0.018924815767 0.012071605118 0.566866283001 0.823007246263 0.555542501645 0.835974609684 -0.029052072095 0.022842520345
4.005311111000 -0.018043822237 0.012550218297 0.567769894008 0.820089157508 0.554070188085 0.836166885343 -0.028872230535 0.023759512526
4.005733333000 -0.019007305720 0.011914032145 0.568584770654 0.820096175872 0.556490793450 0.834241936927 -0.028812558621 0.023338840146
4.006155555000 -0.018346454318 0.012422142143 0.569259685757 0.818794968785 0.557418178763 0.834355542581 -0.029292663315 0.024152924701
4.006577777000 -0.019021836335 0.011930305455 0.572496996216 0.817142570410 0.558938966405 0.831673940169 -0.029340632819 0.023198358047
4.007000000000 -0.018123194647 0.012653648961 0.578373688084 0.818306094458 0.563480516687 0.828521418061 -0.029789186099 0.024356171359
4.007422222000 -0.018343764291 0.011391926482 0.573958117962 0.815487906931 0.563829910485 0.829849161888 -0.029076589586 0.024105021969
4.007844444000 -0.019262607122 0.011205522480 0.574697425732 0.814786537393 0.564591817902 0.828732702026 -0.029173217024 0.022932100259
4.008266666000 -0.019135826518 0.012178692517 0.577347720250 0.811193879344 0.564040208260 0.827683650446 -0.029785180425 0.023821756745
4.008688888000 -0.020211752663 0.011290006632 0.577031151051 0.811146349091 0.565200893710 0.823005383150 -0.029493942162 0.023854686898
4.009111111000 -0.019927880372 0.010444227886 0.578506158525 0.811515282686 0.570776788419 0.822226096529 -0.030034313070 0.023213143479
4.009533333000 -0.018949645171 0.011029862934 0.580128324314 0.807760493078 0.568158006863 0.823777757115 -0.029681424537 0.024110334999
4.009955555000 -0.020027062009 0.011460797703 0.580713397870 0.806454257365 0.570276272509 0.819635948806 -0.030933354909 0.024373966642
4.010377777000 -0.019403048059 0.011035437655 0.582426237882 0.807585832194 0.573291204871 0.822143940546 -0.030493569327 0.023984939061
