# GHZ S RI R 50.000000000000
3.950000000000 0.052181787170 -0.053866372406 0.453480016668 0.865198842323 0.496899892071 0.834986195746 0.055211783864 -0.036682880463
3.950422222000 0.054617171708 -0.052145694321 0.466575280258 0.863736728830 0.496970086212 0.836991757104 0.055651941084 -0.035311263470
3.950844444000 0.055489895251 -0.051086461554 0.473276523363 0.859618036171 0.497311446613 0.836738143374 0.056649037711 -0.035004338357
3.951266666000 0.057047542689 -0.051094864237 0.478799312768 0.855478699626 0.496595520981 0.837321643631 0.055824767577 -0.036361170806
3.951688888000 0.058095012995 -0.050504303952 0.483573482008 0.855566998478 0.498207227685 0.836705253576 0.057009739490 -0.035640133027
3.952111111000 0.057520186519 -0.050179341960 0.485483624269 0.853701563270 0.498870206891 0.837216380674 0.057442341305 -0.035039890040
3.952533333000 0.057850065987 -0.050823831796 0.488911670047 0.851376803867 0.499924500460 0.835326666193 0.057036444896 -0.035594162988
3.952955555000 0.058578580370 -0.049875753380 0.490802849308 0.850158451215 0.500045665341 0.836755361394 0.056657069022 -0.035700686350
3.953377777000 0.058542021189 -0.049740428486 0.493956914813 0.849522234726 0.501765652410 0.836613387145 0.057086253866 -0.035496421565
3.953800000000 0.060326251983 -0.049661288573 0.495289233104 0.847699727878 0.503526294835 0.836087781743 0.058431574272 -0.035309923071
3.954222222000 0.058854414558 -0.048853333240 0.495859742349 0.848914875103 0.505080956729 0.836638432277 0.057650887336 -0.035286238095
3.954644444000 0.058290794155 -0.048664243982 0.497558933909 0.849483088291 0.505578120407 0.836484806184 0.057471229086 -0.035155633754
3.955066666000 0.058818273491 -0.048682334398 0.498398679209 0.848786507088 0.506187036335 0.834418742968 0.058036270715 -0.035089556788
3.955488888000 0.058979321678 -0.049056159112 0.500545329085 0.845813443668 0.507520442151 0.833686401201 0.058359062951 -0.036108173006
3.955911111000 0.058431569222 -0.048980570136 0.500575687205 0.847333872345 0.508582282396 0.834133429352 0.056998867332 -0.035027640532
3.956333333000 0.058869098405 -0.048745679833 0.502153417280 0.848207941986 0.512248426072 0.833589594449 0.058699825242 -0.034895800114
3.956755555000 0.058551608783 -0.047661633015 0.505554079207 0.846000724275 0.511402024493 0.833155057537 0.058951171367 -0.035530643570
3.957177777000 0.058421512007 -0.048417454812 0.505424318721 0.846222423172 0.510947584517 0.834163365081 0.057820910986 -0.035634612605
3.957600000000 0.058116568826 -0.047736765608 0.506944359704 0.845867826348 0.512643363291 0.832123960746 0.058282294199 -0.035823922444
3.958022222000 0.058771457048 -0.047469363482 0.509845457772 0.845657891347 0.514485326545 0.831924650911 0.058728391288 -0.035123842804
3.958444444000 0.059456622679 -0.047366640567 0.512136005531 0.845206956075 0.515208878707 0.831229305847 0.059409720726 -0.036130647221
3.958866666000 0.059122950637 -0.047468578449 0.513673291137 0.843498561020 0.517223980250 0.831391449174 0.058997568993 -0.035921924355
3.959288888000 0.058998668632 -0.046916425438 0.512804947174 0.845494775651 0.519897137183 0.830827712869 0.059352638869 -0.034932689877
3.959711111000 0.059172018297 -0.048053695313 0.516216691513 0.843634744897 0.520595372604 0.830615833461 0.059427699618 -0.035854498628
3.960133333000 0.059000737587 -0.047201092374 0.516082191682 0.842858947210 0.522063878647 0.829714910980 0.059428697348 -0.035446089956
3.960555555000 0.060064226935 -0.046304323919 0.518872195502 0.842719128491 0.522754961515 0.830209696938 0.060109713468 -0.036552299140
3.960977777000 0.059662380291 -0.046596485098 0.519875510140 0.842494321302 0.524458882032 0.829534127361 0.059635860169 -0.036057154199
3.961400000000 0.060578129224 -0.045749502496 0.523458228548 0.840624714997 0.525878210289 0.830024390726 0.060713580344 -0.036412326524
3.961822222000 0.059512548027 -0.046003789182 0.523341961443 0.840745536248 0.527193023031 0.828545931513 0.060263344028 -0.036110239451
3.962244444000 0.059961235903 -0.046199900286 0.523906491620 0.842472693035 0.528358939474 0.828715212281 0.060238550399 -0.035887200532
3.962666666000 0.059530784393 -0.046066553120 0.525482701170 0.840281179207 0.529760167878 0.826792007406 0.059931377587 -0.036336932748
3.963088888000 0.060186183386 -0.045583818040 0.527713654563 0.840252848739 0.531468376932 0.827534207617 0.060614004620 -0.036383354631
3.963511111000 0.060352485613 -0.046134731105 0.529652186835 0.838519359796 0.533033855046 0.827215330057 0.060840425854 -0.036070292447
3.963933333000 0.059566443976 -0.045492816898 0.530414811151 0.839733911174 0.533830123476 0.826978771413 0.060523831020 -0.036234176680
3.964355555000 0.060309123860 -0.045708255808 0.531792635045 0.837792366002 0.535315381213 0.825206502607 0.061330063295 -0.036914266704
3.964777777000 0.060423327279 -0.046675785351 0.533726817724 0.836616391148 0.536403257786 0.825328808837 0.059605687424 -0.037791463043
3.965200000000 0.060342098434 -0.045933781354 0.534596162851 0.836771992379 0.538602165178 0.824722182242 0.061000971816 -0.037064621764
3.965622222000 0.060886189703 -0.045510681443 0.536552084531 0.837077479724 0.540039228455 0.824713163252 0.061390174430 -0.037376213131
3.966044444000 0.060762966215 -0.045864202080 0.537572997585 0.836008700649 0.540964198064 0.824278445062 0.060592387517 -0.037536849180
3.966466666000 0.060579215125 -0.045221994614 0.539663542270 0.834237174192 0.542164418407 0.821764008483 0.061635307634 -0.037126010002
3.966888888000 0.061035175574 -0.045320811555 0.542037436940 0.834042275584 0.543834565947 0.823166740481 0.061983912916 -0.037827399484
3.967311111000 0.061053350744 -0.045316247532 0.542484705242 0.834239325905 0.545903838410 0.822536719879 0.060896929428 -0.038072164481
3.967733333000 0.061394106918 -0.045350037640 0.544095878664 0.832912155381 0.546766356058 0.821004263410 0.061402169277 -0.038308183428
3.968155555000 0.062004176618 -0.044679905534 0.546686012687 0.832695282039 0.547879151036 0.821228685064 0.062770712314 -0.038344232761
3.968577777000 0.061950499175 -0.044946435230 0.547791258705 0.831019092586 0.549149741978 0.820896466724 0.062717641593 -0.038317005643
3.969000000000 0.062758108105 -0.045408049103 0.548832687275 0.829388676693 0.549882171955 0.821075002565 0.062805580639 -0.039130026227
3.969422222000 0.061665991121 -0.045289588497 0.550677608631 0.829870075826 0.552889816962 0.820234770471 0.062156378552 -0.038733614875
3.969844444000 0.062101400853 -0.045227659615 0.552337686976 0.829426844784 0.553496977040 0.818555913267 0.062442287335 -0.038972212240
3.970266666000 0.062861650467 -0.045057368924 0.554194031637 0.829111023412 0.555576203557 0.818436257620 0.063432411014 -0.039340482334
3.970688888000 0.062384689632 -0.045668612683 0.555136483233 0.828053994975 0.557049352208 0.817195356235 0.061898860116 -0.039876952026
3.971111111000 0.063507783296 -0.044818329262 0.557195639254 0.827047683222 0.558424728612 0.818123104424 0.063168141524 -0.039665929337
3.971533333000 0.063466964074 -0.044934497550 0.558440577445 0.826613330591 0.559222651745 0.816348749501 0.063201056070 -0.040170356647
3.971955555000 0.063192799363 -0.045141149885 0.560091237728 0.825377340367 0.560766327093 0.815918488126 0.062667998502 -0.040589062718
3.972377777000 0.063262646210 -0.045620968842 0.561269936408 0.824798011492 0.562949039187 0.815292703414 0.061866961607 -0.040181780178
3.972800000000 0.063863155656 -0.045082494157 0.563221809580 0.824235624291 0.563738464680 0.814058453755 0.063183755239 -0.040778965185
3.973222222000 0.064556632675 -0.045808336552 0.565623895604 0.822004583895 0.565268575747 0.813596872342 0.062910766469 -0.042647927649
3.973644444000 0.064305157774 -0.046190700598 0.566890305106 0.821998791020 0.567418958191 0.813346835906 0.062667331947 -0.041948180682
3.974066666000 0.063785332402 -0.045718226166 0.567531812565 0.821069330377 0.567767579079 0.812232654950 0.062841993542 -0.041442443353
3.974488888000 0.063795571130 -0.045974528958 0.569768004273 0.820571296928 0.569218303893 0.811305734596 0.062389310287 -0.041990596314
3.974911111000 0.064644577782 -0.046322973215 0.571763292103 0.818438162891 0.571632270081 0.810462338463 0.062937348949 -0.042954551437
3.975333333000 0.064450747170 -0.046033803907 0.572493615118 0.818391323883 0.572496413742 0.809889398259 0.062872553723 -0.041974386822
3.975755555000 0.065234005241 -0.046623443626 0.574621343457 0.817617703131 0.574034706853 0.810318540885 0.062185237830 -0.043245642946
3.976177777000 0.065159056079 -0.046291699063 0.576153686344 0.816029576992 0.575615521543 0.808558720554 0.063489956178 -0.042911228556
3.976600000000 0.065928494839 -0.047051251248 0.580334070542 0.814607406687 0.578408683459 0.809157825621 0.063460875926 -0.042049920184
3.977022222000 0.065951891587 -0.046721696584 0.578689447238 0.814571664732 0.578247358639 0.807898730599 0.063318084610 -0.044097501609
3.977444444000 0.065641937979 -0.046876840427 0.580037830151 0.814049701968 0.581089304445 0.806192771041 0.063124715831 -0.043960091143
3.977866666000 0.066252072923 -0.046879066183 0.582184755327 0.813299363924 0.581924134632 0.805845261656 0.063002752361 -0.043820115831
3.978288888000 0.065999887098 -0.046284658285 0.583519078366 0.812446249215 0.582269118352 0.805452082384 0.063647237791 -0.044720080696
3.978711111000 0.066185168015 -0.046962179712 0.585207381243 0.811541981619 0.584223308944 0.804608832054 0.062320659867 -0.045509672145
3.979133333000 0.067597128956 -0.047562623639 0.587662501038 0.810433019365 0.585676041657 0.804557839615 0.062745569357 -0.046391994480
3.979555555000 0.066961910493 -0.048262416531 0.588149580424 0.808904230918 0.588177145381 0.802860965999 0.061765135493 -0.045950967494
3.979977777000 0.067316833020 -0.048083172883 0.589341258315 0.807956563122 0.589068330315 0.802555822425 0.062165250539 -0.046545535567
3.980400000000 0.067172193902 -0.048010503631 0.591748161237 0.807294196994 0.589850741801 0.801595888438 0.062264758672 -0.046789477974
3.980822222000 0.067133378733 -0.048094105643 0.592638636885 0.806938569398 0.591039073989 0.799760887315 0.062684238285 -0.046841349855
3.981244444000 0.066924152818 -0.048411129684 0.594423749892 0.805000053373 0.593762142031 0.798871560940 0.062074265843 -0.046441664070
3.981666666000 0.067966949165 -0.049166080585 0.596919667883 0.804136441100 0.595201490721 0.799336763155 0.061146612029 -0.047943838910
3.982088888000 0.067852020524 -0.048411627482 0.597503572780 0.802379023279 0.595921393573 0.797729308539 0.062468881582 -0.047468522432
3.982511111000 0.067713088530 -0.048768087588 0.598117891507 0.801639282350 0.596960217251 0.796522162888 0.062006039210 -0.048044610224
3.982933333000 0.068413068809 -0.048818258583 0.600235233787 0.800739663717 0.597945973890 0.796540780610 0.062023580811 -0.048429171106
3.983355555000 0.067547510888 -0.049022840041 0.601170057997 0.799679622597 0.599198598212 0.795218876916 0.061814375692 -0.047952405753
3.983777777000 0.068558987450 -0.049874389174 0.602807485780 0.798305611960 0.601008328922 0.794627259506 0.062492136816 -0.049296986658
3.984200000000 0.068450092379 -0.048669945667 0.604452820438 0.800491705678 0.601588082342 0.794007875627 0.062368697464 -0.049006025412
3.984622222000 0.068321229604 -0.049971215775 0.605608195699 0.796905786135 0.604221625629 0.792159428149 0.061533380047 -0.049365601647
3.985044444000 0.068133539083 -0.050495322330 0.607414777912 0.795972899315 0.606149999718 0.790228325123 0.061028048849 -0.049452997924
3.985466666000 0.068942361873 -0.050102945136 0.608305830412 0.793938054743 0.606411849441 0.790044628702 0.061935406071 -0.049940097642
3.985888888000 0.069265223844 -0.050343392111 0.609793680337 0.792578691127 0.607810024678 0.789709570477 0.062141068298 -0.050270735821
3.986311111000 0.069343217920 -0.051550665643 0.611687815649 0.792249776048 0.611191335542 0.788786626684 0.061117717484 -0.051118568118
3.986733333000 0.068919076499 -0.050915940058 0.613250802240 0.790494523026 0.612519632114 0.785852598756 0.061086313181 -0.049039022582
3.987155555000 0.069455417004 -0.051793324053 0.614073803600 0.789981722694 0.613089228565 0.788257949928 0.060007102672 -0.051269437192
3.987577777000 0.070154797442 -0.051191981471 0.616976409727 0.789461254054 0.614475896467 0.786885963149 0.060790615686 -0.050303945765
3.988000000000 0.069425300636 -0.051969700599 0.617258404102 0.788386958564 0.615364243403 0.785891564832 0.060308601257 -0.051937534160
3.988422222000 0.069425915677 -0.051807135593 0.618315232547 0.786541186443 0.615374943569 0.784236869408 0.060301304078 -0.051234669219
3.988844444000 0.069795478316 -0.052825718175 0.620290413502 0.785639422908 0.618505610703 0.783464330411 0.059805001463 -0.052057522231
3.989266666000 0.070351743950 -0.053087173594 0.622979119838 0.784269793876 0.619197843333 0.783940204246 0.059346974853 -0.053070730894
3.989688888000 0.069191231544 -0.053183326826 0.622886221540 0.783963350550 0.620780643624 0.780208743155 0.059414028544 -0.053444295498
3.990111111000 0.070826359644 -0.052965658321 0.624818189713 0.783280344939 0.622009926524 0.782521110247 0.060781970918 -0.053969700187
3.990533333000 0.070199837910 -0.053543124232 0.625826070406 0.781381152765 0.622839926574 0.780017906677 0.060233218518 -0.053915216289
3.990955555000 0.069737944242 -0.053950627273 0.627324275129 0.779631625579 0.623604428231 0.777668188767 0.059637115145 -0.053917671210
3.991377777000 0.069871122710 -0.054887342165 0.628795298866 0.778619291941 0.627058769517 0.777622670833 0.058330211731 -0.054644624466
3.991800000000 0.071243199453 -0.054407378012 0.630317827998 0.777771156100 0.626625820793 0.780151501093 0.059027355735 -0.054241907044
3.992222222000 0.069980014542 -0.054979955427 0.631573006661 0.776404309317 0.627732992893 0.775364200329 0.059534273453 -0.054173918452
3.992644444000 0.070153663329 -0.055351089939 0.631942479575 0.774781943026 0.630518633530 0.773862015219 0.058194866679 -0.054470236660
3.993066666000 0.070001068773 -0.055399741592 0.632733768289 0.773962250997 0.631775073775 0.772883866325 0.058860169273 -0.053936403998
3.993488888000 0.069983000410 -0.056258644308 0.634376375371 0.773132392784 0.632509329911 0.772179850402 0.058924340634 -0.055439747911
3.993911111000 0.069651738366 -0.056761451935 0.636043954350 0.771719115448 0.634532230265 0.769910977380 0.057829939493 -0.055695686303
3.994333333000 0.070175962283 -0.057354334753 0.639266358596 0.769671456646 0.636655813355 0.770073542251 0.057638375894 -0.056159899925
3.994755555000 0.069458183758 -0.056880120738 0.639125522897 0.769152526351 0.635492270668 0.768759969093 0.057181749064 -0.056063673552
3.995177777000 0.069513930670 -0.057726132184 0.639987188270 0.766948107709 0.638934026683 0.767309833431 0.056370873318 -0.055778050059
3.995600000000 0.069424855303 -0.057778701326 0.640477680739 0.766764354564 0.638977901310 0.765594008184 0.057099430642 -0.055956859989
3.996022222000 0.070436011569 -0.058114814193 0.642490909563 0.765632636514 0.640592954883 0.766977428540 0.057193723796 -0.056891128612
3.996444444000 0.069507764335 -0.058313543151 0.643664004541 0.764276655281 0.641221408285 0.762354441420 0.057006407903 -0.056290127286
3.996866666000 0.069005131062 -0.058114691042 0.643920570796 0.764117245752 0.641053530464 0.762078848640 0.057018291194 -0.056529886174
3.997288888000 0.068919547568 -0.059278667190 0.645792630797 0.761506198916 0.645294549973 0.760297388643 0.055330390135 -0.056542817953
3.997711111000 0.069568633886 -0.059096488849 0.647349306186 0.760939911692 0.645584663881 0.760522352046 0.055767441629 -0.056812677394
3.998133333000 0.068923720672 -0.059737115601 0.648601787181 0.759158238489 0.646215091878 0.757865279742 0.055745550090 -0.056863611551
3.998555555000 0.069425606976 -0.060390493214 0.649651104269 0.758600964092 0.648850617021 0.757853597866 0.056101139915 -0.057128121866
3.998977777000 0.069117843344 -0.060473718924 0.650083001903 0.757099824905 0.649715546587 0.756769926452 0.055556006111 -0.057049322564
3.999400000000 0.070280625983 -0.060768383901 0.651453981326 0.755115498505 0.653664078979 0.756611331869 0.054346020147 -0.057081280345
3.999822222000 0.068876927779 -0.061211232636 0.652682154268 0.754886468642 0.653696965955 0.755694247316 0.054214176270 -0.058150877667
4.000244444000 0.069703534121 -0.061391508030 0.655872264318 0.753900604395 0.652670425490 0.754089016125 0.054714675089 -0.058332602833
4.000666666000 0.068864693304 -0.062465249457 0.654880275904 0.753021262330 0.656673498994 0.752162066547 0.054394250850 -0.058235294351
4.001088888000 0.067898910349 -0.061894098970 0.656792344229 0.749964343071 0.656167560213 0.749768656345 0.053043928171 -0.057795412968
4.001511111000 0.067867560893 -0.062788553170 0.657840057601 0.749860651491 0.657417712505 0.748519733656 0.053627950658 -0.058767387111
4.001933333000 0.067626384060 -0.062627567001 0.659507905096 0.749296901263 0.658672790824 0.745682914893 0.053268330379 -0.057844150482
4.002355555000 0.068283459237 -0.062277305332 0.659606929987 0.748221325970 0.659974348025 0.748121753613 0.052803821791 -0.058061050536
4.002777777000 0.067649926691 -0.063013361942 0.661570217293 0.746049132492 0.658119624568 0.744648669965 0.053412721027 -0.058152606176
4.003200000000 0.067940267039 -0.064289734528 0.661835361745 0.744918627409 0.664236304493 0.744409176434 0.052965454495 -0.058477169424
4.003622222000 0.067898592450 -0.064338278916 0.664690905896 0.744287599835 0.664914329184 0.742849468311 0.052253735418 -0.058847983305
4.004044444000 0.067156534665 -0.063474730474 0.665893928257 0.742033552369 0.663820957224 0.741148590869 0.051449619050 -0.058348566014
4.004466666000 0.068122643002 -0.063555647766 0.664447674179 0.738433734777 0.662863225604 0.743013868040 0.052678841025 -0.057590287278
4.004888888000 0.066581406963 -0.065718246197 0.666781693288 0.738826326157 0.668259996578 0.738698343570 0.051479465414 -0.059111782685
4.005311111000 0.066350467287 -0.065227136159 0.668722928619 0.737801407188 0.669758277161 0.737567532044 0.050230867610 -0.059365523519
4.005733333000 0.067842815269 -0.065172245430 0.669072266828 0.736227356399 0.670228482560 0.741151838716 0.050707694832 -0.059511631591
4.006155555000 0.066541260606 -0.065743936344 0.669194322547 0.736555974055 0.671120971110 0.736724855204 0.050991113213 -0.059775271689
4.006577777000 0.066075508476 -0.065613630764 0.670438537311 0.734358727378 0.670908340872 0.734633742825 0.050740396199 -0.058839262656
4.007000000000 0.066767041974 -0.065361409964 0.669516832240 0.733161757729 0.671639677749 0.738057950199 0.051117374272 -0.059450132441
4.007422222000 0.065397552717 -0.065720044282 0.673411941374 0.730230996556 0.673709614146 0.732559518622 0.049241182105 -0.058997951763
4.007844444000 0.065819525011 -0.066735103279 0.674758213594 0.730192324499 0.675828498503 0.731446966831 0.049590378901 -0.059457437046
4.008266666000 0.065146699687 -0.067157791202 0.674844057609 0.729133081812 0.678636073822 0.730450223711 0.048647538044 -0.059437169472
4.008688888000 0.065266048644 -0.066850554671 0.676861918546 0.728401014782 0.678495791542 0.727500356809 0.048392769924 -0.059043138810
4.009111111000 0.064506714807 -0.067392616678 0.676622943035 0.729702953229 0.681072791237 0.727198324732 0.048667966568 -0.059398192096
4.009533333000 0.064385633062 -0.067017378703 0.676808096132 0.726553888395 0.679552612840 0.724807081054 0.049098630856 -0.058990756164
4.009955555000 0.064233470207 -0.067234136346 0.679106451091 0.723975750962 0.679052390823 0.725144320786 0.048850222326 -0.059228497011
4.010377777000 0.063948113564 -0.067564316138 0.680787823509 0.723751407549 0.682222351565 0.723994592792 0.048114579339 -0.059698369715
