# GHZ S RI R 50.000000000000
3.950000000000 -0.018855086437 -0.502699345137 0.804750304913 -0.057854465210 0.790275532150 -0.052702770873 -0.016287100256 -0.499170440998
3.950422222000 -0.022043880302 -0.502364920335 0.803409423137 -0.059045350987 0.790313029512 -0.052329029809 -0.017393789423 -0.498031673616
3.950844444000 -0.023782390847 -0.502850733667 0.803907023395 -0.060523300396 0.789614619719 -0.052999879125 -0.020571277496 -0.497163575717
3.951266666000 -0.025657760452 -0.500896635125 0.802684317149 -0.061139018223 0.789805514541 -0.053681597714 -0.021080013862 -0.497928332109
3.951688888000 -0.024976923625 -0.501602351240 0.803850457032 -0.063969487736 0.789912129141 -0.053723001126 -0.023789856961 -0.496995648439
3.952111111000 -0.027276214691 -0.501140864466 0.803513927353 -0.064786305814 0.789159951973 -0.055459730339 -0.024437166849 -0.496441734074
3.952533333000 -0.027187007878 -0.500344749283 0.803012734672 -0.066673196688 0.789638172999 -0.055570170453 -0.025475663112 -0.496967289045
3.952955555000 -0.028784546347 -0.500058698241 0.803453336913 -0.067747704180 0.788837126146 -0.057042366113 -0.026770404214 -0.496202359350
3.953377777000 -0.028927366117 -0.500311315790 0.803949604317 -0.069281218987 0.789393604610 -0.058320494161 -0.028086715523 -0.496849401633
3.953800000000 -0.031425569587 -0.499491352126 0.804161768609 -0.070372084424 0.789649894160 -0.060465668505 -0.028754342807 -0.497195389277
3.954222222000 -0.030418196444 -0.499662670144 0.803596418927 -0.071851308323 0.789757008976 -0.060315326931 -0.029361747814 -0.496150468763
3.954644444000 -0.031512205743 -0.499459927629 0.802616977650 -0.072339930144 0.789971551199 -0.060963153359 -0.029334803800 -0.494955824187
3.955066666000 -0.032065090562 -0.499698561510 0.804020942109 -0.074303331927 0.789425426696 -0.063280160185 -0.031275711643 -0.495236525409
3.955488888000 -0.033482434864 -0.500244820607 0.804226634821 -0.075135700553 0.789899828932 -0.064789185800 -0.031377721639 -0.495122764402
3.955911111000 -0.033786974422 -0.499880686730 0.803625862343 -0.076150748351 0.790268616294 -0.065300869663 -0.032055185901 -0.494663434570
3.956333333000 -0.035114234854 -0.500800235406 0.805423932930 -0.076893116499 0.790550150420 -0.066964803297 -0.032072649840 -0.494599122140
3.956755555000 -0.035482336288 -0.499057352440 0.804134205810 -0.078341449358 0.790170572563 -0.067061389590 -0.032217956130 -0.494336529077
3.957177777000 -0.034845085419 -0.498802323437 0.803254919877 -0.080782647894 0.791275444081 -0.068172172291 -0.034780482799 -0.494770019830
3.957600000000 -0.036601855980 -0.497854485302 0.804467050036 -0.082141036859 0.790711481299 -0.069535351144 -0.034574244169 -0.495234500341
3.958022222000 -0.036750948089 -0.498719196378 0.804828723191 -0.083992191483 0.790613232490 -0.070123124190 -0.035121104655 -0.493795159320
3.958444444000 -0.036840682853 -0.498191259624 0.804733627152 -0.084591064171 0.791285834750 -0.072425040504 -0.037279138132 -0.494486255551
3.958866666000 -0.038659544633 -0.498245106676 0.805227456946 -0.086699880235 0.790318239089 -0.072471530708 -0.037100540853 -0.493684936343
3.959288888000 -0.039388112312 -0.498014780622 0.804238327396 -0.086928878122 0.791655088704 -0.074644520722 -0.037923993438 -0.493776477152
3.959711111000 -0.039973337762 -0.498115531510 0.805171224662 -0.089153227217 0.790901348206 -0.075163491961 -0.038416130886 -0.493099128103
3.960133333000 -0.040658532187 -0.497766836925 0.805591582865 -0.090280864067 0.790928449769 -0.076962190959 -0.039348108143 -0.493441294611
3.960555555000 -0.041018980637 -0.497864942537 0.805058114712 -0.091937654320 0.792147249725 -0.077130207854 -0.039624648942 -0.493215985058
3.960977777000 -0.042143157481 -0.497772735493 0.805518994983 -0.092851864009 0.792083359431 -0.079696458367 -0.040962072290 -0.493598594906
3.961400000000 -0.040826470275 -0.497137829922 0.804706741200 -0.095966577340 0.792231582918 -0.079733577558 -0.042258284670 -0.493800433814
3.961822222000 -0.042268749658 -0.497812823877 0.805461645685 -0.095908942654 0.792451674159 -0.080754770026 -0.042669231210 -0.492773841943
3.962244444000 -0.043066677218 -0.497872276856 0.805594257971 -0.096980769525 0.791642291294 -0.082012703650 -0.043509588233 -0.491473460396
3.962666666000 -0.043229677123 -0.496719690700 0.805856269430 -0.098301217784 0.791799183551 -0.083858819967 -0.045278941835 -0.492943124455
3.963088888000 -0.044406025897 -0.496486129403 0.806334861805 -0.100032799869 0.791944276639 -0.085034214736 -0.045498153730 -0.492927122068
3.963511111000 -0.044747680515 -0.497105898290 0.806140001011 -0.100997807693 0.793110499137 -0.086361278393 -0.046679146607 -0.493196461125
3.963933333000 -0.045182211508 -0.496849313548 0.805936643035 -0.102643031789 0.793540574584 -0.085617871857 -0.046269168627 -0.491865638690
3.964355555000 -0.046434967241 -0.496673789155 0.806503135761 -0.104091658587 0.791893727750 -0.088746348909 -0.048020842960 -0.491743971427
3.964777777000 -0.047874062227 -0.497285643241 0.806350160576 -0.105096525885 0.793615529598 -0.089528422468 -0.047988550624 -0.491588764552
3.965200000000 -0.047990901466 -0.496407066172 0.806332612679 -0.106571239830 0.793664537994 -0.091525139654 -0.049356501422 -0.492822040688
3.965622222000 -0.048998071141 -0.496910233752 0.806091239760 -0.108015366036 0.793170364099 -0.093457709040 -0.051399246294 -0.491538462208
3.966044444000 -0.049603083232 -0.495857473433 0.806501392333 -0.110312684456 0.793183441709 -0.092578316627 -0.050225886968 -0.491701631582
3.966466666000 -0.050167468776 -0.496281953114 0.806855132148 -0.110976835575 0.793439676596 -0.095585351554 -0.052600307682 -0.491483034556
3.966888888000 -0.050574555890 -0.497040569291 0.806441567770 -0.112729347270 0.794547168972 -0.095599687166 -0.052529808422 -0.490905561150
3.967311111000 -0.051041566104 -0.495679216630 0.806502367079 -0.113904224608 0.794311279846 -0.096165809367 -0.053117391985 -0.491514581898
3.967733333000 -0.052895223216 -0.495461639939 0.806631627904 -0.115041255170 0.792935952150 -0.099646647967 -0.055084176621 -0.490573310534
3.968155555000 -0.052650393990 -0.496076197947 0.806262385763 -0.117057924502 0.794336125263 -0.098590571118 -0.055009563778 -0.490412050379
3.968577777000 -0.052587413073 -0.495667563286 0.806377810168 -0.118479059956 0.793843419765 -0.100213887664 -0.056838804647 -0.490296935950
3.969000000000 -0.054027190320 -0.491805737687 0.807510796097 -0.119898993561 0.787139781899 -0.101962183992 -0.058011208239 -0.487401628982
3.969422222000 -0.054432611149 -0.495003053090 0.806455929390 -0.121054549899 0.794255894632 -0.103280501396 -0.058339641038 -0.490439491054
3.969844444000 -0.054503322762 -0.495603351776 0.806631925806 -0.122067934512 0.794385853936 -0.103674678266 -0.058800098073 -0.489367699469
3.970266666000 -0.055855757896 -0.495503328320 0.806643202709 -0.123206546460 0.795010520281 -0.105366861626 -0.059636166522 -0.489772843029
3.970688888000 -0.056493718438 -0.495439874062 0.806837932108 -0.124740014955 0.795369600899 -0.106071158099 -0.060227520872 -0.489640655955
3.971111111000 -0.057165735459 -0.495392696840 0.806556620924 -0.126241370935 0.794005633545 -0.106672588308 -0.060558818467 -0.488288752869
3.971533333000 -0.058303613655 -0.495216767827 0.806658561714 -0.127808556200 0.795088059943 -0.108451906904 -0.061488899408 -0.489129960756
3.971955555000 -0.058362996145 -0.494776255963 0.806630985067 -0.129133269381 0.795975624084 -0.109720560871 -0.062632754198 -0.489515635235
3.972377777000 -0.059544099905 -0.494685450656 0.806632970666 -0.130786735327 0.794764866885 -0.111636595819 -0.063718838646 -0.488623173525
3.972800000000 -0.059899662254 -0.494599722690 0.807010674889 -0.131984427689 0.794125145087 -0.111839902378 -0.064022604496 -0.487483165240
3.973222222000 -0.061078387617 -0.494567078467 0.806706973482 -0.133101801164 0.794782839538 -0.112937247159 -0.064543816108 -0.487869565061
3.973644444000 -0.061554223280 -0.494424588331 0.806328082834 -0.135107045523 0.795006658277 -0.115029570662 -0.066066971372 -0.487903105694
3.974066666000 -0.062490108425 -0.494266964306 0.806487536784 -0.136649962428 0.795699236967 -0.116444868574 -0.067183072920 -0.488414054679
3.974488888000 -0.063245591066 -0.494494132546 0.806603372112 -0.137039883220 0.795211829162 -0.118222952136 -0.067934680023 -0.487216841843
3.974911111000 -0.064066762949 -0.494539648627 0.805835986489 -0.138962795902 0.796631859514 -0.119206033993 -0.069004852084 -0.487637509635
3.975333333000 -0.065237959682 -0.493612296467 0.806169957851 -0.139980695321 0.795072270322 -0.120240005328 -0.068935471393 -0.486756946845
3.975755555000 -0.065059120026 -0.494921794961 0.806245963611 -0.142041307763 0.796465833213 -0.120796498665 -0.070462963736 -0.486744939043
3.976177777000 -0.066282758577 -0.494267908231 0.806384877736 -0.142997076456 0.796276595026 -0.122291950761 -0.070986158904 -0.486565141492
3.976600000000 -0.066129186788 -0.493819584593 0.806593679068 -0.143252118117 0.794859988284 -0.122518745824 -0.071046120799 -0.485272123135
3.977022222000 -0.067777094161 -0.493552394321 0.806482059901 -0.145726982107 0.795655102460 -0.123908166186 -0.071553349849 -0.485874958801
3.977444444000 -0.068153270190 -0.493955523445 0.806297587748 -0.146774459862 0.796391805683 -0.124292344250 -0.072386490093 -0.485684026263
3.977866666000 -0.067593545957 -0.493968029325 0.806855604374 -0.148806945876 0.796700710061 -0.124643259708 -0.073098846483 -0.486177130458
3.978288888000 -0.069296081121 -0.493190468180 0.806202655702 -0.150010287220 0.795734392434 -0.127331538151 -0.074560754576 -0.485634825500
3.978711111000 -0.070707899431 -0.494119447186 0.806377130927 -0.151669025011 0.797964433253 -0.128739319250 -0.075002628354 -0.486095342806
3.979133333000 -0.071758139417 -0.493604338289 0.805743900069 -0.152834055575 0.796761359300 -0.132687665606 -0.077987540564 -0.484962438579
3.979555555000 -0.071666789016 -0.492466012374 0.806195285576 -0.153674000691 0.795797097140 -0.130856438552 -0.075890038247 -0.484788349645
3.979977777000 -0.071997977519 -0.492828262688 0.806077656636 -0.155488681164 0.796928789410 -0.131627680304 -0.077222057398 -0.485039914135
3.980400000000 -0.073070907493 -0.493419299156 0.806018266223 -0.156844790565 0.797000239175 -0.133371145593 -0.078200315897 -0.484677671669
3.980822222000 -0.073467009125 -0.492594326441 0.806213796839 -0.158250974203 0.796760110635 -0.134650369875 -0.079193456733 -0.484413141285
3.981244444000 -0.075062746078 -0.492309054236 0.805750843914 -0.159088869667 0.795930805868 -0.137778928049 -0.080457582860 -0.483641450217
3.981666666000 -0.074913436822 -0.492410312956 0.805926837102 -0.160139778481 0.796709670687 -0.136921179789 -0.079999674136 -0.484140357978
3.982088888000 -0.076901944029 -0.493430758937 0.805539261405 -0.162182671467 0.797803056464 -0.139503134072 -0.081575961505 -0.483436235090
3.982511111000 -0.076760431959 -0.493223133254 0.805895072974 -0.163134492332 0.797739005675 -0.139001153699 -0.081556634309 -0.483258284985
3.982933333000 -0.077721629669 -0.492642842725 0.805778859033 -0.165260040701 0.798306063430 -0.140679924015 -0.082647415221 -0.483673522394
3.983355555000 -0.078443041290 -0.491929615236 0.805560919237 -0.166013158651 0.797597174612 -0.141935017524 -0.082753736105 -0.483325142482
3.983777777000 -0.079946395768 -0.492131523575 0.804965036239 -0.168134518151 0.798217710477 -0.145375987781 -0.085180087516 -0.482903005292
3.984200000000 -0.080889293679 -0.491173612562 0.804391080471 -0.169594082446 0.796765400479 -0.146312030375 -0.085828058383 -0.482648970551
3.984622222000 -0.080621428969 -0.492430791410 0.805484654689 -0.170724189373 0.799199659937 -0.145011453632 -0.085131598946 -0.483496824364
3.985044444000 -0.081867020808 -0.492427726435 0.805549583228 -0.171428869344 0.797756757974 -0.147416953959 -0.086339477733 -0.481945718273
3.985466666000 -0.082954945220 -0.491968833997 0.804497503591 -0.173559575084 0.798541204234 -0.149499049644 -0.087421265424 -0.482266001853
3.985888888000 -0.084664659473 -0.492048747107 0.804189984819 -0.175182785408 0.798548377129 -0.151645405673 -0.088989600131 -0.481334885890
3.986311111000 -0.084388862982 -0.491639134213 0.804709424592 -0.175704847349 0.797985223408 -0.151407300072 -0.089016565261 -0.481176854951
3.986733333000 -0.085513422955 -0.492343892153 0.805063607767 -0.178265573077 0.800438611623 -0.152423526084 -0.089679619747 -0.482350949789
3.987155555000 -0.085740070420 -0.491702951094 0.804767931840 -0.178746325278 0.799349634377 -0.152486288819 -0.088893589972 -0.481524030316
3.987577777000 -0.087646156487 -0.491389422451 0.803921368139 -0.179601819125 0.798779428574 -0.155449169740 -0.090463896593 -0.480602017427
3.988000000000 -0.087572962599 -0.491555200343 0.804385746180 -0.180546225802 0.798872723789 -0.155754467161 -0.090814511799 -0.480325842011
3.988422222000 -0.088377746807 -0.491725528875 0.804442151691 -0.182689078574 0.800314678193 -0.157406073506 -0.091866847341 -0.481414737234
3.988844444000 -0.089498185421 -0.491476353085 0.803392083526 -0.184902684358 0.799108597815 -0.159347500082 -0.093245359326 -0.479888263038
3.989266666000 -0.088614613166 -0.490764155929 0.803783821804 -0.184762989806 0.798256203505 -0.159215549365 -0.093899668823 -0.479320680386
3.989688888000 -0.091728466529 -0.490977288887 0.804301554474 -0.187641983050 0.799058855664 -0.161730756266 -0.094560119436 -0.479133165198
3.990111111000 -0.092141577286 -0.491168772595 0.804192639101 -0.189149972704 0.800013420360 -0.162808989140 -0.095359072189 -0.479976595541
3.990533333000 -0.093487449405 -0.491253235490 0.802638736334 -0.190484278635 0.800092625266 -0.166237542221 -0.097498807664 -0.478749230332
3.990955555000 -0.093959286750 -0.490818670271 0.803736582744 -0.191265337599 0.798722959065 -0.165052585200 -0.096474627479 -0.478054493228
3.991377777000 -0.094906012602 -0.490317151888 0.803368687862 -0.192804772765 0.799700427620 -0.166661912977 -0.096898333691 -0.478436711458
3.991800000000 -0.095855088417 -0.490210329630 0.802364259889 -0.192689437064 0.799235064603 -0.167572590412 -0.096673413753 -0.477211396698
3.992222222000 -0.097542636639 -0.490905825473 0.803633563406 -0.196537055925 0.800114237795 -0.169981968151 -0.098980271164 -0.477818873941
3.992644444000 -0.097364593067 -0.491047489672 0.802986264591 -0.197776349933 0.800488189602 -0.170843604295 -0.100117467247 -0.477605180485
3.993066666000 -0.097768158555 -0.490047694101 0.802708556055 -0.198699421113 0.800709185060 -0.171868803612 -0.100395914890 -0.478236426550
3.993488888000 -0.098430330673 -0.489904475715 0.802435447925 -0.199202583285 0.800029899184 -0.172740138809 -0.100532853865 -0.476758274435
3.993911111000 -0.099218909880 -0.490262149066 0.802022092700 -0.199969527286 0.799703266295 -0.174216718761 -0.101318877466 -0.475776151120
3.994333333000 -0.102900640947 -0.491413307935 0.803668648751 -0.202405266685 0.800647949868 -0.177166839797 -0.102442529086 -0.475729365797
3.994755555000 -0.102828711958 -0.489334519121 0.801449058523 -0.205215353135 0.799635399662 -0.179477898671 -0.104566083787 -0.475267785291
3.995177777000 -0.102345434771 -0.488972120461 0.801348533626 -0.204789267993 0.798966956668 -0.178839419890 -0.103945744973 -0.474960422741
3.995600000000 -0.104346303260 -0.489601104763 0.801632020592 -0.206723549322 0.800748047280 -0.180550992101 -0.104424184823 -0.475265072740
3.996022222000 -0.104994747144 -0.488713357653 0.801726753778 -0.208834889476 0.800745651702 -0.182084145513 -0.105771460575 -0.475617488929
3.996444444000 -0.106108763622 -0.489008661450 0.801767961630 -0.210795931337 0.800503461028 -0.184305534516 -0.107486787955 -0.475025156892
3.996866666000 -0.105153232131 -0.489975286986 0.801832787302 -0.210938208477 0.800966142131 -0.182364333939 -0.106301427333 -0.474954822716
3.997288888000 -0.109352052244 -0.488889501153 0.800878113359 -0.214166845766 0.801563464031 -0.188498776001 -0.109369698698 -0.474111171907
3.997711111000 -0.109538327940 -0.489402826922 0.801687581244 -0.214572490365 0.801657395254 -0.188045917574 -0.109021556461 -0.474035265322
3.998133333000 -0.110259444852 -0.488918902893 0.799825882976 -0.216841669149 0.801758537375 -0.189705997675 -0.109671103394 -0.473183041754
3.998555555000 -0.110631995034 -0.488364012418 0.800536905299 -0.216591954320 0.800656862636 -0.190482462831 -0.109966066965 -0.473563493019
3.998977777000 -0.111844781077 -0.488015752575 0.799401922894 -0.219447959551 0.801297620173 -0.192434833976 -0.111573451341 -0.472834819381
3.999400000000 -0.112667975213 -0.487569225539 0.800905173424 -0.220930398383 0.799234032022 -0.196754156303 -0.115843454479 -0.471603503606
3.999822222000 -0.113570094125 -0.487557824100 0.799970580017 -0.222324578260 0.799658132952 -0.194290452734 -0.112862341908 -0.471283483902
4.000244444000 -0.114275150946 -0.487398362605 0.798730716505 -0.222938223798 0.799847313211 -0.198378251708 -0.114907437988 -0.471010971041
4.000666666000 -0.115950836059 -0.486529649879 0.799278135927 -0.225313962204 0.800321137086 -0.197690887670 -0.113915376832 -0.471715503858
4.001088888000 -0.115970836058 -0.486795904488 0.797974054330 -0.225541731992 0.800740109589 -0.199310066349 -0.114838010381 -0.470685939735
4.001511111000 -0.117096558723 -0.486564055527 0.798486335502 -0.226734847611 0.799768910232 -0.201373068406 -0.115840777178 -0.469811615892
4.001933333000 -0.118367450917 -0.486526762289 0.798308198296 -0.228290521403 0.799837128720 -0.202136748247 -0.116690500691 -0.469355091533
4.002355555000 -0.118848927612 -0.485533862886 0.796896222461 -0.230333392302 0.800822041296 -0.203137094441 -0.116935510293 -0.470041668187
4.002777777000 -0.120838281907 -0.486220026146 0.800184321327 -0.231859608606 0.801307222821 -0.206694489576 -0.119607597434 -0.471014122504
4.003200000000 -0.122148018206 -0.484793321363 0.797930121645 -0.233389161004 0.798573410972 -0.208680518265 -0.119823143380 -0.468669815921
4.003622222000 -0.122705199070 -0.485118851050 0.797353187265 -0.235163163921 0.800280914598 -0.210110692078 -0.120478947270 -0.468626766324
4.004044444000 -0.124855612781 -0.484771403612 0.796931608449 -0.237151306156 0.800038212498 -0.212086659564 -0.121206061809 -0.468256283540
4.004466666000 -0.125628180312 -0.485892921461 0.798572928308 -0.238685124350 0.802073361532 -0.211890440089 -0.121557175056 -0.469731616346
4.004888888000 -0.125197176457 -0.484050826258 0.794781484819 -0.237424045874 0.800821241532 -0.211953703521 -0.120029678934 -0.467805416890
4.005311111000 -0.125773027718 -0.484058695905 0.796373371493 -0.239040355625 0.800624681743 -0.213440397844 -0.122037997463 -0.468289193230
4.005733333000 -0.127324230809 -0.483587199424 0.794246995998 -0.241884826901 0.800213024754 -0.215966963685 -0.123005079420 -0.466810194751
4.006155555000 -0.128487629206 -0.483647511488 0.796274181690 -0.241635545927 0.801310350303 -0.219723039895 -0.124670471944 -0.468278249041
4.006577777000 -0.129715711495 -0.483134145233 0.795716194410 -0.247103203174 0.799624918077 -0.218460224303 -0.125988330231 -0.466344188415
4.007000000000 -0.129219502342 -0.482652674584 0.791647364042 -0.239512457299 0.802949349392 -0.216496260795 -0.121852654973 -0.467806883269
4.007422222000 -0.131365045907 -0.483250563077 0.794587814182 -0.246028857318 0.801500522946 -0.222184388870 -0.125606953448 -0.467015872803
4.007844444000 -0.132005219841 -0.481499235190 0.793670927661 -0.249489134928 0.798806865307 -0.223071459637 -0.126985589430 -0.465417592882
4.008266666000 -0.133902093182 -0.481743319214 0.793269753467 -0.249413019948 0.799477670678 -0.226657026276 -0.128149575499 -0.464569482627
4.008688888000 -0.134951301515 -0.481321227703 0.791268493373 -0.250771039950 0.801635170049 -0.227609424354 -0.128159607613 -0.465458569328
4.009111111000 -0.135658823511 -0.480604261017 0.793985553529 -0.252330832307 0.797836618579 -0.228048338396 -0.127932901072 -0.464416718079
