# GHZ S RI R 50.000000000000
3.950000000000 -0.036698306454 0.007240396199 0.377915711180 0.912906460734 0.359488283277 0.911853290223 -0.037163845695 0.030717483736
3.950422222000 -0.037333912247 0.005880169727 0.379267369653 0.906973175439 0.361727208634 0.910237846632 -0.036236919184 0.029838746211
3.950844444000 -0.037862907275 0.005445191827 0.378484501138 0.910216023150 0.362393399851 0.910741196088 -0.038315917919 0.030920268829
3.951266666000 -0.038794943459 0.004788516032 0.377705072170 0.908237865634 0.362576616042 0.908861831778 -0.038522457828 0.030632777906
3.951688888000 -0.038488411992 0.006102288689 0.381076894777 0.908932716704 0.364227323931 0.909881126777 -0.037278636807 0.030797181136
3.952111111000 -0.039963483562 0.005709981976 0.381454908511 0.907746830531 0.365291874541 0.909741403037 -0.038613957517 0.031650192833
3.952533333000 -0.039542090242 0.006355207542 0.382442471732 0.907011250799 0.365421877992 0.908889510649 -0.037515004755 0.030950469076
3.952955555000 -0.040478773452 0.006812583265 0.381477660311 0.907961659395 0.366208443656 0.908416683280 -0.037791237638 0.031940772632
3.953377777000 -0.040345923749 0.007462164128 0.386480413867 0.906994823310 0.368985748278 0.910044575827 -0.036787859029 0.032993733818
3.953800000000 -0.041225133630 0.006108593612 0.384656289231 0.905949671987 0.370867072648 0.907374601083 -0.037269672892 0.032180464892
3.954222222000 -0.040502296193 0.006880573033 0.388897269289 0.907202962929 0.370486191789 0.907933837595 -0.037115072507 0.032823783317
3.954644444000 -0.040805849942 0.006870974656 0.386092999155 0.906640792423 0.371574869810 0.907059423774 -0.037331026170 0.033035346397
3.955066666000 -0.040425893436 0.008148044649 0.391989391736 0.906769248038 0.374629276712 0.908243489056 -0.036194035175 0.033827917734
3.955488888000 -0.041232915796 0.007287558003 0.389658182606 0.908095876929 0.373546581251 0.906216420211 -0.037322164252 0.033312855698
3.955911111000 -0.040045289580 0.007647552442 0.392194643456 0.905886761395 0.377755552031 0.906360890213 -0.035773654605 0.033644106488
3.956333333000 -0.041790119893 0.008756404221 0.393011306385 0.908488202525 0.377267799045 0.910409429967 -0.037375294505 0.034692906795
3.956755555000 -0.041141015510 0.009001495422 0.397447645590 0.906792351366 0.376763398166 0.907907343840 -0.036005639266 0.034504209765
3.957177777000 -0.040806378278 0.009446044874 0.396642176078 0.903189525856 0.379695887518 0.907736438265 -0.035441493418 0.034237554323
3.957600000000 -0.041214234198 0.009141186371 0.399158640852 0.904142917786 0.381099885793 0.905254847926 -0.034771476337 0.034076804877
3.958022222000 -0.041569185947 0.009998567409 0.399674714891 0.904086664120 0.382170557562 0.906280874775 -0.035619445703 0.034943567921
3.958444444000 -0.041620556500 0.011191702673 0.399987122655 0.907842756939 0.385702537891 0.908105409570 -0.035581247615 0.036866329065
3.958866666000 -0.041691053362 0.009932462949 0.403970487372 0.902394458839 0.383724768202 0.906003557268 -0.034667535673 0.035034688802
3.959288888000 -0.041726275422 0.010548335541 0.403078995651 0.904342745577 0.387432717386 0.906167148874 -0.034080446460 0.035998701390
3.959711111000 -0.042009656665 0.010854014543 0.405078120979 0.904471765830 0.387442121571 0.905062165561 -0.034594532893 0.035885326134
3.960133333000 -0.041473081927 0.011451562153 0.407465876216 0.904260413955 0.391025420244 0.905290194529 -0.034063659089 0.036079179159
3.960555555000 -0.040489621563 0.012059712635 0.409626342178 0.902806227702 0.392267029200 0.906103780283 -0.033254880425 0.036068119201
3.960977777000 -0.041673423953 0.012245565674 0.409044891478 0.904690787093 0.392333721770 0.905199958838 -0.033984237165 0.036265162708
3.961400000000 -0.041285458039 0.013548005891 0.414394342789 0.904371867143 0.392979227378 0.904358475859 -0.034033632915 0.036926380890
3.961822222000 -0.041397208368 0.012667692467 0.412689443319 0.903204461090 0.394543168338 0.905091702017 -0.033886871222 0.036444771542
3.962244444000 -0.040873941499 0.013341508483 0.416196059812 0.902171065384 0.396237349449 0.905478809015 -0.032752925891 0.036882598599
3.962666666000 -0.040950779540 0.014266566544 0.417566545132 0.902940002969 0.397867188690 0.904911692365 -0.032493346400 0.037171153856
3.963088888000 -0.040871895086 0.013993894858 0.419122976521 0.902460278483 0.400146133462 0.904074277364 -0.032531119455 0.037209458113
3.963511111000 -0.041041555944 0.013586235481 0.418457739260 0.902140794839 0.400634268073 0.903089058457 -0.032095356098 0.036646125731
3.963933333000 -0.041207028870 0.014461067544 0.420318485252 0.901759779525 0.402205580581 0.905997625653 -0.032265936889 0.037758259566
3.964355555000 -0.040819346522 0.015249278182 0.423936717298 0.902279628502 0.404411134328 0.903255993055 -0.031372677170 0.038109838331
3.964777777000 -0.040723252381 0.014634810782 0.425033069847 0.902152901496 0.406689885228 0.905604950180 -0.032279445596 0.038192107684
3.965200000000 -0.040669285678 0.015166063607 0.426028639983 0.900530447693 0.407537521860 0.903240437899 -0.031254278997 0.038015032221
3.965622222000 -0.040574634630 0.015432210015 0.427378762851 0.899538348746 0.409409001347 0.903329864221 -0.030452112254 0.038126372097
3.966044444000 -0.041002901338 0.016266102027 0.427920088020 0.900304580121 0.409949983398 0.901844671376 -0.030882898268 0.038616371147
3.966466666000 -0.040514120037 0.015933064350 0.429536977357 0.900084397034 0.412893106916 0.901234698232 -0.030595851251 0.037732220528
3.966888888000 -0.040843440507 0.016952694344 0.431336479655 0.900163108986 0.413211651815 0.902423971045 -0.030414950285 0.038619077917
3.967311111000 -0.039675672665 0.016985462690 0.435096428888 0.899773655657 0.415477645505 0.902888149058 -0.029756800580 0.038844756801
3.967733333000 -0.040000161464 0.017088817398 0.435827562142 0.898606688790 0.416960980207 0.901671780091 -0.029569154057 0.038815933803
3.968155555000 -0.040200626214 0.017651666403 0.436707399441 0.897613700244 0.416479905428 0.902570794295 -0.029558666450 0.038473419231
3.968577777000 -0.040023170776 0.017666844887 0.437485313560 0.897846256391 0.417914337597 0.900198622085 -0.029400758785 0.038296901630
3.969000000000 -0.039767789146 0.017615603303 0.440630447917 0.892785758673 0.421449727201 0.893889390226 -0.028278892303 0.038252228670
3.969422222000 -0.039788931578 0.018276656632 0.441881887478 0.896811045561 0.422235118708 0.901136092792 -0.029553141419 0.038976128238
3.969844444000 -0.038328598748 0.018734828830 0.445815589115 0.895968532801 0.423220575585 0.900191357778 -0.028423403495 0.037815564645
3.970266666000 -0.038358892224 0.018926851257 0.446274694277 0.896972258148 0.426640657396 0.900618910690 -0.027945400847 0.039021855660
3.970688888000 -0.038306782129 0.018881427102 0.448261072983 0.895749001031 0.427174918521 0.900879274023 -0.028015021225 0.038462085384
3.971111111000 -0.038781725060 0.019416094718 0.448040860817 0.895131183436 0.427565935325 0.899856613365 -0.028150819966 0.038527230269
3.971533333000 -0.038727514233 0.018642735796 0.449426213935 0.893194717524 0.430462542604 0.898683489163 -0.028102606473 0.038952578760
3.971955555000 -0.037978100098 0.019559901979 0.451955098714 0.893021942785 0.432708866525 0.899304153844 -0.027238122049 0.038534798826
3.972377777000 -0.038171738420 0.019711453803 0.454085197946 0.892528554259 0.433651675114 0.897600908809 -0.027827756351 0.038847323916
3.972800000000 -0.038216145286 0.019633665581 0.454411982486 0.891946057226 0.434825134881 0.896890311955 -0.027368017440 0.038703538510
3.973222222000 -0.036990740152 0.019424302982 0.456180581903 0.890003792207 0.437027307470 0.897538987167 -0.026335936188 0.037623190836
3.973644444000 -0.037747041476 0.020363716751 0.457705171104 0.891387774627 0.437365721862 0.896787781815 -0.027273721861 0.038600367048
3.974066666000 -0.037798107135 0.021085965103 0.460521866579 0.892302489195 0.439903407283 0.896601709849 -0.027014023841 0.040020016813
3.974488888000 -0.036947080246 0.020707320459 0.462382242151 0.890714872275 0.442340230268 0.895675835649 -0.026238572436 0.038654333145
3.974911111000 -0.036326615993 0.020845283688 0.465027826426 0.890022942499 0.444149085676 0.896878294054 -0.025573186981 0.038429074292
3.975333333000 -0.036590759029 0.020992833994 0.465228002669 0.889084831713 0.445121473728 0.894393037118 -0.025525665837 0.038515798243
3.975755555000 -0.035841994158 0.020933220349 0.467204767214 0.887844950283 0.446374077589 0.895560167019 -0.025672449331 0.038203173819
3.976177777000 -0.036386820269 0.021089505853 0.467530353866 0.887861516596 0.448482354844 0.894674952146 -0.025446312296 0.038281449541
3.976600000000 -0.034664555975 0.021539576348 0.473203377365 0.886044391339 0.449144330343 0.893603603589 -0.024333882230 0.036867123606
3.977022222000 -0.035559976228 0.021649165100 0.471781080535 0.886452481906 0.451889486421 0.892437415408 -0.024859809881 0.038234551730
3.977444444000 -0.034767448666 0.022139751157 0.475440856798 0.886534499158 0.453219010638 0.894994580657 -0.024617998577 0.038173119679
3.977866666000 -0.034673113171 0.022323743965 0.476133591422 0.885702003499 0.453102743211 0.893070505618 -0.024096777552 0.038062030971
3.978288888000 -0.034947529855 0.022247680768 0.477084729276 0.884291548253 0.455690191496 0.891528955208 -0.023994414044 0.038040282898
3.978711111000 -0.034343125005 0.021638387074 0.478761714938 0.882853880304 0.458308971486 0.891447266842 -0.024280394306 0.037689514876
3.979133333000 -0.033728167013 0.021692055783 0.481781901780 0.882136367851 0.461259328564 0.890755108006 -0.023801783351 0.036826360096
3.979555555000 -0.033625937788 0.023032586209 0.482675015828 0.882060744856 0.461563059577 0.889259435092 -0.023314350875 0.037895976259
3.979977777000 -0.033657885516 0.022780134574 0.483465804204 0.882213653180 0.462520999187 0.889884495851 -0.023332322123 0.037690497589
3.980400000000 -0.032812621236 0.022514875496 0.487029699634 0.880781354984 0.463731176593 0.889468439785 -0.023107825893 0.036450277012
3.980822222000 -0.033534452959 0.022801526047 0.486357377540 0.880273967894 0.465466805052 0.887703559818 -0.023047394473 0.037514995898
3.981244444000 -0.033489550873 0.022008410983 0.486991311139 0.878018499916 0.468955869344 0.886247599520 -0.023563152704 0.037047388349
3.981666666000 -0.032560992919 0.022886091132 0.490060537704 0.877492465813 0.468130608240 0.886808330091 -0.022859061377 0.036385276521
3.982088888000 -0.032208796411 0.022595170568 0.491749268289 0.877114947125 0.471968329086 0.888007056299 -0.023105298473 0.036622441380
3.982511111000 -0.032306086904 0.022935646336 0.492728402917 0.877427778573 0.472381578660 0.887306287309 -0.022583715273 0.036832591225
3.982933333000 -0.031870970522 0.023009143660 0.495419386937 0.875323537973 0.474712388198 0.885463921727 -0.022519170356 0.036145543648
3.983355555000 -0.031096515668 0.022991875613 0.496739266899 0.874405412311 0.476293159303 0.883818469583 -0.022235031145 0.036684734346
3.983777777000 -0.031970121346 0.022879626536 0.498353245728 0.874136133848 0.478711771557 0.883408186769 -0.022535701429 0.035926329627
3.984200000000 -0.031668024166 0.023776565147 0.500060608679 0.873389237154 0.478106453990 0.881595230610 -0.021829190094 0.036598694828
3.984622222000 -0.031428299394 0.023026638516 0.500866652141 0.872595162277 0.479797461179 0.882722006199 -0.022147917827 0.035565388332
3.985044444000 -0.030807149908 0.022542158319 0.502928040142 0.871741786053 0.483228291230 0.881973256508 -0.022363990652 0.034836094955
3.985466666000 -0.031036092074 0.022997659600 0.502443866478 0.870273748149 0.483575626424 0.881116671525 -0.022683734897 0.035744703136
3.985888888000 -0.030385665939 0.022132370992 0.505194795126 0.867005635586 0.486688476760 0.880474144669 -0.022820441662 0.035987089215
3.986311111000 -0.030035961816 0.023304005863 0.507069871718 0.868655766961 0.486873240247 0.880548165253 -0.021666458539 0.035414650572
3.986733333000 -0.030163406672 0.022569275239 0.509259925554 0.866642490749 0.490012766483 0.878991688437 -0.022501061109 0.035005386957
3.987155555000 -0.029615322949 0.023087510585 0.510433047016 0.866960025456 0.490521946259 0.877854373039 -0.021365619920 0.034588334576
3.987577777000 -0.029662268436 0.022479699478 0.512344845161 0.864678253818 0.493359427485 0.876540662253 -0.022414394301 0.034640358410
3.988000000000 -0.028906874328 0.022549683853 0.513990307954 0.864014411795 0.494583122476 0.876725996086 -0.021999984229 0.033971266624
3.988422222000 -0.029085236015 0.023198377930 0.515067395202 0.864273091437 0.494782995403 0.876166117997 -0.021695640858 0.034408218770
3.988844444000 -0.028898771692 0.022496058063 0.516153613894 0.862816314157 0.496875329299 0.875870827708 -0.022206253541 0.033764398664
3.989266666000 -0.028375077415 0.022321892183 0.518404242654 0.862259774224 0.498029827324 0.874986281941 -0.020957539322 0.033525375862
3.989688888000 -0.028368849851 0.022051450378 0.520137017942 0.859979495214 0.501624754665 0.872567293126 -0.022177365609 0.033814709320
3.990111111000 -0.028430269888 0.022307732187 0.520947428655 0.860590789076 0.501309197757 0.872915848510 -0.021559885498 0.033261033341
3.990533333000 -0.028374301536 0.022381375019 0.522644639123 0.858513180816 0.504653728897 0.871346001838 -0.022561854695 0.033723824865
3.990955555000 -0.028249594682 0.021930932019 0.524531318855 0.857599069294 0.505347968984 0.870801553251 -0.021665033473 0.033685973735
3.991377777000 -0.028305006733 0.022042486685 0.524696082800 0.856588209615 0.507118475733 0.868695010149 -0.021497467665 0.033435407186
3.991800000000 -0.027374835755 0.021545607266 0.526669196612 0.856502645590 0.510241326179 0.870247862908 -0.021053384808 0.032580593565
3.992222222000 -0.028045587537 0.021503445672 0.528865546219 0.854685558337 0.511811925768 0.867685446351 -0.022890315725 0.032480646500
3.992644444000 -0.026688407648 0.021678153271 0.531664768376 0.853905952019 0.512047320746 0.868067995641 -0.021585376316 0.031730119985
3.993066666000 -0.027397102374 0.022147492986 0.531335109235 0.853213347004 0.511936219444 0.866429999028 -0.021944280045 0.032248047009
3.993488888000 -0.026692991981 0.021413772694 0.532386049244 0.851267862730 0.515197884511 0.865379523888 -0.021664280786 0.032364211033
3.993911111000 -0.026655444584 0.021637289371 0.533836260047 0.850473315826 0.516424618417 0.865110025512 -0.022050611281 0.032025876319
3.994333333000 -0.027529822187 0.020640984635 0.537793549762 0.849577426464 0.522105266404 0.862636383612 -0.023404170939 0.031096404037
3.994755555000 -0.026584009248 0.021618528738 0.538227114110 0.847945893789 0.519782718336 0.862103238851 -0.022831295149 0.031912747248
3.995177777000 -0.026565412226 0.021234700903 0.538384509570 0.847994259868 0.520994581967 0.862009996679 -0.022176106566 0.031632323085
3.995600000000 -0.026249204782 0.021071286692 0.539690211067 0.846142448323 0.523589343666 0.862056778081 -0.022408116171 0.031888907059
3.996022222000 -0.026684967553 0.021116276986 0.541102220019 0.845497354456 0.523919398296 0.859233724613 -0.022621261414 0.031549269798
3.996444444000 -0.026417953997 0.020895072076 0.543276361516 0.844447227319 0.525885870371 0.858651677874 -0.023120148318 0.031401686130
3.996866666000 -0.025511222185 0.021815925686 0.544776305650 0.844792541399 0.525100797925 0.859836088791 -0.022055561093 0.030714075284
3.997288888000 -0.025355660621 0.020623527601 0.546806883179 0.841611617109 0.529767877890 0.857388078323 -0.022823814460 0.030898681403
3.997711111000 -0.026025291436 0.020325922776 0.547144214393 0.841115989537 0.532624854245 0.856378000632 -0.023201595826 0.031147206896
3.998133333000 -0.026186384912 0.020216915926 0.548105421641 0.839147654627 0.532872756730 0.854620245496 -0.023512900006 0.030318653788
3.998555555000 -0.025940608644 0.020767880784 0.549739341332 0.839513908343 0.532886134644 0.854195991038 -0.023289421429 0.030875588718
3.998977777000 -0.025324035620 0.020145017625 0.551660083173 0.837825569270 0.535583934599 0.853745685999 -0.022994704872 0.030574875635
3.999400000000 -0.025783112490 0.019092233442 0.554165528334 0.836929905723 0.537412324015 0.848358253879 -0.023115033961 0.031133303188
3.999822222000 -0.025590607699 0.020408554605 0.554674795946 0.836254067263 0.537283539023 0.851888536007 -0.023036230991 0.030306374232
4.000244444000 -0.025302626703 0.020132818066 0.555530838475 0.835217655607 0.538948351644 0.850575079692 -0.023656479813 0.029835902728
4.000666666000 -0.025186704055 0.020092746509 0.556695900355 0.833595499832 0.540368002284 0.849953150241 -0.023751434187 0.029958489009
4.001088888000 -0.025612521351 0.019626348409 0.557586267116 0.832804350706 0.541656856356 0.848115803236 -0.023494134229 0.029976804522
4.001511111000 -0.024830739491 0.019662018303 0.558076012193 0.831989661219 0.544300868943 0.848534780544 -0.023223124005 0.030249643718
4.001933333000 -0.024845619539 0.020015675458 0.560661369539 0.830272694091 0.545060034748 0.847045066996 -0.023528952095 0.030501385063
4.002355555000 -0.025712810334 0.019175349097 0.561218130126 0.828607442582 0.545565374669 0.845543044246 -0.023907738960 0.029340476378
4.002777777000 -0.024641652228 0.019240630894 0.564098487548 0.829183992984 0.549856699208 0.845031139760 -0.023779463670 0.029461676724
4.003200000000 -0.025524290180 0.019941153546 0.564728209298 0.828171164539 0.549067736746 0.841350413480 -0.024620806921 0.030605024591
4.003622222000 -0.025670524830 0.018816505594 0.565415765634 0.826157845434 0.551644636725 0.841023096516 -0.024340999325 0.029055146127
4.004044444000 -0.025282610258 0.018901118691 0.567160019282 0.825393931553 0.555258758059 0.840765046185 -0.025132284021 0.029536653291
4.004466666000 -0.025674466574 0.019222216741 0.569267046333 0.824681229257 0.554567493218 0.839292363660 -0.025238067881 0.029119527189
4.004888888000 -0.024635334078 0.019090560551 0.568232515276 0.822593541930 0.554460528043 0.841171198130 -0.023915275871 0.029766441553
4.005311111000 -0.025074508802 0.019593347250 0.570122361482 0.820977698920 0.553599600604 0.838690188145 -0.024152131799 0.029967649941
4.005733333000 -0.025747488934 0.019411705977 0.571301967877 0.820426464057 0.557157304998 0.835101261649 -0.025274032441 0.030072161519
4.006155555000 -0.025662274829 0.018841580285 0.572065973277 0.821510182567 0.560317463615 0.836488404683 -0.024593225146 0.029434059364
4.006577777000 -0.025848867573 0.019422753822 0.575159659615 0.817976451040 0.559024937616 0.833651435175 -0.025751639006 0.030276473108
4.007000000000 -0.025503341698 0.020062607699 0.572379718886 0.814459275507 0.552783085102 0.833450395896 -0.023357525875 0.032643488688
4.007422222000 -0.025594787149 0.018845712873 0.575772703604 0.817119116211 0.562851164790 0.834512097608 -0.024873800952 0.029319505467
4.007844444000 -0.025970092703 0.018746113988 0.578421984938 0.815153635544 0.563853472122 0.830543387709 -0.025546686441 0.029468034906
4.008266666000 -0.025830020887 0.018670622969 0.578111461849 0.813628588867 0.566194949134 0.829475253924 -0.025486728160 0.030343438232
4.008688888000 -0.025750782620 0.018514548764 0.578841540343 0.811310785014 0.567848476269 0.830104356304 -0.026190342671 0.029686581174
4.009111111000 -0.026235042772 0.018989770390 0.581010412021 0.812983599091 0.567453489931 0.827459751012 -0.025307199690 0.029307945793
4.009533333000 -0.025638249013 0.019006211830 0.583010004991 0.810602058333 0.568267412819 0.828302027759 -0.025722628921 0.029419679117
4.009955555000 -0.026695865269 0.019059659677 0.584207840867 0.810269950079 0.570782830173 0.824892609260 -0.026560970043 0.029204071733
4.010377777000 -0.027466519165 0.018782790730 0.584644887011 0.809245943387 0.571533389338 0.821357222753 -0.026399623257 0.029632963886
4.010800000000 -0.027124700750 0.017576121268 0.584036252553 0.807717082118 0.575257275154 0.821992333389 -0.026564118323 0.029688226695
