# GHZ S RI R 50.000000000000
3.950000000000 -0.040966567282 0.005209452435 0.366891335715 0.915471578603 0.363492550583 0.909998412589 -0.036195032091 0.028957232443
3.950422222000 -0.041753458700 0.004797919864 0.368094458214 0.913519155005 0.363272719862 0.909887160692 -0.036397110119 0.029461304274
3.950844444000 -0.041847841181 0.004031545687 0.369987791129 0.911966734144 0.363920459863 0.910615369056 -0.038132795671 0.030076675115
3.951266666000 -0.041791422291 0.003978283939 0.372634263753 0.912281350488 0.364783524967 0.908321924796 -0.037613393260 0.030742045141
3.951688888000 -0.042112879931 0.005608818023 0.375294193169 0.912779919075 0.364958748915 0.911708379120 -0.037496007965 0.031218593739
3.952111111000 -0.043003212939 0.005123612689 0.377204775975 0.911629357047 0.366295149560 0.909886076062 -0.037998127514 0.032011149420
3.952533333000 -0.042221790054 0.005895238477 0.381805174974 0.911038478258 0.365779011500 0.910007507070 -0.036509209270 0.031648305122
3.952955555000 -0.043053678021 0.005974044311 0.379999148550 0.908638439379 0.367409792991 0.908709222425 -0.036729557459 0.031827082372
3.953377777000 -0.043473181578 0.006604268483 0.382058809442 0.909938911292 0.369229289893 0.909438022208 -0.036062860901 0.033210382268
3.953800000000 -0.044264328490 0.006461440599 0.383107804647 0.911162454493 0.370680223953 0.910459093241 -0.037046308482 0.033419321866
3.954222222000 -0.043691473535 0.006047803069 0.385134397776 0.910388473880 0.369843600231 0.907253399866 -0.036489721462 0.032803547777
3.954644444000 -0.043238705759 0.006531344314 0.385461949057 0.910327626494 0.373072381725 0.907845858995 -0.035911591447 0.034048603952
3.955066666000 -0.043342564974 0.007335150887 0.388376684164 0.908504784824 0.375750718514 0.907319613197 -0.035138668992 0.033947434657
3.955488888000 -0.044375014849 0.006786293236 0.385639153664 0.908717764723 0.374890213185 0.907405788645 -0.037085035921 0.033823410909
3.955911111000 -0.043364696896 0.007531125617 0.390024964737 0.908362449785 0.376904119677 0.909120041536 -0.035976542385 0.033959684933
3.956333333000 -0.043740477816 0.007249795416 0.391765915841 0.907581837864 0.380236418596 0.907727899676 -0.034993821582 0.034703846655
3.956755555000 -0.044254727744 0.008597310654 0.392413235664 0.907291728997 0.379123362050 0.909347893540 -0.035916179998 0.035283585933
3.957177777000 -0.043762748724 0.009656931379 0.394793800184 0.907723124287 0.380789555708 0.909689762692 -0.034859897193 0.035645379248
3.957600000000 -0.044117696940 0.009116139647 0.397164562557 0.907382240359 0.382192055536 0.907134194782 -0.034159732995 0.035236223513
3.958022222000 -0.044096290575 0.009544753763 0.399294829609 0.907851786990 0.383077341787 0.905520202129 -0.033773645483 0.035608778302
3.958444444000 -0.044322842169 0.010047504010 0.399632861860 0.907260531919 0.385610592911 0.907437913454 -0.034039481842 0.036229865537
3.958866666000 -0.044890484718 0.010450297070 0.402632382080 0.908214522422 0.383059181998 0.908303482640 -0.034424968695 0.036283499859
3.959288888000 -0.044878506846 0.009943572968 0.400551425818 0.908306355791 0.386798617483 0.905151852012 -0.032845528754 0.036451488051
3.959711111000 -0.044031965946 0.010630504665 0.405837707009 0.906833928646 0.389692142631 0.905594914981 -0.032787022600 0.036954374586
3.960133333000 -0.044331319459 0.011179295510 0.406181280945 0.907263708875 0.391889115774 0.905853182452 -0.032883444758 0.037099392428
3.960555555000 -0.043590231646 0.011397557774 0.406100076295 0.903700569802 0.393759003340 0.906459988055 -0.032451670257 0.036611075267
3.960977777000 -0.044283839899 0.012220555110 0.409104796243 0.906923167164 0.393686290221 0.906801941732 -0.032792676618 0.037111916137
3.961400000000 -0.044235792181 0.012292118817 0.410763759737 0.902673090154 0.395021955385 0.903633107880 -0.033071918727 0.036966876802
3.961822222000 -0.044610871520 0.012700265700 0.410175650794 0.906622520451 0.395086977651 0.906547179054 -0.033349945377 0.037359853388
3.962244444000 -0.044293912273 0.012966966684 0.411824619057 0.904474727541 0.397431159067 0.905765008866 -0.032124432858 0.037662068851
3.962666666000 -0.044074860543 0.013692504318 0.414733262834 0.904139975709 0.399210406863 0.904966910560 -0.031433110041 0.037876297887
3.963088888000 -0.044100410858 0.013686649163 0.416051744807 0.904529211864 0.401101961710 0.904790611671 -0.031819761843 0.037990105529
3.963511111000 -0.044169955422 0.013644975224 0.416368069357 0.904809517657 0.401626236429 0.904757880781 -0.031517198073 0.037800006141
3.963933333000 -0.043702748000 0.014287409608 0.419558765378 0.904010319462 0.404604513902 0.906612075247 -0.030793462476 0.038831446765
3.964355555000 -0.044424450572 0.014925317462 0.420353816062 0.904751704756 0.404453623893 0.903732017822 -0.030821251123 0.038690186253
3.964777777000 -0.043742437664 0.014720643459 0.423935293210 0.904968590884 0.408141782600 0.906826641334 -0.031288515104 0.039452660602
3.965200000000 -0.044179314899 0.015279979322 0.423610458748 0.903435776573 0.407389612698 0.904614552729 -0.030598150146 0.038959197779
3.965622222000 -0.044291857897 0.015547058455 0.424120849302 0.903407201950 0.409408213744 0.904379153323 -0.029968380049 0.039216253990
3.966044444000 -0.043778075106 0.016559658697 0.428088221086 0.903279904528 0.410877667512 0.903677845607 -0.029687272025 0.039650539251
3.966466666000 -0.043427122775 0.016089299086 0.429806612759 0.902590940634 0.413286543259 0.902714456081 -0.029242974256 0.038355245325
3.966888888000 -0.044155692091 0.016865412972 0.429206195383 0.902204260719 0.414032275693 0.903797190135 -0.029649147125 0.039595839862
3.967311111000 -0.043062283016 0.016977457150 0.433013514182 0.901251553075 0.415606136784 0.904719057210 -0.029376187346 0.039528442451
3.967733333000 -0.043141873370 0.016904357078 0.434004845456 0.899940674694 0.418254680898 0.902387563912 -0.028560056088 0.039730840123
3.968155555000 -0.043210278985 0.018162955186 0.436193808466 0.901586325690 0.417178354011 0.904157203126 -0.028388613269 0.039880986515
3.968577777000 -0.043267089966 0.017931261365 0.436102946655 0.900713925404 0.418433327929 0.901481468253 -0.028466192650 0.039259154556
3.969000000000 -0.042914365583 0.017934173013 0.439934426523 0.895468598871 0.421842390908 0.895474932891 -0.027351364304 0.039280782950
3.969422222000 -0.042768670386 0.018350248352 0.441310186059 0.898905249635 0.423102145445 0.902190630013 -0.028259182128 0.039825603657
3.969844444000 -0.041988608719 0.018956539527 0.441920971413 0.899128404427 0.424646662278 0.901512001820 -0.027853666790 0.039510136000
3.970266666000 -0.041585306435 0.019045367502 0.444834826668 0.898649400482 0.427181962519 0.902405958222 -0.027223265715 0.039854473230
3.970688888000 -0.041816086840 0.018491611669 0.444734256051 0.897464757754 0.428456763036 0.900973026794 -0.026895757655 0.039801462628
3.971111111000 -0.041699636481 0.018901420723 0.446551454636 0.895638829222 0.429217064709 0.900096894155 -0.026817505342 0.039219021536
3.971533333000 -0.042373567553 0.019094439205 0.447185003089 0.897565379545 0.430995430544 0.899301096602 -0.026633356126 0.040530818793
3.971955555000 -0.041256168082 0.019510033334 0.449951797123 0.895480424127 0.433675772754 0.899622322282 -0.025854849454 0.039885994798
3.972377777000 -0.041995763086 0.019539242152 0.450080351029 0.895225786392 0.434783457148 0.897545373125 -0.026684351580 0.040237464228
3.972800000000 -0.041096887738 0.020312944199 0.454507405294 0.895660647193 0.435792648775 0.897929821429 -0.025823756416 0.039875657055
3.973222222000 -0.040791409256 0.020326842512 0.454226777853 0.894903484375 0.436883051441 0.898865633338 -0.025032827146 0.039020479174
3.973644444000 -0.041066897705 0.020155939677 0.455711638804 0.893042826689 0.438062429140 0.897308639465 -0.026185735485 0.039417140943
3.974066666000 -0.041624515776 0.020351875591 0.455952474643 0.892406009591 0.440859901613 0.896741225188 -0.026288845581 0.041069751014
3.974488888000 -0.040683552058 0.020644579468 0.458908724696 0.892449254343 0.443024519285 0.896351207464 -0.025441434682 0.039757145575
3.974911111000 -0.040553959890 0.020975200482 0.460668442597 0.893126417203 0.444550769225 0.897303083365 -0.024662365750 0.040090127205
3.975333333000 -0.040296395827 0.021212386688 0.462396221815 0.891895082632 0.445974482394 0.895555280414 -0.024593089179 0.040022366555
3.975755555000 -0.039591594788 0.021544371846 0.464966229501 0.891413963270 0.446900467465 0.896692399127 -0.024526089948 0.039565304442
3.976177777000 -0.039278313780 0.021825782028 0.467581530861 0.890805537881 0.449589561478 0.896418478948 -0.024322351943 0.039580826436
3.976600000000 -0.039030618363 0.021965083721 0.468341278074 0.890368117167 0.449734142308 0.894126198929 -0.023177192195 0.038638732220
3.977022222000 -0.039208169282 0.021720081794 0.469023642443 0.888569705516 0.452487949266 0.893432602415 -0.024017633332 0.039570548886
3.977444444000 -0.038506007371 0.021846783824 0.472066911623 0.887594868207 0.453688028388 0.895684347397 -0.023630739981 0.039528501416
3.977866666000 -0.038460755304 0.022793931831 0.473345589826 0.888747599808 0.453777210442 0.894347980688 -0.023202635499 0.039435477848
3.978288888000 -0.038168840891 0.022128664832 0.474687512650 0.885296712212 0.456564722891 0.892621484972 -0.023467327026 0.039435001615
3.978711111000 -0.037955349294 0.021937475651 0.476226497394 0.885084429359 0.459170475756 0.892477445153 -0.023388911791 0.039195522832
3.979133333000 -0.037451792483 0.022155804255 0.479541004953 0.885193278389 0.461706918548 0.891588610212 -0.022568157875 0.038003840844
3.979555555000 -0.037215304345 0.023109118904 0.480060127979 0.883634691152 0.462062807124 0.890274917197 -0.022532556444 0.039344206597
3.979977777000 -0.036593964991 0.022530778611 0.482322323082 0.882674843941 0.463723891604 0.890599795462 -0.022345919142 0.039047717953
3.980400000000 -0.036515228855 0.022332462856 0.483252776887 0.881863246101 0.464395181940 0.890281371661 -0.022385196944 0.037744690345
3.980822222000 -0.036735924419 0.022622396898 0.484046305702 0.880716964908 0.466513674343 0.888612909495 -0.022099781561 0.038672011611
3.981244444000 -0.037094515091 0.023008869794 0.485794164197 0.881700348136 0.469349772947 0.887262338490 -0.022312960860 0.038171464323
3.981666666000 -0.036128851793 0.022860330220 0.487506855174 0.879302239038 0.469136680834 0.887423498824 -0.021931317121 0.038025557929
3.982088888000 -0.035647163938 0.022532222846 0.489525885712 0.878162618706 0.472764131680 0.888432657712 -0.021914433854 0.037756367931
3.982511111000 -0.035546628520 0.022723700275 0.490638099151 0.877817637686 0.473327502675 0.887843815930 -0.021690601873 0.037851306580
3.982933333000 -0.035776765820 0.023204749008 0.492241532570 0.877510523290 0.475154494391 0.886284073548 -0.021646643650 0.037695477753
3.983355555000 -0.035037027685 0.023279772472 0.493466432589 0.876373020213 0.477002142155 0.884667974860 -0.021218615095 0.038064951490
3.983777777000 -0.035025359239 0.023155887802 0.496883025696 0.875414125962 0.479823860818 0.884375261137 -0.021827067152 0.037092153019
3.984200000000 -0.034453411316 0.023275046401 0.498545235582 0.872326339266 0.479278486182 0.882192472809 -0.021035280476 0.038401864213
3.984622222000 -0.035199378117 0.023722585844 0.498356597020 0.875364163527 0.480419319775 0.883696981302 -0.021302257664 0.037109787356
3.985044444000 -0.034094679538 0.023317936873 0.501714275859 0.874546042639 0.484293307661 0.882965793667 -0.021576009248 0.036448205607
3.985466666000 -0.033946394873 0.024077932812 0.502782109446 0.873187992529 0.484780127763 0.882003009236 -0.021504931128 0.037050451176
3.985888888000 -0.033972898818 0.023275640246 0.504143721000 0.870638311764 0.487642332078 0.881425669833 -0.021686503295 0.037609705740
3.986311111000 -0.033503486586 0.023973559897 0.505752051452 0.870945700253 0.487757263071 0.881587252005 -0.020524276234 0.036884758479
3.986733333000 -0.033431320778 0.022910468241 0.507746257030 0.867903144515 0.490657886143 0.880146139137 -0.021723739340 0.036840796975
3.987155555000 -0.033590608036 0.023378313991 0.507276042409 0.869062570394 0.490997872688 0.878827513378 -0.020592411221 0.036462956089
3.987577777000 -0.033409949901 0.023557277406 0.510562108215 0.868152198877 0.493944096439 0.877321119028 -0.021282850430 0.036423729600
3.988000000000 -0.032381956368 0.023007091825 0.511972548267 0.865698769558 0.495100505418 0.877877207908 -0.021202609241 0.036009902821
3.988422222000 -0.032243224315 0.023220178108 0.513065248726 0.864833769411 0.495347217071 0.877266019067 -0.020988876171 0.036005412139
3.988844444000 -0.032766680607 0.023050623450 0.513669515554 0.864931303701 0.497420192032 0.877052800327 -0.021267744656 0.035743752090
3.989266666000 -0.031669821406 0.023120396142 0.517221691391 0.864570342477 0.498972799547 0.875496081547 -0.020081547680 0.035031438684
3.989688888000 -0.031758553212 0.022464275596 0.518124243788 0.861487425817 0.502484705868 0.873761262735 -0.021316625751 0.035615848862
3.990111111000 -0.031741559253 0.022848085103 0.519327542967 0.862611634348 0.502489381595 0.873680468977 -0.020865987445 0.034971747190
3.990533333000 -0.031550928967 0.022900898672 0.521160566295 0.859926248955 0.505336114524 0.872228447913 -0.021727115657 0.035553454945
3.990955555000 -0.031704062999 0.022904138427 0.523252791116 0.860401528859 0.506543132913 0.871174637796 -0.020692605180 0.035197984909
3.991377777000 -0.031241571617 0.022695785628 0.523984463570 0.858210658140 0.507301132330 0.869438535400 -0.020926202165 0.035125732208
3.991800000000 -0.030738740413 0.022192372631 0.524850319818 0.858149196057 0.510640727557 0.871926753226 -0.019954016880 0.034541978989
3.992222222000 -0.031374125854 0.021861843137 0.526716826125 0.855969583032 0.512467725376 0.868976501615 -0.022041218526 0.034490552914
3.992644444000 -0.030400348357 0.022559348209 0.529819121681 0.856466742788 0.512613007610 0.868630304258 -0.020795033347 0.033657815728
3.993066666000 -0.030493187717 0.023395227442 0.530657729002 0.855575463463 0.512740285381 0.867026886745 -0.021004397109 0.033994600102
3.993488888000 -0.029899703199 0.022242269159 0.531052616692 0.853290405391 0.515825941916 0.866537629490 -0.020827376952 0.034289344389
3.993911111000 -0.030035835264 0.022308087735 0.532095127813 0.852572477240 0.517162081055 0.866453486791 -0.021175938012 0.034066400904
3.994333333000 -0.030231030581 0.020967414170 0.535739561924 0.849554742852 0.522277213844 0.865105441136 -0.022693252957 0.033083631337
3.994755555000 -0.030555264573 0.022442360023 0.535386287074 0.850760159191 0.520646006051 0.863673073952 -0.021970079891 0.033961503075
3.995177777000 -0.029919225684 0.022632506723 0.537416514837 0.850680269801 0.521105150553 0.862965053350 -0.021393823221 0.033584478143
3.995600000000 -0.029426123621 0.021993618134 0.538259691153 0.848031957281 0.523920175334 0.863044895119 -0.021661434841 0.033752545012
3.996022222000 -0.030412794858 0.022104294491 0.538976643877 0.848203256571 0.524871175381 0.859843708449 -0.021797758393 0.033484306261
3.996444444000 -0.029872078597 0.022025558550 0.541998333623 0.846710631534 0.526079434449 0.859615300467 -0.022291247933 0.033390224245
3.996866666000 -0.029070618695 0.022389064403 0.542297757829 0.846862930587 0.526259758351 0.861414005070 -0.021259067436 0.032836829509
3.997288888000 -0.028944762760 0.021444371383 0.544767078739 0.843961456611 0.530585406912 0.858264446010 -0.021998554465 0.032981647120
3.997711111000 -0.029560091703 0.021201595039 0.544758867487 0.843275461249 0.533013415890 0.857902900521 -0.022638263206 0.033373120679
3.998133333000 -0.029232775880 0.021726054834 0.547366857349 0.841316415665 0.533156850350 0.855670191040 -0.022709606029 0.032308082643
3.998555555000 -0.029202543201 0.021846983587 0.548578380101 0.841746514175 0.534262182485 0.853590128438 -0.022449835134 0.032700531142
3.998977777000 -0.028838949561 0.021547866892 0.550385173146 0.840441892856 0.535760332941 0.854439989102 -0.022207935873 0.032551533136
3.999400000000 -0.028749036474 0.020799002655 0.553716367445 0.838738749044 0.537277612477 0.850613867899 -0.022147363173 0.033182793799
3.999822222000 -0.028931635431 0.021217599112 0.552697528406 0.837878765443 0.537671211234 0.853169942877 -0.022407312459 0.032363057587
4.000244444000 -0.028767116505 0.020915043782 0.553616074940 0.837361912272 0.540057872078 0.851364219858 -0.022929913679 0.031961213950
4.000666666000 -0.029040851229 0.021586452982 0.554686802525 0.836141681055 0.540003970819 0.850722628707 -0.023039641941 0.032182306863
4.001088888000 -0.029160181482 0.020947445511 0.555716132602 0.835475762023 0.542627120602 0.849180234406 -0.022694870502 0.032175187515
4.001511111000 -0.028225981415 0.020869320705 0.556394125337 0.834593386181 0.545046837270 0.849087238240 -0.022374653186 0.032405978952
4.001933333000 -0.028495290912 0.020139420036 0.558564226317 0.832143235867 0.545543890183 0.846512075976 -0.023002650296 0.032732708039
4.002355555000 -0.029058067045 0.020398783868 0.559934685197 0.831019281303 0.546970134538 0.846725376520 -0.023148420182 0.031511547235
4.002777777000 -0.028412101049 0.020713031829 0.562819590546 0.831461026774 0.549333357144 0.845414205964 -0.023184855667 0.031686175573
4.003200000000 -0.028240849512 0.021030280546 0.563387793870 0.829998178182 0.551047102523 0.842114771948 -0.023897184966 0.032761070256
4.003622222000 -0.029148046910 0.019798546288 0.564039578918 0.828293502759 0.552567390790 0.840989542488 -0.023624887171 0.031279197240
4.004044444000 -0.028426228535 0.020021711497 0.565864493595 0.827297611476 0.555672898430 0.841151486696 -0.024536821093 0.031735176934
4.004466666000 -0.028558031357 0.020562972404 0.567741504226 0.826733938549 0.556286026202 0.841297067434 -0.024527291727 0.031391337656
4.004888888000 -0.027820518942 0.020145194055 0.566917223844 0.824612427276 0.556436992959 0.841209600289 -0.023286998131 0.031981908574
4.005311111000 -0.028770211806 0.020371628453 0.568691050311 0.823085876850 0.553925388238 0.838788610342 -0.023574216659 0.032222166352
4.005733333000 -0.029299364354 0.020823859845 0.569643998010 0.822388223416 0.557338225697 0.836462427606 -0.024779228312 0.032215847482
4.006155555000 -0.028887823218 0.020155709508 0.571138171744 0.823661165956 0.561470407204 0.836625897681 -0.024006917001 0.031592965974
4.006577777000 -0.028656271503 0.020772997186 0.573748578436 0.820071491943 0.560553877500 0.834476451078 -0.025166996437 0.032515739018
4.007000000000 -0.026299975560 0.021771473284 0.570997068361 0.816466549372 0.556323814580 0.837627531741 -0.022757317713 0.035036504077
4.007422222000 -0.028368950679 0.019526724712 0.574493477767 0.819386998876 0.564815803456 0.834711454386 -0.024345185046 0.031668703697
4.007844444000 -0.029149087010 0.020453286572 0.576902070956 0.817257688979 0.563571304832 0.831777181565 -0.025061475455 0.031863587158
4.008266666000 -0.028989280399 0.020026002404 0.576729240750 0.815068975013 0.566936955524 0.830811689051 -0.025190253479 0.032523524545
4.008688888000 -0.028727147830 0.019743717088 0.577333097121 0.813392526818 0.568929255633 0.831323330306 -0.025683211453 0.032096048602
4.009111111000 -0.029603862415 0.020389520792 0.579287768040 0.814670515029 0.567431682906 0.827875844864 -0.024964072014 0.031732327405
4.009533333000 -0.028850206211 0.020631936440 0.581864498960 0.812855253249 0.568300548252 0.829713378671 -0.025107055207 0.031807555021
4.009955555000 -0.029434637796 0.019517830911 0.583168262785 0.812791081871 0.573115292941 0.825122149265 -0.026029984102 0.031723882607
4.010377777000 -0.030393344052 0.020278668332 0.583041402741 0.811297923014 0.572941362041 0.822248077474 -0.025952575592 0.032113029768
4.010800000000 -0.029570952590 0.019347453899 0.583235566542 0.809527261843 0.575773174775 0.824231013824 -0.026173047915 0.031904337215
