# GHZ S RI R 50.000000000000
3.950000000000 0.139214257403 -0.140653493741 0.581396911468 0.769340921784 0.618887669475 0.729847496420 0.150599724516 -0.118383233137
3.950422222000 0.141124708936 -0.140105587075 0.591129423833 0.762269480128 0.619013196206 0.730547626354 0.149353881004 -0.119598149704
3.950844444000 0.141909067637 -0.139089769695 0.596972623085 0.758256423676 0.619487269434 0.730934814562 0.149494175898 -0.120304245061
3.951266666000 0.143620819521 -0.140196619904 0.603976517381 0.752490380761 0.619645615264 0.730699420714 0.148557739731 -0.122173329670
3.951688888000 0.143979501454 -0.139106126902 0.604045390181 0.753008392764 0.619200262917 0.730380852174 0.147948225599 -0.121960156484
3.952111111000 0.143443600895 -0.139582744253 0.608304261229 0.750929697396 0.619884243265 0.730128621551 0.149135284951 -0.121858870150
3.952533333000 0.143756811017 -0.139674338093 0.610067285423 0.749094867124 0.620983028513 0.728604928278 0.147689303762 -0.122329074625
3.952955555000 0.144702022712 -0.139191945082 0.612201187202 0.747748452918 0.621337773878 0.729446794991 0.147381038147 -0.122601166474
3.953377777000 0.144415142282 -0.139753341544 0.615051722830 0.745241021075 0.623383952764 0.726979964814 0.147877673198 -0.123489858418
3.953800000000 0.144923530833 -0.140404974592 0.613725232612 0.740018737878 0.625311823003 0.726206540094 0.148359325250 -0.123537275888
3.954222222000 0.144322344978 -0.138964022922 0.617262178087 0.744813447067 0.624447350498 0.727787874915 0.147847033313 -0.123774053639
3.954644444000 0.144056685605 -0.139462897530 0.619232757887 0.744680957417 0.626156013715 0.725827884205 0.148260231388 -0.123829401293
3.955066666000 0.144754256287 -0.139259116522 0.621143161222 0.744046742967 0.627199771365 0.724911243340 0.148604202640 -0.123513441469
3.955488888000 0.145000571281 -0.139175623233 0.622337718613 0.742526912219 0.629155825636 0.726025254707 0.148145362503 -0.123565965760
3.955911111000 0.144467236873 -0.139405425341 0.622664726111 0.743307713940 0.630562205621 0.725023448340 0.147345383102 -0.122836090710
3.956333333000 0.143564970200 -0.139344200346 0.623921322147 0.741622363655 0.630383504375 0.725037384642 0.147795617196 -0.124714279323
3.956755555000 0.144013276082 -0.138234783160 0.626553781418 0.740557387724 0.632062087180 0.724158563355 0.148149136585 -0.124353317536
3.957177777000 0.144088452565 -0.139819353936 0.626820838753 0.740536957208 0.632584377218 0.722509265737 0.148091651630 -0.124279378258
3.957600000000 0.144242170095 -0.138228744839 0.629408871534 0.741408740491 0.634617975363 0.723476780424 0.147746298965 -0.124058170129
3.958022222000 0.143869913642 -0.139073304728 0.631436579422 0.737657893456 0.635159466351 0.721726755554 0.148206944190 -0.124707575607
3.958444444000 0.143935369263 -0.138551453591 0.630312598534 0.737443089557 0.635750531894 0.720849044460 0.147758986177 -0.125428400356
3.958866666000 0.144671014616 -0.139088344924 0.634533748542 0.736680095946 0.638883114475 0.720589970833 0.147785951434 -0.125083771306
3.959288888000 0.143971724312 -0.139073648815 0.635012462876 0.736901454931 0.639546838235 0.719813149749 0.148150416505 -0.125359361208
3.959711111000 0.143642868001 -0.139912688108 0.635009047748 0.736195240702 0.640798273470 0.718506602280 0.148049967587 -0.125516183225
3.960133333000 0.143967928195 -0.139219570529 0.637636320020 0.734645464395 0.641944708530 0.718919636940 0.147923905417 -0.125640419379
3.960555555000 0.144869455154 -0.138261851756 0.638832976665 0.735689200149 0.641931354430 0.718700994201 0.148119386087 -0.126800814016
3.960977777000 0.144427160896 -0.138891307836 0.639473390061 0.734268899722 0.643900286225 0.717597075422 0.147496809988 -0.126497440592
3.961400000000 0.144977771663 -0.138366779580 0.642111973157 0.731864459826 0.644996420426 0.716545997955 0.148239121076 -0.127449250505
3.961822222000 0.143998260394 -0.138974989159 0.643361343139 0.731278649202 0.646635163457 0.715811871493 0.147979491037 -0.126881603630
3.962244444000 0.144399129345 -0.139322210398 0.644112557268 0.731821850365 0.647587879134 0.716079277646 0.147462757974 -0.127152603011
3.962666666000 0.143963612174 -0.138912081825 0.645304872766 0.730281823277 0.648703423935 0.713984711401 0.147115785975 -0.127492199603
3.963088888000 0.144393148911 -0.138991801300 0.647011502136 0.729119256361 0.650409582906 0.714371674433 0.147361576868 -0.127875416536
3.963511111000 0.144525604305 -0.139180003483 0.648902043336 0.729349962682 0.651509894263 0.714716784054 0.147456041210 -0.127520108552
3.963933333000 0.144237039042 -0.139378275832 0.651407447330 0.728664073112 0.653379715274 0.713299180687 0.147514240712 -0.127762032564
3.964355555000 0.144214376220 -0.139409026186 0.651385871367 0.726639662611 0.653669309663 0.711733499716 0.147645332181 -0.128787515422
3.964777777000 0.144350279878 -0.139967544943 0.652909182945 0.727161311142 0.654242602226 0.712044329373 0.146194962332 -0.129195736534
3.965200000000 0.144261864790 -0.139493246893 0.654175133413 0.725526609253 0.656705356160 0.711744075880 0.146824223352 -0.129103091991
3.965622222000 0.144892333202 -0.139597975610 0.656418558402 0.726094892021 0.657228520973 0.711060314120 0.147187171151 -0.129773154130
3.966044444000 0.144490762147 -0.139997290024 0.657370146651 0.724358745669 0.658208195906 0.710571090147 0.146161303139 -0.130064148133
3.966466666000 0.144499473912 -0.139112654796 0.659337431343 0.723731347247 0.658954587924 0.708611654250 0.146763527302 -0.129579118645
3.966888888000 0.144291889656 -0.139122289705 0.659382840440 0.723113153676 0.660658135456 0.709197349062 0.147060408787 -0.130320371448
3.967311111000 0.144903878740 -0.139956999774 0.662924247717 0.722230525956 0.662464317274 0.708148861747 0.146065993988 -0.131176678746
3.967733333000 0.144780296530 -0.139742972763 0.663225308635 0.721200252034 0.662802837929 0.706659306648 0.146193828330 -0.131504638428
3.968155555000 0.144954956983 -0.139657917632 0.665088235309 0.719520862182 0.663684703814 0.706899037087 0.147253852971 -0.131787733913
3.968577777000 0.145122481449 -0.140097940947 0.667264344080 0.718131811030 0.665530300818 0.706200253237 0.147394638007 -0.131713664289
3.969000000000 0.145596728129 -0.140373000960 0.667043176214 0.717235519583 0.665730646625 0.706318822357 0.147338149504 -0.132340761008
3.969422222000 0.144718983770 -0.140265758570 0.669938819539 0.717893681509 0.668448220453 0.705262508254 0.146619863381 -0.132343005475
3.969844444000 0.144478241349 -0.140633080890 0.670632768657 0.716162482698 0.668192845695 0.703472664517 0.146328526443 -0.132825487899
3.970266666000 0.145072236897 -0.140769161687 0.672071221042 0.714858737627 0.670366014791 0.702909577899 0.146847821240 -0.133457245323
3.970688888000 0.144647403327 -0.141439644365 0.674026758003 0.714234773367 0.671461455683 0.701359888684 0.145564731481 -0.134061155290
3.971111111000 0.145607123100 -0.140914619202 0.675080631906 0.713232285210 0.672707192057 0.701749812990 0.146624594268 -0.134169052543
3.971533333000 0.145291999348 -0.141147930690 0.675864562446 0.712025091329 0.673473799658 0.699640474705 0.146448148988 -0.134871144678
3.971955555000 0.144818028056 -0.141458753852 0.677371944291 0.710634580059 0.674673960623 0.699102455436 0.146034661202 -0.135064168616
3.972377777000 0.144733380687 -0.141890746927 0.678459556965 0.710401414319 0.676510665204 0.698395269823 0.145231716738 -0.134805457807
3.972800000000 0.145210497527 -0.141752381863 0.680107677316 0.709222113818 0.677331161314 0.696859309364 0.145851951851 -0.135683355488
3.973222222000 0.145323985263 -0.142295201840 0.680638334282 0.707965497740 0.678290170269 0.695881285619 0.145495196960 -0.137234163385
3.973644444000 0.145059752952 -0.143502313592 0.683390228141 0.705840621137 0.680665487544 0.695791359457 0.144770808621 -0.136904375740
3.974066666000 0.144626117286 -0.142896055261 0.684153077789 0.705105618655 0.680932979625 0.694457476627 0.144915580090 -0.136539740902
3.974488888000 0.144397948501 -0.143194439592 0.685499386415 0.704990364355 0.681886803131 0.693345408928 0.144279341242 -0.137197783761
3.974911111000 0.144729924782 -0.143530877461 0.686920177712 0.703069685552 0.683824235156 0.692247756104 0.144555197725 -0.138064587939
3.975333333000 0.144667530635 -0.143687725309 0.688374478934 0.702111288500 0.684877815280 0.691220898306 0.144508940431 -0.137654878463
3.975755555000 0.145326778997 -0.144462380435 0.690287724388 0.701656950663 0.686163258513 0.691640543820 0.143921596188 -0.138702096090
3.976177777000 0.144999560198 -0.144025410459 0.691238708052 0.700310790081 0.687519095510 0.689502162585 0.144703540987 -0.138747790856
3.976600000000 0.144935762749 -0.145606108108 0.693789836598 0.697010453340 0.689598624781 0.689678837705 0.144069847657 -0.137686588590
3.977022222000 0.145573865754 -0.145180296628 0.693655607007 0.697908044540 0.689897700677 0.688394688517 0.143850892458 -0.139916244264
3.977444444000 0.144955259243 -0.145478134902 0.694656770791 0.696937483482 0.692286528384 0.686318608132 0.143494795998 -0.139990496981
3.977866666000 0.145248219550 -0.145493750748 0.695636556994 0.696618394299 0.692976592268 0.685821562903 0.143429323200 -0.139859510398
3.978288888000 0.144743769411 -0.145067654667 0.697218730465 0.694500388752 0.693009878834 0.685234354208 0.143653218510 -0.141255952524
3.978711111000 0.145169242553 -0.146055523236 0.699000337749 0.693449636219 0.695182863526 0.684351116361 0.142157073158 -0.141848252977
3.979133333000 0.146084941482 -0.146937584585 0.700962345115 0.692260875565 0.696183512844 0.684011232474 0.142289357128 -0.142604794389
3.979555555000 0.145065756901 -0.147506510369 0.701401818069 0.690886712451 0.698409810947 0.682264673049 0.141574879160 -0.141828362799
3.979977777000 0.145618787389 -0.147512732401 0.702494822235 0.690364328854 0.699094307294 0.681802333876 0.141498339684 -0.142840431501
3.980400000000 0.145207718652 -0.147744005663 0.704473709492 0.688492271961 0.699637630455 0.680489080254 0.141304058614 -0.143220521377
3.980822222000 0.144785320857 -0.148082860576 0.705096222210 0.687697306428 0.700388851164 0.678427262409 0.141453702247 -0.143378437274
3.981244444000 0.144221765061 -0.148298127323 0.706714600850 0.686635420094 0.702827809850 0.677175833007 0.140860039331 -0.143147538930
3.981666666000 0.145403385743 -0.149135424344 0.708035202965 0.685957190221 0.704659488247 0.677587162479 0.139696658330 -0.144814233876
3.982088888000 0.144891397360 -0.148672017702 0.709361676915 0.683642153671 0.704792483378 0.675602227644 0.140580977312 -0.144421810394
3.982511111000 0.144674012298 -0.149127271196 0.709779657242 0.682107341071 0.705599800116 0.674702074794 0.140045153426 -0.144772022815
3.982933333000 0.145081351376 -0.149545348115 0.711273302160 0.681288254895 0.706675145124 0.674456669666 0.140111857155 -0.145079601246
3.983355555000 0.144002650828 -0.149675686191 0.712493260608 0.679737691444 0.707420297113 0.673148754738 0.139549959259 -0.144687279554
3.983777777000 0.144974999890 -0.150718663383 0.714285893751 0.678549005039 0.708977226722 0.672185018061 0.139812800533 -0.146341354990
3.984200000000 0.144467583160 -0.150050047409 0.715324330057 0.677655556496 0.709215319547 0.672184925410 0.139940295804 -0.145759895418
3.984622222000 0.143912216245 -0.151160483403 0.716103154100 0.676425156526 0.711481429844 0.669335340872 0.138566325443 -0.146298621647
3.985044444000 0.143622880391 -0.151685450798 0.717700681887 0.675556446546 0.713336308732 0.667610166764 0.137976852216 -0.146544943013
3.985466666000 0.144219919658 -0.151327006229 0.718132422983 0.673738281145 0.713713637001 0.667122326247 0.138958034999 -0.147342501695
3.985888888000 0.144254912465 -0.151625266119 0.718968553480 0.672723203744 0.714894499184 0.666366378900 0.138550831846 -0.147800720551
3.986311111000 0.144224699481 -0.153406149939 0.721518183173 0.670731102663 0.717535059650 0.665325635525 0.137086790599 -0.148790739997
3.986733333000 0.143301718901 -0.152956144656 0.722020515578 0.669498190817 0.718857854216 0.661731880101 0.136933820813 -0.146795418655
3.987155555000 0.144340364527 -0.154157321595 0.723292932876 0.668359180347 0.719902773175 0.664268891798 0.135702043662 -0.148774113951
3.987577777000 0.144357094088 -0.153821424610 0.725339198554 0.667348874910 0.720615309296 0.662730463018 0.136275079835 -0.148078986828
3.988000000000 0.143519148229 -0.154247544571 0.725618388773 0.666398479482 0.721470251963 0.661673816356 0.135694416630 -0.149535159626
3.988422222000 0.143621736102 -0.154028688537 0.727183161602 0.664504718623 0.721585448785 0.659830042331 0.135563113142 -0.149251131562
3.988844444000 0.143520567412 -0.155435036050 0.728137643642 0.663619986162 0.723880666023 0.659185137901 0.134777320674 -0.149714780058
3.989266666000 0.143760899555 -0.155924831976 0.729944126271 0.661949017755 0.724688507706 0.659462835598 0.133981827246 -0.150654180278
3.989688888000 0.142325319080 -0.155843019314 0.730240797762 0.661612325620 0.725845362188 0.655196280957 0.133531954187 -0.151425713606
3.990111111000 0.143787084844 -0.155901102688 0.731776272398 0.660086895063 0.726776488630 0.657360052077 0.134807579404 -0.152122017091
3.990533333000 0.142846157333 -0.156546336178 0.732134520156 0.658422120186 0.727888159666 0.655122314769 0.134157516579 -0.151870082319
3.990955555000 0.142024538351 -0.157034539658 0.733594685196 0.656734926177 0.728719937736 0.652553467118 0.133434584602 -0.151960489625
3.991377777000 0.142278786512 -0.158072298811 0.734988529063 0.655366473331 0.731759741274 0.652845833813 0.132043607174 -0.152429080720
3.991800000000 0.143683989001 -0.157767596507 0.736837355536 0.654549733536 0.731694358219 0.653783290353 0.132158339356 -0.152880104805
3.992222222000 0.141621929973 -0.158559789492 0.737219922949 0.652130066447 0.731805412364 0.649631070745 0.132387236580 -0.152402441397
3.992644444000 0.141542443443 -0.158767213345 0.737296091984 0.651103452648 0.734107182010 0.648419410323 0.130923937448 -0.152231507341
3.993066666000 0.141180257933 -0.159177256042 0.737760995570 0.649907989259 0.735327941435 0.647315412802 0.131517376639 -0.151870123197
3.993488888000 0.141128053350 -0.159830509286 0.739508468146 0.648940577675 0.736057140146 0.646553857580 0.131339959476 -0.153529352341
3.993911111000 0.140420874140 -0.160307399805 0.740734574867 0.647615413565 0.737200061117 0.643950537271 0.129757626384 -0.153510459262
3.994333333000 0.140300006324 -0.161683867640 0.742611795958 0.645251358464 0.740882989569 0.643215517653 0.129447869023 -0.154791713320
3.994755555000 0.140046423808 -0.160717385762 0.743341727433 0.644773734900 0.738720606749 0.642932482897 0.128955015874 -0.154058653464
3.995177777000 0.139847703451 -0.161289395620 0.743797480937 0.642663542317 0.740867375385 0.641486895964 0.127864407918 -0.153560780846
3.995600000000 0.139591695057 -0.161457946020 0.744215118816 0.642255220152 0.741062883058 0.640052388758 0.128431619365 -0.153851063036
3.996022222000 0.140581509175 -0.162147060283 0.745936904301 0.640677305205 0.742794127908 0.640856283396 0.128066443313 -0.155074399565
3.996444444000 0.139090730214 -0.161968101590 0.746616856628 0.639537799334 0.742663260939 0.637175889958 0.128064623089 -0.154233034372
3.996866666000 0.138746376602 -0.161829848193 0.747176948770 0.639246582767 0.743122572821 0.636158341923 0.127757509722 -0.154888777553
3.997288888000 0.138311421567 -0.163087418112 0.748566094420 0.636662443404 0.746413425622 0.634734207369 0.125981823741 -0.154691420859
3.997711111000 0.138732400314 -0.163023935643 0.749853662356 0.635737054413 0.746072794275 0.633866896855 0.125786992488 -0.155139581946
3.998133333000 0.138141928506 -0.163668895240 0.750971640720 0.633947385186 0.747768159237 0.632338151761 0.125990748335 -0.155660444583
3.998555555000 0.138129900084 -0.164364892081 0.751761192620 0.633193887562 0.748702607620 0.631948011681 0.126123643867 -0.155509450691
3.998977777000 0.137626995921 -0.164214097172 0.752130521356 0.631651113359 0.749599675271 0.630232124835 0.125168317331 -0.155707310879
3.999400000000 0.138821896390 -0.164123419880 0.753512640555 0.630111702499 0.752540115645 0.631232792576 0.124164536885 -0.155704093131
3.999822222000 0.137254311437 -0.165494782209 0.754292178135 0.629592366103 0.753999237733 0.628871493717 0.123715300681 -0.156986365661
4.000244444000 0.137960060654 -0.165215370448 0.757546698028 0.627907498343 0.752928212159 0.628463075642 0.124167934360 -0.157746754815
4.000666666000 0.136365751651 -0.166292933655 0.756291318252 0.627806112077 0.754996605022 0.625075621596 0.123467450533 -0.157107299287
4.001088888000 0.135191268726 -0.165794191029 0.757821031091 0.624393520227 0.754269639563 0.622086241865 0.121608536278 -0.156663035000
4.001511111000 0.134951319300 -0.166872513688 0.758619611333 0.624433619923 0.756443122274 0.621357166071 0.122322843034 -0.157965785194
4.001933333000 0.134869131522 -0.166944466959 0.760167412137 0.623565814050 0.757470859182 0.618760954191 0.121747219583 -0.157177622132
4.002355555000 0.135373019535 -0.166847008988 0.760273479087 0.622645297524 0.757949654639 0.620409411709 0.121430895483 -0.157085962589
4.002777777000 0.134804218091 -0.167421533556 0.761798439196 0.620148388402 0.756913108895 0.618484727735 0.121836664149 -0.157315375570
4.003200000000 0.134510202177 -0.168306282722 0.762060514146 0.619121443064 0.761510340012 0.618220613072 0.121510585959 -0.157835198903
4.003622222000 0.134365536284 -0.168851136106 0.764734890941 0.617958341646 0.762409128629 0.615980590837 0.120180405965 -0.158431536805
4.004044444000 0.133419016724 -0.167766854220 0.765585481102 0.615770166229 0.760873505035 0.614133057440 0.119442087305 -0.157734917890
4.004466666000 0.133728983639 -0.167981290322 0.763587956668 0.612411956360 0.760801046053 0.614754659446 0.120285796131 -0.157236931732
4.004888888000 0.132253084611 -0.170090194277 0.765970971171 0.613014249998 0.765312106125 0.611400595759 0.118910615219 -0.158721746251
4.005311111000 0.131747649587 -0.169689372497 0.767734359190 0.611707293953 0.765780076246 0.610000602678 0.117543788805 -0.158737320269
4.005733333000 0.133314998054 -0.169790504520 0.767862927226 0.610506774009 0.766824427637 0.612727678286 0.118062653715 -0.159158169313
4.006155555000 0.132310847575 -0.170422370895 0.768253747962 0.610812367267 0.768074436071 0.609437662853 0.118116743170 -0.159567350887
4.006577777000 0.131225259952 -0.169978244254 0.768890779715 0.608206050654 0.767455567794 0.607797360600 0.118062461102 -0.158494412833
4.007000000000 0.132396152592 -0.170926809800 0.768617647484 0.607823841538 0.771137302250 0.608123957220 0.117972828788 -0.160306836629
4.007422222000 0.129973355514 -0.170268722796 0.771077323866 0.604044544787 0.769158685793 0.604867404719 0.116204997296 -0.158477667901
4.007844444000 0.129949236676 -0.171792139132 0.773086879683 0.603186676716 0.770933196056 0.603086035818 0.116030152623 -0.159292952496
4.008266666000 0.129553904080 -0.172368368721 0.772338836235 0.602853018149 0.774667172187 0.601955797001 0.115056309506 -0.159282945470
4.008688888000 0.129667147405 -0.171664609830 0.774843156214 0.601929678836 0.772807958840 0.600040184560 0.114783503181 -0.158900215318
4.009111111000 0.129021750919 -0.172166452648 0.774648578474 0.603147643567 0.775519097285 0.600813613019 0.115642177764 -0.159427925624
4.009533333000 0.128315507485 -0.171665449689 0.774725723976 0.600233460883 0.773690787212 0.597307249196 0.115379713090 -0.159161135630
4.009955555000 0.127835942782 -0.171826374682 0.776451127126 0.597027962293 0.772928622597 0.597168509546 0.114889430311 -0.159229540501
4.010377777000 0.127393503521 -0.172688303629 0.778398870081 0.596357453773 0.776418843826 0.595477111448 0.113744199953 -0.160164882850
