# GHZ S RI R 50.000000000000
3.950000000000 -0.033905224042 0.006503237370 0.367621838055 0.911676966636 0.365024593981 0.908599952306 -0.042741678723 0.022700937048
3.950422222000 -0.034406745383 0.004834705482 0.369681248494 0.910160836637 0.364468923338 0.906348250216 -0.043966735811 0.021985977086
3.950844444000 -0.034000462197 0.004844748835 0.370892782775 0.908085356709 0.364506054321 0.907900597244 -0.044611632939 0.022533866116
3.951266666000 -0.033874248752 0.004305975615 0.376823149059 0.907637098415 0.365949483703 0.905704729752 -0.043888276768 0.023061722701
3.951688888000 -0.034183961951 0.005304444609 0.378383892634 0.908188872580 0.365156425724 0.907090242077 -0.043880324934 0.023694271532
3.952111111000 -0.034534937486 0.005124200114 0.377208610742 0.906456940185 0.367385121146 0.905603238240 -0.044279193697 0.023729318231
3.952533333000 -0.034757833924 0.006044017111 0.378876953378 0.908161023472 0.367600362589 0.905678825912 -0.043701605805 0.024856729736
3.952955555000 -0.035241569042 0.005600139176 0.379519124125 0.906165670848 0.368095791599 0.906000916836 -0.044816938197 0.024434223234
3.953377777000 -0.034488527735 0.005840828024 0.382022052641 0.906759521758 0.371256868280 0.906175264562 -0.044656013480 0.025293295655
3.953800000000 -0.034452349307 0.006531335404 0.379381151684 0.906771493135 0.369211584203 0.905259624132 -0.044306067396 0.024197895092
3.954222222000 -0.035261760706 0.005904050507 0.384551745961 0.905941396268 0.371679267763 0.905073592831 -0.043963764451 0.024598201745
3.954644444000 -0.035552102385 0.007444694024 0.384360833044 0.906095507262 0.373453893780 0.905608513328 -0.044398610598 0.025936508965
3.955066666000 -0.035131288088 0.007332510831 0.386499085365 0.904698216433 0.373754858801 0.905233834330 -0.043675319459 0.025297026785
3.955488888000 -0.035213232593 0.007816421567 0.386813045342 0.905074781565 0.377224131700 0.905074654478 -0.043219310874 0.025918273203
3.955911111000 -0.035908906282 0.007710879678 0.388877595277 0.905411039360 0.378424734834 0.902940641974 -0.043107675643 0.026570589963
3.956333333000 -0.035924682542 0.008123196996 0.389359120977 0.905983225649 0.379266610085 0.904881497470 -0.043182642980 0.026700640257
3.956755555000 -0.035597312565 0.008601836580 0.393037825966 0.905590872618 0.379404036541 0.905044336149 -0.043031040763 0.027023648141
3.957177777000 -0.035268153558 0.007952514728 0.393836515264 0.902366136199 0.382083427668 0.904292155992 -0.042567987465 0.026028182939
3.957600000000 -0.035038511478 0.009792931714 0.396321769234 0.906288050458 0.383250791419 0.904028527845 -0.042123798828 0.027517722058
3.958022222000 -0.035025357530 0.008880682038 0.396197200805 0.904977437060 0.385171748531 0.903618069017 -0.041572560717 0.026956752825
3.958444444000 -0.033962317306 0.009935309688 0.400101743372 0.906618139784 0.385973479196 0.904661122754 -0.041841291245 0.027102415630
3.958866666000 -0.036003407843 0.008863336918 0.397446474574 0.904349632733 0.385919800937 0.904093064216 -0.042886243606 0.026970838423
3.959288888000 -0.035426765208 0.010614689539 0.400940640658 0.904869198078 0.388621027099 0.904853752388 -0.041790111763 0.028886752010
3.959711111000 -0.034682516030 0.011053443089 0.403576033267 0.903283868909 0.389393447461 0.905740398749 -0.041487087957 0.027136659475
3.960133333000 -0.034991304726 0.010867317213 0.404989066144 0.903382916020 0.391891195744 0.903894515109 -0.040778690021 0.028721587484
3.960555555000 -0.034997372119 0.011800501725 0.405226003576 0.905191577095 0.391311356916 0.902911418770 -0.040587778648 0.027405491841
3.960977777000 -0.034464930216 0.012010124112 0.408513802888 0.904099820345 0.394353342069 0.902504514612 -0.039982321509 0.028040630372
3.961400000000 -0.033809723969 0.011243763226 0.410577387572 0.901234976823 0.395196486780 0.902172801104 -0.040725378544 0.027768391563
3.961822222000 -0.035317137795 0.011938527782 0.410393297992 0.902149070628 0.394388530930 0.902108110045 -0.040606983719 0.028262330427
3.962244444000 -0.034725748596 0.012520949238 0.410722665602 0.902907207601 0.398968388784 0.902247610723 -0.039481704063 0.028943799595
3.962666666000 -0.034845563024 0.013145226681 0.413337594968 0.901589367343 0.398289283631 0.901193742500 -0.039524554899 0.029037306424
3.963088888000 -0.034135237843 0.013093422120 0.414598469715 0.901955798055 0.400591930325 0.901580097020 -0.039256999267 0.028274380198
3.963511111000 -0.033951755323 0.013069683506 0.416894701796 0.901199254315 0.403470892140 0.900645397696 -0.039266632577 0.028804633736
3.963933333000 -0.034927972394 0.013779994883 0.417063232693 0.902620483639 0.404348671296 0.899238467533 -0.038099750010 0.029236302277
3.964355555000 -0.033752450256 0.014080475563 0.419732221794 0.902159688721 0.405848811530 0.901617754048 -0.038584459371 0.029544210759
3.964777777000 -0.033019178871 0.013557788757 0.420886137847 0.898485199182 0.408208369716 0.900816406233 -0.037584108918 0.028412925779
3.965200000000 -0.032669267972 0.013932625435 0.424930139776 0.899541381626 0.409405445528 0.900722783218 -0.037823975938 0.028464529056
3.965622222000 -0.032930008208 0.014663055161 0.425537272040 0.898846563244 0.409921276219 0.900007440403 -0.038144681083 0.028984877152
3.966044444000 -0.033104115132 0.015249558998 0.425838489147 0.898785443868 0.410297851131 0.899888508462 -0.037046239257 0.029220962204
3.966466666000 -0.031249987055 0.014403825770 0.430097374668 0.896889065777 0.413271894138 0.899221875464 -0.037378987578 0.027901433569
3.966888888000 -0.032958010626 0.015133983268 0.429504134908 0.898723481745 0.415097468358 0.899601947646 -0.037365137041 0.029478764092
3.967311111000 -0.032285909620 0.015894298569 0.432882765129 0.898679682124 0.415346648857 0.898095825429 -0.036099054257 0.029503010064
3.967733333000 -0.032592432852 0.015833907245 0.433503074706 0.897207893069 0.417950348200 0.898400207283 -0.036700854991 0.029277474709
3.968155555000 -0.032532393202 0.015428329358 0.434747098936 0.896360465275 0.419859376555 0.897758997629 -0.036950725305 0.029007821902
3.968577777000 -0.031588622913 0.015927886495 0.437418766643 0.895746387762 0.420059807155 0.897951757590 -0.036112719447 0.029039429189
3.969000000000 -0.032317881210 0.014632701621 0.437131286003 0.891826697792 0.424982037058 0.895342994908 -0.036908504430 0.029757413368
3.969422222000 -0.031839134343 0.016981446640 0.440420419025 0.895618797236 0.424346698321 0.896594477167 -0.035521526278 0.029617855848
3.969844444000 -0.030133245662 0.016594750367 0.442263559286 0.894024967612 0.425131380468 0.898697448962 -0.035153894380 0.029101777141
3.970266666000 -0.030982550333 0.017235454287 0.443858680169 0.894901092147 0.428564549113 0.896482346809 -0.034726871981 0.028917452720
3.970688888000 -0.030471894276 0.016940108810 0.444498973070 0.893417822816 0.429423282233 0.895307463047 -0.034453279667 0.028699877869
3.971111111000 -0.029429362178 0.016911616187 0.447426460767 0.892820494589 0.431208388979 0.896380731600 -0.034319286084 0.028259760067
3.971533333000 -0.029839119105 0.017422700358 0.448803336251 0.891892981207 0.431604459742 0.893215471964 -0.033858739352 0.028405369175
3.971955555000 -0.029318660396 0.017073842063 0.450572192448 0.890531633603 0.434123600643 0.895654654411 -0.034341821290 0.028019489558
3.972377777000 -0.029359677103 0.018049393316 0.451638028219 0.890828851571 0.435169251146 0.893839631985 -0.033047885976 0.028864842099
3.972800000000 -0.029044692792 0.017439953713 0.452911850661 0.890502325963 0.435978938780 0.894737496338 -0.033880681691 0.028282288942
3.973222222000 -0.029143112945 0.017872544904 0.453558052593 0.889310887142 0.437664956073 0.892875732100 -0.032538845198 0.027931848634
3.973644444000 -0.028410737179 0.018520162543 0.457621647710 0.890185867179 0.440482433767 0.893951033178 -0.033033537627 0.028915202110
3.974066666000 -0.028984571798 0.018518447724 0.459013038750 0.888978641778 0.442589801790 0.890899906051 -0.032935380320 0.029190814653
3.974488888000 -0.027323080849 0.019011681193 0.460944224321 0.888579710389 0.443778003287 0.893926975390 -0.032139145768 0.028652162255
3.974911111000 -0.027078975037 0.018768128265 0.462542384178 0.887821379586 0.445470224814 0.893164519791 -0.032101349910 0.028775097427
3.975333333000 -0.027604857968 0.018839740550 0.464244263147 0.886642348488 0.446487104483 0.890692908450 -0.032592009992 0.028391374382
3.975755555000 -0.026723132029 0.018257509907 0.465848531641 0.885856019739 0.450020509896 0.891197445897 -0.032410356102 0.028116700205
3.976177777000 -0.026162673671 0.019228245313 0.467525050630 0.885286821952 0.449002556859 0.890541870771 -0.031049934750 0.028097372777
3.976600000000 -0.026191596679 0.020430049047 0.470045498570 0.886372974440 0.451318194531 0.889058690309 -0.030086940769 0.027560386495
3.977022222000 -0.025577734216 0.018433292878 0.470520128252 0.883262059145 0.453227892621 0.889911282392 -0.031263384800 0.026570459186
3.977444444000 -0.025573904006 0.019300989064 0.471596225050 0.883536051859 0.453165428584 0.888230893278 -0.030381453035 0.027209555621
3.977866666000 -0.024737120516 0.018897074662 0.474874846569 0.882016002226 0.456218919020 0.890007392207 -0.031203020857 0.026770504019
3.978288888000 -0.024922284543 0.019365604278 0.476156709116 0.882625108076 0.457813474649 0.887964919139 -0.030412143992 0.027390608691
3.978711111000 -0.024853449039 0.019263550811 0.476396532053 0.881285224219 0.459062102868 0.886430676071 -0.029836159871 0.027514791843
3.979133333000 -0.024008322783 0.018970305161 0.477835269365 0.880715551983 0.461417188450 0.886574715966 -0.029636487171 0.025967243145
3.979555555000 -0.023417596997 0.018622112052 0.479970637043 0.878491390795 0.464047707839 0.887668511688 -0.030182719747 0.026427661882
3.979977777000 -0.023898535520 0.018949619686 0.481495782472 0.878432621460 0.464733295679 0.884083789880 -0.029693263078 0.026157221485
3.980400000000 -0.022710806092 0.019283518340 0.483587704088 0.878109850180 0.465615493544 0.885995011889 -0.029061131855 0.025547691758
3.980822222000 -0.022864033796 0.018679901626 0.485413238929 0.877645029203 0.468528360037 0.885043905000 -0.029784181635 0.025307481194
3.981244444000 -0.022492243302 0.018973711173 0.487286348890 0.876484258234 0.469668282232 0.885547933244 -0.028573306748 0.025584409756
3.981666666000 -0.023858636283 0.018486830957 0.486520871880 0.873734273228 0.472940338608 0.881415703833 -0.029905075246 0.026765289167
3.982088888000 -0.022580017171 0.018998459552 0.489472745615 0.873822279576 0.472781565265 0.881294745490 -0.028652861929 0.025124787756
3.982511111000 -0.020879430940 0.018818302184 0.491754911678 0.873573418190 0.474626622254 0.883976453787 -0.028632442247 0.024921224387
3.982933333000 -0.021034236600 0.018041405720 0.493987399125 0.872880506385 0.477320636750 0.882191635368 -0.028295684867 0.024108143374
3.983355555000 -0.021689642692 0.018507932734 0.493935647723 0.870771021271 0.478178725563 0.879339853612 -0.029181139425 0.024761451800
3.983777777000 -0.021951868739 0.018596043566 0.496517156989 0.871368780450 0.480759354830 0.880148482088 -0.028947136391 0.025092809928
3.984200000000 -0.021603086990 0.017937275040 0.496407403127 0.869342415571 0.483284004322 0.877903938550 -0.028675145828 0.024672304126
3.984622222000 -0.020419294665 0.018163232718 0.499487739064 0.868523538700 0.483026119213 0.877266223888 -0.027914101661 0.023892094288
3.985044444000 -0.021159891919 0.018125833840 0.500419326024 0.867305726940 0.484103354892 0.876276507862 -0.028961179551 0.024307449264
3.985466666000 -0.019585882026 0.018788906614 0.502656749235 0.867765776609 0.485277582709 0.877278209443 -0.027726719580 0.023796395250
3.985888888000 -0.020950165551 0.017442682731 0.502180023217 0.865553140582 0.489360128492 0.874729165859 -0.028369041404 0.024190223785
3.986311111000 -0.019626020264 0.018586211098 0.505671200322 0.866331230612 0.487995571099 0.874640744975 -0.027810357109 0.023040676562
3.986733333000 -0.019581042254 0.016613292735 0.507292278509 0.862392070508 0.493813930271 0.872640580990 -0.028772949047 0.023153442002
3.987155555000 -0.019314666396 0.018176877231 0.509136749044 0.862379046866 0.491384935307 0.872442213215 -0.028041673933 0.022776107622
3.987577777000 -0.018005982590 0.018672871820 0.511214749080 0.863498904808 0.494358825768 0.874294260675 -0.028292444373 0.023432230291
3.988000000000 -0.018842842529 0.016593224386 0.511927944554 0.861844577085 0.497584759418 0.873494304803 -0.028885677827 0.021866521433
3.988422222000 -0.017555358638 0.017444751294 0.513158766534 0.861076279866 0.497317640304 0.872403720058 -0.027208395524 0.022032551747
3.988844444000 -0.018091585294 0.017233374015 0.514063787804 0.859782145027 0.499752696527 0.870377136472 -0.027560599621 0.022080963827
3.989266666000 -0.016996692298 0.016640778881 0.519451684724 0.858232207679 0.502387332974 0.871945903358 -0.028320562648 0.020720506025
3.989688888000 -0.017560018415 0.016285119214 0.518607106444 0.856128982759 0.503744798304 0.869359306155 -0.028339480976 0.021490676445
3.990111111000 -0.016393045820 0.017174943580 0.521025066767 0.856464205123 0.503602858436 0.868490977806 -0.026919884022 0.021429463712
3.990533333000 -0.016714332712 0.016716961178 0.521982988026 0.856091426809 0.505076058517 0.868226921641 -0.027562815262 0.020916513762
3.990955555000 -0.017084313005 0.016130203078 0.523911441500 0.854897890015 0.509188912114 0.866284238054 -0.028954515893 0.020862307635
3.991377777000 -0.016768754570 0.016233575796 0.525857223332 0.854113013222 0.510029481302 0.866394127166 -0.028497082356 0.020485572718
3.991800000000 -0.016536481229 0.015110950768 0.526323612714 0.850530646058 0.510980610301 0.864697464353 -0.028460141715 0.020420418820
3.992222222000 -0.016732000803 0.016197630816 0.526805503128 0.852587793214 0.510637309489 0.863494814848 -0.027503943010 0.020748584394
3.992644444000 -0.016943954709 0.016193227170 0.529468164278 0.850309202700 0.512292522147 0.860571224496 -0.028349821163 0.021221182237
3.993066666000 -0.015533627934 0.015409151034 0.531878545477 0.849136713844 0.515666630442 0.862586068096 -0.027857175172 0.020161142841
3.993488888000 -0.016502983625 0.014934751736 0.531842052148 0.847476082752 0.518325808173 0.859547574905 -0.029121834292 0.020725727877
3.993911111000 -0.015395786725 0.015761670795 0.533246597450 0.848668692977 0.517347742908 0.859533051013 -0.027576915330 0.020123793315
3.994333333000 -0.015011272414 0.013579749381 0.536241221762 0.846148921521 0.520403644206 0.862360152494 -0.028306462140 0.017641072950
3.994755555000 -0.016155563790 0.015070741649 0.534759307144 0.845177694336 0.521032364486 0.857336015932 -0.028203396529 0.020050968394
3.995177777000 -0.014859498157 0.014157537150 0.538140616130 0.845014905144 0.522907214909 0.859822965571 -0.027827829976 0.018606665111
3.995600000000 -0.015373078183 0.013967026505 0.539445441499 0.843438831666 0.525847381429 0.856464950780 -0.028740344599 0.018532751542
3.996022222000 -0.016045265083 0.013806625950 0.538557041254 0.841518864753 0.526191908916 0.853532079530 -0.028388567454 0.019441212746
3.996444444000 -0.014644451388 0.014619720708 0.542237040258 0.842480680340 0.525743381531 0.855834931685 -0.028119291788 0.019008295917
3.996866666000 -0.015774940841 0.014770136461 0.542451532696 0.841759562358 0.528469625211 0.854612214571 -0.028826357576 0.019030216951
3.997288888000 -0.015226847911 0.014685598363 0.543552340928 0.840091704328 0.528572143895 0.852093822935 -0.028210498019 0.019191490983
3.997711111000 -0.014899113107 0.013194662791 0.546229517924 0.839120932826 0.532618407409 0.852629266915 -0.028749167138 0.018259971208
3.998133333000 -0.015014377379 0.013417726812 0.545733001032 0.836788672546 0.531866598949 0.849449745504 -0.028571190391 0.018745729437
3.998555555000 -0.015540346088 0.012561797087 0.548097983043 0.835699978633 0.537893145839 0.848877112680 -0.029816191714 0.018542506927
3.998977777000 -0.014833369516 0.013424916212 0.548498889210 0.835111845231 0.533190789737 0.847585699114 -0.028339715491 0.018938458093
3.999400000000 -0.016218266987 0.012553279141 0.554483744464 0.834270964440 0.538532313264 0.842323981693 -0.030637952250 0.018441067158
3.999822222000 -0.014684229816 0.011883815825 0.552448155099 0.833170039264 0.539168929033 0.845933925125 -0.028632359160 0.017793699966
4.000244444000 -0.013833962838 0.011886184638 0.553202824510 0.832020592397 0.541606361458 0.846087730363 -0.028944951440 0.018209006413
4.000666666000 -0.015254873369 0.011716360813 0.554881582641 0.830825207059 0.541568674845 0.842937190282 -0.029340583548 0.017598181976
4.001088888000 -0.014509162047 0.012003299225 0.555999029772 0.830279003674 0.543591244026 0.843661939441 -0.028482823338 0.018086418644
4.001511111000 -0.014889384397 0.012004570063 0.556558451253 0.828948640502 0.545525932747 0.842899489417 -0.029579006660 0.017956982262
4.001933333000 -0.015112691425 0.012185369177 0.557942245862 0.828252328561 0.544468367657 0.841285027162 -0.029684770683 0.017893557438
4.002355555000 -0.014762853468 0.011817728088 0.559038801907 0.825890768933 0.545949244313 0.840791710236 -0.029089578079 0.018231456307
4.002777777000 -0.014928690436 0.010190684820 0.562392385337 0.826911245751 0.552068727536 0.838419000905 -0.029753198984 0.016305753684
4.003200000000 -0.014830397757 0.011264954429 0.564241193866 0.824331156509 0.550408027645 0.836515183973 -0.030168609232 0.017219111348
4.003622222000 -0.014315571094 0.011483686833 0.564055870340 0.823922826311 0.552510462816 0.837165068569 -0.029916283808 0.018037056918
4.004044444000 -0.013961454686 0.010758418307 0.564744353136 0.822477567126 0.554346715587 0.837469554156 -0.029199136893 0.017722579147
4.004466666000 -0.014727050231 0.011677728558 0.565430432824 0.821080232960 0.553272818243 0.835445056763 -0.030083147064 0.018131512227
4.004888888000 -0.015300938901 0.010505568774 0.567147985457 0.820996860348 0.556714824995 0.833698090621 -0.029892483868 0.016699822222
4.005311111000 -0.014548250162 0.011072450151 0.567853779787 0.817917396243 0.555151730833 0.833094186736 -0.029782917985 0.017739084287
4.005733333000 -0.014776454880 0.009996562686 0.568840705181 0.818331506624 0.560009728860 0.832176554740 -0.029670835397 0.017364102985
4.006155555000 -0.014588361771 0.010521709115 0.569565760466 0.816643387051 0.559539242318 0.831739538076 -0.030147826715 0.018036680461
4.006577777000 -0.014635306072 0.009805215466 0.572844179583 0.815333283638 0.562067826879 0.830122992067 -0.030291856645 0.017145386700
4.007000000000 -0.013849512028 0.010020157576 0.578445791247 0.816353145789 0.566413083446 0.825329349547 -0.030691794161 0.018356681821
4.007422222000 -0.014742430551 0.009255346514 0.573920968815 0.813325016802 0.565414094377 0.827562586030 -0.030015420035 0.018041219730
4.007844444000 -0.015686459835 0.009087822113 0.574521941902 0.812865620983 0.566386860874 0.825842870020 -0.029995766348 0.016963985132
4.008266666000 -0.015162196197 0.009390594387 0.577496348117 0.809812919297 0.565978002916 0.824351602055 -0.030476476333 0.017926019121
4.008688888000 -0.015766398032 0.009525712903 0.576635992171 0.809387351438 0.567938927915 0.823399930034 -0.030332738047 0.017908873452
4.009111111000 -0.016734558080 0.008668290280 0.578063525077 0.809589692448 0.571023387361 0.818986600191 -0.030859328392 0.017258894432
4.009533333000 -0.014827840280 0.009565261738 0.580002988700 0.806063090956 0.569133985179 0.822724205229 -0.030380422053 0.018130774232
4.009955555000 -0.016602918857 0.009389472335 0.580738669389 0.804074923757 0.570715363069 0.817867104962 -0.031622684466 0.018320281961
4.010377777000 -0.016002097775 0.008790810999 0.582494211925 0.805988585241 0.574334662801 0.818277766940 -0.031137880790 0.018085071235
