# GHZ S RI R 50.000000000000
3.950000000000 0.164631128033 -0.463575569996 0.819177411665 0.256188304635 0.807862869984 0.246666575147 0.121089149531 -0.456806733706
3.950422222000 0.161576980815 -0.463255634861 0.819830862028 0.253417018329 0.807215390176 0.247099930946 0.117983278521 -0.457670058892
3.950844444000 0.160408044146 -0.463945908397 0.817644433758 0.251816018521 0.806543085387 0.247289767316 0.115265213871 -0.455745035953
3.951266666000 0.157972588329 -0.464643402304 0.818601828973 0.246577257887 0.806592912982 0.245920355109 0.112168975140 -0.456154253623
3.951688888000 0.157053194780 -0.464837043178 0.819525200564 0.245525265630 0.805337631385 0.246238886899 0.110971073515 -0.456243059048
3.952111111000 0.156805162254 -0.464185231418 0.818059383838 0.244902689505 0.806780744066 0.244608728520 0.110141534241 -0.456212133032
3.952533333000 0.154946306415 -0.464800504835 0.819814768995 0.242700742541 0.807070447550 0.243957838694 0.110143932411 -0.455204736075
3.952955555000 0.154112311811 -0.464757733789 0.819827902532 0.241302194854 0.807656082660 0.243191947238 0.108093883996 -0.455788232193
3.953377777000 0.153905253235 -0.465987459528 0.822013071353 0.239181125313 0.807953126084 0.241903290494 0.107150971939 -0.456666925879
3.953800000000 0.154095344112 -0.463993272246 0.818466849821 0.238752964010 0.808146580040 0.241547046074 0.106925381157 -0.456903434062
3.954222222000 0.151999248226 -0.465556421825 0.821847736410 0.237299418629 0.809101559957 0.240093671723 0.106317002040 -0.456639037095
3.954644444000 0.152248088525 -0.465933689137 0.823741295101 0.235583208632 0.809116196267 0.239112284652 0.105035763097 -0.456772712707
3.955066666000 0.152671533442 -0.466056190715 0.824136227523 0.234762228306 0.809389949752 0.238830865142 0.104435198518 -0.457156647098
3.955488888000 0.151372971930 -0.467221041298 0.825734322623 0.233875249539 0.810819851985 0.236657183488 0.104417713875 -0.458139548969
3.955911111000 0.149923323301 -0.466015546849 0.825198057688 0.233359710761 0.811329734959 0.235793198708 0.103930729822 -0.456922195890
3.956333333000 0.150050233993 -0.466949526755 0.825918065506 0.232289766226 0.812501173721 0.234171177133 0.103191846214 -0.458035155011
3.956755555000 0.149766006308 -0.465268119665 0.826168775213 0.230779493099 0.812133566699 0.234831229503 0.102382877362 -0.458163169415
3.957177777000 0.149067201699 -0.467483280990 0.827289331024 0.229127186809 0.813939872286 0.232898619508 0.101719463441 -0.457279178828
3.957600000000 0.149047258957 -0.466960157116 0.828088100138 0.227318326514 0.813662243919 0.231590025201 0.100790317254 -0.458598403937
3.958022222000 0.148840815376 -0.467549112973 0.827955930136 0.228378070648 0.814385501569 0.231002298040 0.099791075832 -0.457379727106
3.958444444000 0.148351717163 -0.467178623577 0.828138052077 0.224639699507 0.814892036972 0.230273356947 0.098656493481 -0.459288942413
3.958866666000 0.146011747475 -0.468162863341 0.829356555058 0.225239905399 0.816496600616 0.229362329360 0.100554225575 -0.457998007233
3.959288888000 0.146936514244 -0.467378770973 0.830637745049 0.223231650081 0.816167545879 0.228339884543 0.098546892879 -0.459626158028
3.959711111000 0.146815275334 -0.468533189238 0.832121889454 0.221025062689 0.817380234457 0.227834794216 0.097785739127 -0.459843078439
3.960133333000 0.145148171137 -0.467985696569 0.831964873905 0.220248002921 0.817331447094 0.226160425556 0.097837487548 -0.459543668098
3.960555555000 0.145165380944 -0.468002335129 0.832480031826 0.218641551107 0.817770843950 0.225078264541 0.097182375438 -0.460096945533
3.960977777000 0.145199592051 -0.467946638709 0.834599153885 0.218164181739 0.817819814714 0.223355515326 0.095390962043 -0.461323750397
3.961400000000 0.144599566617 -0.468238134585 0.833656770704 0.217126250376 0.818506715766 0.222631808559 0.094950135746 -0.461188452174
3.961822222000 0.143791931246 -0.468656328058 0.835041122102 0.214947850543 0.818685410397 0.222348021744 0.094882210291 -0.460283788833
3.962244444000 0.142347233945 -0.468846815024 0.835767584460 0.213864986478 0.820337104026 0.220572297652 0.094378837052 -0.460996860928
3.962666666000 0.142091750918 -0.468502294604 0.835922480123 0.213159390460 0.819617809793 0.219587592303 0.094497857676 -0.461325643265
3.963088888000 0.143031131079 -0.469568621527 0.837293426947 0.212200221106 0.820587509428 0.218575828020 0.092111757162 -0.461679867818
3.963511111000 0.141075899710 -0.469527458377 0.837401488872 0.210479697470 0.821323902996 0.216701410193 0.091778545253 -0.461751774286
3.963933333000 0.141402216951 -0.469596514960 0.838560530674 0.209210120033 0.821622629709 0.215101519122 0.090295207695 -0.462298457379
3.964355555000 0.140515462295 -0.470290417667 0.838463102646 0.206928549998 0.822642463324 0.215648790943 0.090456856317 -0.462076381069
3.964777777000 0.139472674240 -0.470519762862 0.838644635483 0.206269012278 0.823771896509 0.214611897700 0.090838300058 -0.462342007047
3.965200000000 0.140135171117 -0.471450394271 0.839733716934 0.205623149374 0.823980752585 0.212993985780 0.088627385340 -0.462522139824
3.965622222000 0.138034173033 -0.470184827625 0.841240529084 0.202520896163 0.823588167286 0.212136321142 0.088524339053 -0.463773177797
3.966044444000 0.138806761271 -0.470285450085 0.840416793430 0.201481230839 0.824567905168 0.211913060466 0.087968793537 -0.463678940689
3.966466666000 0.138760450664 -0.471436976073 0.841935422663 0.200443515909 0.824701868112 0.210582054950 0.086093408692 -0.464089388160
3.966888888000 0.136435842166 -0.472662968529 0.842357132336 0.199188233926 0.825753862495 0.208429140576 0.085901683635 -0.463337764461
3.967311111000 0.137345901851 -0.471177476009 0.843163080537 0.198260867964 0.824785858895 0.207364793215 0.084791872896 -0.463904118315
3.967733333000 0.135979570539 -0.472136723948 0.843259208645 0.196723410608 0.826536244818 0.206114326354 0.084664477591 -0.463270031058
3.968155555000 0.134423007487 -0.472624433509 0.844310425449 0.195094528004 0.826529892903 0.204344427902 0.083359156351 -0.463807256155
3.968577777000 0.134591465082 -0.472316131171 0.844906432428 0.193609513680 0.826837637183 0.204981894533 0.083830626110 -0.464295159590
3.969000000000 0.132944800196 -0.473105776323 0.846411978956 0.193188622917 0.827380228835 0.200132122298 0.080527976353 -0.464806862944
3.969422222000 0.132803472550 -0.472124203459 0.845373750054 0.190712659122 0.828004921514 0.201852925355 0.082056494411 -0.464377717286
3.969844444000 0.133603027636 -0.472869623660 0.845516339626 0.189836905947 0.829108564454 0.202914351164 0.082060013103 -0.464960843807
3.970266666000 0.132073352861 -0.473176880092 0.846279228854 0.188878582480 0.830030378876 0.198255992716 0.079774050616 -0.465903415998
3.970688888000 0.130982732812 -0.474146586026 0.846605267109 0.187422444570 0.829840395938 0.197556834261 0.079091844214 -0.465196998285
3.971111111000 0.131512385640 -0.474390270262 0.847212695728 0.186053141478 0.831007858299 0.197899040395 0.078592704939 -0.465791069087
3.971533333000 0.130000082566 -0.473699135716 0.848397305419 0.184937334920 0.828830371755 0.195051825470 0.077039860291 -0.465073794808
3.971955555000 0.129556722665 -0.474806784725 0.848395732938 0.183430741993 0.831931051963 0.194854161905 0.076771483396 -0.466211172858
3.972377777000 0.128758278889 -0.474174514514 0.848754743737 0.182327521621 0.830971324321 0.193096902567 0.076556038788 -0.466010160581
3.972800000000 0.128616483826 -0.475215847144 0.849348885186 0.180424693079 0.832501499112 0.194387808217 0.076555272924 -0.465987182063
3.973222222000 0.127777241628 -0.474880214987 0.849720784610 0.179371562717 0.832317094339 0.191623703819 0.074897282170 -0.466622127370
3.973644444000 0.126600940679 -0.475609747682 0.850210583499 0.177837681158 0.833589543953 0.189765673381 0.073788038454 -0.466925154444
3.974066666000 0.124748367255 -0.474479963077 0.851146988573 0.176458474822 0.831619743222 0.187693440784 0.073312904184 -0.465822367549
3.974488888000 0.126361555720 -0.475951960146 0.851485903101 0.175076672793 0.834049334802 0.189177936283 0.072854979393 -0.467009975221
3.974911111000 0.124892157618 -0.477185793978 0.851672128416 0.173810015632 0.834820765378 0.186874513824 0.071666706707 -0.466773319117
3.975333333000 0.123963737199 -0.475758559700 0.852393947891 0.172327161391 0.834512640628 0.185624519582 0.071358896093 -0.466776709538
3.975755555000 0.123029880264 -0.477747584925 0.852656055717 0.170989011006 0.836286638343 0.184367693594 0.070299692503 -0.466576132543
3.976177777000 0.123491081917 -0.476905562058 0.852783390145 0.170047113091 0.835317270992 0.183506636264 0.069780547564 -0.467358811857
3.976600000000 0.123069972173 -0.476811018992 0.852699949379 0.168788458946 0.836186111174 0.181585451557 0.068890943048 -0.467555691818
3.977022222000 0.121670130075 -0.478352745637 0.853888885975 0.166814590181 0.837103393381 0.181780193190 0.067992110395 -0.467726027151
3.977444444000 0.121880112527 -0.476094746080 0.854395192055 0.166055963193 0.836075976389 0.182042221499 0.069019058068 -0.467795396384
3.977866666000 0.121519482079 -0.478899248396 0.854917654425 0.164409916506 0.838514372601 0.179893581263 0.065921223671 -0.468222981286
3.978288888000 0.119563321732 -0.478489243037 0.855049428564 0.162954680053 0.838204682513 0.177032973511 0.065907964023 -0.468689986830
3.978711111000 0.119418441197 -0.477898350989 0.855525835293 0.161470545281 0.837409350001 0.177340172432 0.065568334695 -0.467604716069
3.979133333000 0.118512755405 -0.480064639969 0.855883499480 0.160452007912 0.839415070911 0.175633466835 0.064606975530 -0.468090261067
3.979555555000 0.117928692647 -0.480396267140 0.856264159447 0.158836842129 0.841337921767 0.174962985402 0.063550628065 -0.468656264893
3.979977777000 0.116102645999 -0.479654140279 0.856072047892 0.157926321878 0.840199286357 0.171009708690 0.062327624970 -0.468809808241
3.980400000000 0.117038218559 -0.479880757588 0.856957081828 0.156551516968 0.840725774475 0.173010961744 0.062149505853 -0.469165373234
3.980822222000 0.115770273825 -0.480984047934 0.857835986632 0.155189187152 0.842271740398 0.170819184132 0.061201215299 -0.469404829154
3.981244444000 0.115031615191 -0.482013446651 0.857687274426 0.153346245281 0.843157441926 0.169595744071 0.059963294336 -0.469423723706
3.981666666000 0.112262676099 -0.481408654979 0.857304069791 0.151341166427 0.843379476489 0.165123668957 0.058758498847 -0.467945161385
3.982088888000 0.112549999677 -0.480596746076 0.857844150564 0.150834200729 0.841924475623 0.165699415686 0.058436275328 -0.468463882734
3.982511111000 0.113345931968 -0.482340340823 0.858662592280 0.149629910185 0.844357507867 0.165706619414 0.057246797489 -0.470247898592
3.982933333000 0.111690801149 -0.482648709979 0.859510996067 0.148371325930 0.844413519268 0.164713995025 0.056857574678 -0.469741692121
3.983355555000 0.110272913141 -0.481236418297 0.859076343619 0.146919031936 0.843276542052 0.162337559386 0.055976465441 -0.468530139035
3.983777777000 0.109331108828 -0.483022387914 0.859791753452 0.144583532203 0.845341977687 0.161613098872 0.054819503169 -0.468774281649
3.984200000000 0.107820650402 -0.481450990355 0.859221401690 0.143937904093 0.844740762251 0.158502412943 0.053246770011 -0.469211307015
3.984622222000 0.108522438473 -0.482585412948 0.860398672080 0.142886132241 0.844705475071 0.158849716392 0.054026711244 -0.469198622817
3.985044444000 0.107583068257 -0.483152093908 0.860705188277 0.140973421125 0.845983488075 0.157734525792 0.053406813826 -0.468859131544
3.985466666000 0.108104373057 -0.483759133113 0.861319475472 0.139906335846 0.846492155803 0.158242223619 0.053183873097 -0.469891336832
3.985888888000 0.104981393674 -0.483882611442 0.860787087002 0.138077006445 0.847044374070 0.154228148457 0.050888324662 -0.468455499157
3.986311111000 0.105990532778 -0.483424260320 0.861699916538 0.137610455857 0.846047126680 0.155060606935 0.051192088208 -0.469126485821
3.986733333000 0.103173518691 -0.485120539197 0.862062543327 0.135385357070 0.849592250609 0.152166782698 0.049791473967 -0.469087261763
3.987155555000 0.103908120455 -0.484027963778 0.862038590784 0.133817069448 0.847842969104 0.151900212853 0.049313589903 -0.469429014421
3.987577777000 0.103972289463 -0.486169947125 0.862890554580 0.133110200976 0.849115217560 0.150999920915 0.048183600361 -0.469135736809
3.988000000000 0.102166082601 -0.486754015417 0.863646875689 0.131006405462 0.851272801614 0.148629175476 0.045996997236 -0.470561875778
3.988422222000 0.102241898815 -0.486459009660 0.863943166291 0.130962603841 0.849259734771 0.148848609193 0.047016990916 -0.469719766094
3.988844444000 0.100726768235 -0.485973324014 0.863342854973 0.128584623308 0.851582862716 0.147115870836 0.046726625987 -0.470656974202
3.989266666000 0.100826542733 -0.487811299329 0.864716156530 0.126179460315 0.854670772417 0.147718559300 0.044637790423 -0.471943342666
3.989688888000 0.098990725380 -0.487638326477 0.864441395772 0.125336943323 0.852858257442 0.144929745385 0.044345686249 -0.469783887171
3.990111111000 0.098762052737 -0.487771164911 0.863805281087 0.124331402228 0.852308063378 0.142402612513 0.042485795489 -0.469991520569
3.990533333000 0.098168852956 -0.487417223396 0.865351985134 0.123684661998 0.852861119400 0.143737078132 0.043950651770 -0.470687991087
3.990955555000 0.096205952695 -0.488559268402 0.865566477144 0.122023414576 0.854180520546 0.140625293479 0.041604131234 -0.469896314491
3.991377777000 0.095737092364 -0.488682740570 0.865753806348 0.119655125731 0.854286039195 0.139277025982 0.039889431720 -0.470340739513
3.991800000000 0.095620373251 -0.489974474180 0.867900115833 0.116420937045 0.857398649291 0.141211746522 0.041606250289 -0.471554620578
3.992222222000 0.095279849967 -0.487605229751 0.866302745595 0.118174582009 0.852950792269 0.138920853609 0.040722665353 -0.469887091682
3.992644444000 0.093270597256 -0.487559908518 0.866136537327 0.115476703609 0.853456022524 0.135685606725 0.038643411099 -0.469176785270
3.993066666000 0.092618318079 -0.489552323136 0.866638637529 0.114317922083 0.855087787190 0.134479309589 0.036985463097 -0.469418758912
3.993488888000 0.090575882893 -0.489132811800 0.866362717397 0.113396353284 0.856160728385 0.132013691483 0.036680416666 -0.469382016648
3.993911111000 0.091117752261 -0.489323471418 0.867184663187 0.112909359218 0.855263539389 0.131684947056 0.037089024345 -0.470020695185
3.994333333000 0.090365044690 -0.492346737616 0.868454381144 0.110217698481 0.859515984083 0.131872519360 0.034737896802 -0.471532717467
3.994755555000 0.089050966237 -0.489485017025 0.867148310132 0.109746017390 0.856466260517 0.129363206264 0.035668056298 -0.469162917827
3.995177777000 0.088607324338 -0.491521965714 0.868601511790 0.107804901450 0.858784071375 0.129086597789 0.034220518906 -0.471193864035
3.995600000000 0.087141182619 -0.491707360208 0.869205055443 0.106004859163 0.859346466819 0.126286197028 0.032490465313 -0.470706321582
3.996022222000 0.085017808570 -0.489413515337 0.867434502510 0.106044334095 0.857663895253 0.123641843290 0.033039749932 -0.469528059299
3.996444444000 0.086732771751 -0.491088274786 0.870038880699 0.104294685154 0.859160575280 0.126196554382 0.032691393062 -0.471472914268
3.996866666000 0.085507456001 -0.490802637360 0.870320389239 0.103807931062 0.857881979564 0.124319467651 0.032095031518 -0.469809102024
3.997288888000 0.084730965465 -0.490950931249 0.869891321237 0.101185795772 0.859062135810 0.122670736830 0.031145108398 -0.470351197526
3.997711111000 0.083286889746 -0.492051927563 0.871500173344 0.100150578746 0.860245448805 0.120599827766 0.029229990513 -0.470810122037
3.998133333000 0.082216268142 -0.491352425299 0.869953379250 0.098711868724 0.859868192726 0.119421737515 0.029573905293 -0.469637200695
3.998555555000 0.079737190371 -0.492469361127 0.870937367078 0.097085561879 0.861647938593 0.115617212289 0.027033511845 -0.469615451463
3.998977777000 0.081046582619 -0.490902418861 0.870908211298 0.096451418828 0.859082701608 0.117795135630 0.028868927250 -0.469491466630
3.999400000000 0.076017079266 -0.492435047053 0.874005690191 0.091802241302 0.859836942659 0.110408947321 0.023684002018 -0.469564184886
3.999822222000 0.078852687395 -0.492794637343 0.871308700718 0.093568078100 0.862498564666 0.115238409601 0.026854919781 -0.470472825058
4.000244444000 0.076792920272 -0.493223526218 0.872702216752 0.092987387409 0.861581404122 0.110086234010 0.024228002831 -0.469760477230
4.000666666000 0.076237761688 -0.493167272221 0.872814108785 0.089629363426 0.861971789409 0.110438344230 0.023577511672 -0.469592157158
4.001088888000 0.075329513508 -0.493733064869 0.872583386141 0.088998588159 0.862715020927 0.109562300593 0.023872572646 -0.469367365867
4.001511111000 0.075060793648 -0.494691167331 0.872453130780 0.088889083167 0.865917972432 0.107814186034 0.022772771593 -0.470380617822
4.001933333000 0.075186649542 -0.493606628983 0.873613739591 0.087555511916 0.864045320990 0.108254016765 0.022873856614 -0.470605311863
4.002355555000 0.073250254628 -0.493835310545 0.870917528991 0.084816842718 0.864547576211 0.107145562615 0.022639295913 -0.469112684798
4.002777777000 0.070896212049 -0.494680663426 0.875083958740 0.084126128538 0.866661782131 0.101924480019 0.019198652194 -0.471929421983
4.003200000000 0.070880128334 -0.494593350650 0.875314777393 0.081166743536 0.865819815763 0.102400890562 0.018826671666 -0.470739950030
4.003622222000 0.069828824664 -0.495037849915 0.875080595665 0.079412117832 0.864557193614 0.101683650175 0.018660677772 -0.468917674818
4.004044444000 0.068259006083 -0.495009935492 0.873960950933 0.079238388256 0.866378943937 0.100149493497 0.018873043059 -0.469752366830
4.004466666000 0.068760989909 -0.494920846093 0.874381380997 0.078577032951 0.867147009032 0.099690383163 0.018236023401 -0.469918604375
4.004888888000 0.067333539489 -0.494641738806 0.874584708372 0.077217816001 0.867179488195 0.097642249518 0.017167406554 -0.470178461613
4.005311111000 0.066432233051 -0.495403168100 0.873794442235 0.074843803631 0.868454732445 0.097068706438 0.016908194888 -0.469844630281
4.005733333000 0.064308150783 -0.495268614118 0.874512433352 0.075091804025 0.868983033349 0.094242335972 0.016434531766 -0.470365541808
4.006155555000 0.065280531108 -0.495231304767 0.873444517268 0.073305152487 0.868933553941 0.093886840187 0.015054472229 -0.469883314161
4.006577777000 0.062949602221 -0.495008437394 0.875437868963 0.069999527235 0.869045926135 0.092073102781 0.013499006293 -0.470489527251
4.007000000000 0.060550338529 -0.494143285079 0.878230986398 0.064354111498 0.865172585341 0.088450340944 0.009979517289 -0.468812388478
4.007422222000 0.060451626466 -0.495845150221 0.875433127109 0.067808912256 0.869812746309 0.088775827042 0.012783164458 -0.469374280180
4.007844444000 0.060510558547 -0.495723578042 0.875672473255 0.067010527035 0.869951625766 0.089081648598 0.012804100829 -0.469419314496
4.008266666000 0.058572341495 -0.495431351600 0.876458231358 0.063619747347 0.867780850192 0.087035095661 0.010972181681 -0.467692143106
4.008688888000 0.057450859957 -0.494916243330 0.874746954318 0.062809271853 0.869873139771 0.085505366561 0.011286746046 -0.468211210924
4.009111111000 0.055924179938 -0.495423922842 0.876730084544 0.063336002866 0.869877507558 0.082218906173 0.010142513641 -0.468449693557
4.009533333000 0.055456611573 -0.495767186734 0.877264374377 0.060162203446 0.870735730381 0.080569770915 0.007670737072 -0.468950789320
4.009955555000 0.053502676975 -0.495186949753 0.874767542861 0.058641112490 0.872353514026 0.079648419610 0.008384481482 -0.468333365344
4.010377777000 0.052662393673 -0.495495073956 0.876517153615 0.055957494507 0.872652746893 0.077707857868 0.006734919840 -0.469652270273
