# GHZ S RI R 50.000000000000
3.950000000000 0.207998380302 -0.394414993959 0.791734762218 0.380139365291 0.780997800579 0.379387475114 0.170124453934 -0.389657181431
3.950422222000 0.204599237115 -0.394979063523 0.792653847556 0.378770059867 0.780670641191 0.378425472633 0.167695268198 -0.390856340584
3.950844444000 0.203673285398 -0.396038341054 0.791009747898 0.378789649342 0.779223585250 0.378772502506 0.165542812689 -0.389822847212
3.951266666000 0.202603352439 -0.396898761843 0.792728275518 0.377586993960 0.780710151617 0.376753284741 0.163685449386 -0.390305532367
3.951688888000 0.200578110338 -0.397451632937 0.794105555728 0.375179245712 0.778917001640 0.376828907299 0.163058886252 -0.390890069485
3.952111111000 0.200242601240 -0.396872678137 0.792690325569 0.374673801370 0.780921155053 0.375679500010 0.162040383040 -0.390464289511
3.952533333000 0.199186334665 -0.396951702404 0.794172291846 0.375255716168 0.780002858606 0.374962848939 0.162483673143 -0.390376977207
3.952955555000 0.197225809780 -0.397114779631 0.793684695662 0.371431341158 0.780963600710 0.374196523951 0.160798029757 -0.391345282418
3.953377777000 0.197980487134 -0.397304905007 0.794639476585 0.371720956844 0.782396431094 0.372900585478 0.159815988257 -0.390968393889
3.953800000000 0.197533838493 -0.396926749824 0.793552713278 0.369543996516 0.781919109915 0.372618377548 0.159805342581 -0.391938650068
3.954222222000 0.196413548959 -0.397861963722 0.796471189574 0.370498730607 0.783114380196 0.371275141683 0.159785368667 -0.391429158553
3.954644444000 0.195799676830 -0.398404600204 0.798690244262 0.366334879531 0.783734905373 0.370710401439 0.158650583813 -0.392086528941
3.955066666000 0.196298384640 -0.398018111677 0.798374663092 0.366660648018 0.783680078513 0.369561632179 0.158731485175 -0.392151546052
3.955488888000 0.196216817592 -0.398794028529 0.800037408954 0.368090940434 0.785761861240 0.367968078076 0.159161994496 -0.392560198539
3.955911111000 0.193895463610 -0.399262533445 0.801972446119 0.365289950292 0.786282113696 0.366609485662 0.158627153371 -0.392233611655
3.956333333000 0.193559893111 -0.399282879930 0.800513196763 0.363139197742 0.787981808715 0.365671846801 0.157900795099 -0.392851788372
3.956755555000 0.194536480436 -0.397971344326 0.802296960957 0.364992973371 0.787364614642 0.365612540282 0.157839816582 -0.393072130000
3.957177777000 0.194712094708 -0.399770558434 0.803242970253 0.364390525968 0.789268024997 0.364325099315 0.156880021423 -0.392796191527
3.957600000000 0.193346132243 -0.399346388512 0.803787170484 0.360162534536 0.789333471754 0.363349754635 0.155472685602 -0.393436253794
3.958022222000 0.193662358810 -0.399872115495 0.803497561301 0.361839314756 0.790305440141 0.362354858391 0.155478874271 -0.393036617751
3.958444444000 0.193476899331 -0.400418783047 0.805991065148 0.358279759245 0.791159754398 0.362076301953 0.154421318033 -0.394244331628
3.958866666000 0.191134445114 -0.400763563735 0.805289019875 0.359701846352 0.792351786543 0.360691116439 0.156452542492 -0.393079509359
3.959288888000 0.191322490492 -0.399520869949 0.806236290859 0.356371636000 0.792346983448 0.360006526000 0.154901638738 -0.394459796116
3.959711111000 0.192066622608 -0.400650314774 0.808251778659 0.355334301800 0.793745449381 0.359015359275 0.154746732442 -0.395185367480
3.960133333000 0.190052710470 -0.400814308989 0.808923398454 0.354041166018 0.793856816825 0.357789522453 0.153657049181 -0.394959012783
3.960555555000 0.191247159403 -0.400422715587 0.809419978510 0.354747651289 0.794214418649 0.356559191222 0.153495140975 -0.396015390716
3.960977777000 0.191046794794 -0.400428368473 0.811464910484 0.353511433127 0.795019794106 0.355075136505 0.152426259557 -0.396990619517
3.961400000000 0.189413591688 -0.401933626080 0.812706699039 0.349700110198 0.795449710588 0.354804128377 0.151378710756 -0.395874642889
3.961822222000 0.189674485183 -0.401473123517 0.813032196170 0.350294243449 0.795636757541 0.354184646184 0.151395882604 -0.396306099296
3.962244444000 0.188334511471 -0.402033752937 0.813978069937 0.348461277231 0.798260361112 0.352557791412 0.151752973190 -0.397011350006
3.962666666000 0.187728238303 -0.401410915212 0.813915930684 0.347548558569 0.797333479527 0.351592709678 0.151628157821 -0.396311412155
3.963088888000 0.188511011574 -0.402028327198 0.814273822520 0.346102123795 0.798779384398 0.350540623190 0.149493156710 -0.397445942240
3.963511111000 0.187514076793 -0.402901231272 0.816392471124 0.346000690763 0.799785434803 0.348491868151 0.149526214680 -0.397859596517
3.963933333000 0.187360890358 -0.402286462488 0.816545726122 0.344013062819 0.800160132160 0.347295216444 0.147774191574 -0.398033087476
3.964355555000 0.187565276265 -0.403439709734 0.817496351232 0.343326747525 0.801272973786 0.347649560478 0.147708058484 -0.398325885164
3.964777777000 0.186649029926 -0.404640239073 0.819388417710 0.341781339903 0.802275039335 0.346465224418 0.147827555941 -0.398961728694
3.965200000000 0.186916676759 -0.404588659822 0.818827394348 0.340639083088 0.803232029318 0.345241724950 0.146422373715 -0.398448086695
3.965622222000 0.185442166615 -0.403588650753 0.820902329581 0.339006496990 0.802934003234 0.343794954812 0.146656072397 -0.399909449348
3.966044444000 0.186271976154 -0.403901231558 0.821101141545 0.337843436722 0.803637686067 0.343600186579 0.146218768725 -0.400342833527
3.966466666000 0.185727948731 -0.404918380050 0.822528668153 0.335625593695 0.804027989248 0.343240142013 0.144272137373 -0.399812237812
3.966888888000 0.183951542308 -0.405705005473 0.821831293443 0.334705214109 0.806031367449 0.341050209255 0.144575363906 -0.399537783080
3.967311111000 0.184572324953 -0.404957644658 0.823918751463 0.333700681568 0.805005225521 0.339430194822 0.143437818500 -0.400864344093
3.967733333000 0.183616872733 -0.405715947574 0.823815290419 0.332337649579 0.807395476643 0.338714578302 0.143944797157 -0.400204705496
3.968155555000 0.182623089564 -0.406020012785 0.824635766683 0.331610089721 0.807747350649 0.336832256111 0.142723451132 -0.400792388893
3.968577777000 0.182518353721 -0.406050593232 0.825782622915 0.329169035940 0.807842205549 0.337158992710 0.143060255719 -0.401392153271
3.969000000000 0.179620718710 -0.407627764297 0.829032316964 0.325906942489 0.807797403762 0.334306969774 0.139483552483 -0.399899335784
3.969422222000 0.181184613185 -0.406320965092 0.827185641983 0.327165009805 0.809290248649 0.333994487367 0.141020890478 -0.401783499795
3.969844444000 0.181929377744 -0.407334490439 0.827477220381 0.325291843760 0.810664507979 0.334951571137 0.141055093210 -0.403081595157
3.970266666000 0.180249495395 -0.407204992440 0.828003520292 0.324395493696 0.811474719828 0.331119409005 0.139458064180 -0.402672180659
3.970688888000 0.180198773467 -0.408660800781 0.829355022002 0.323769905242 0.811833743212 0.329983680512 0.138835204391 -0.403030816063
3.971111111000 0.180447762105 -0.408894896990 0.830135493732 0.322000620672 0.812746953780 0.330671678003 0.137807145679 -0.403560845301
3.971533333000 0.179058544065 -0.407875732637 0.830534463410 0.320530810479 0.811689680008 0.328290980260 0.137788049569 -0.403262502230
3.971955555000 0.178714740781 -0.409278964369 0.831611233249 0.319340876529 0.814190784789 0.327821250293 0.136417001501 -0.404196902836
3.972377777000 0.177968170687 -0.409020208100 0.832303878793 0.317605564316 0.813876554661 0.325674999250 0.136732634068 -0.404624223258
3.972800000000 0.178199871379 -0.409753590886 0.832381526004 0.316632333827 0.815271684760 0.326869009727 0.136376442521 -0.404703785554
3.973222222000 0.177521773869 -0.409639247230 0.833457094167 0.315002778727 0.815607971054 0.324941094688 0.135623813679 -0.405087724671
3.973644444000 0.176655752238 -0.410403372643 0.834225536967 0.313935815242 0.816952429581 0.323229942225 0.134665647359 -0.405068867621
3.974066666000 0.174775509560 -0.409523108329 0.834840409573 0.312492981757 0.816357030812 0.320432836874 0.134004376028 -0.405234513274
3.974488888000 0.176670324280 -0.410767501677 0.835041483574 0.311264127734 0.818525289266 0.321644072836 0.133341939627 -0.406748871773
3.974911111000 0.175462040145 -0.412126139807 0.836084886449 0.309736242800 0.818656111837 0.320375754112 0.132463087493 -0.405477692617
3.975333333000 0.174627641957 -0.411058279480 0.837073091015 0.309105773636 0.818730999001 0.318064714127 0.131531615878 -0.406045142931
3.975755555000 0.173619309068 -0.413267704259 0.837788580219 0.306822447260 0.820663033095 0.317016989957 0.130226365855 -0.406232218439
3.976177777000 0.174411106134 -0.412134570268 0.837843517884 0.306288528561 0.819542303057 0.316625857438 0.130273509242 -0.406603982962
3.976600000000 0.174062976707 -0.412350111104 0.838187032436 0.305335877801 0.820336063661 0.313631560732 0.129079892791 -0.407502873317
3.977022222000 0.172882375156 -0.413943071336 0.839721799862 0.302987066724 0.821838533015 0.314981727052 0.128622524714 -0.407575020822
3.977444444000 0.172820756210 -0.412001574212 0.839838686504 0.302023145610 0.821545284291 0.314054770455 0.129398391681 -0.408483103599
3.977866666000 0.173181712313 -0.414335535709 0.840747347865 0.300044279401 0.824392163663 0.313701198131 0.127503867452 -0.408767819129
3.978288888000 0.171344216041 -0.414274190201 0.841259375184 0.299206245234 0.823880239186 0.310494789060 0.127165637785 -0.408924726543
3.978711111000 0.171069453794 -0.414095587746 0.841988013469 0.297701262700 0.823325866148 0.309689381977 0.126093708289 -0.408314777152
3.979133333000 0.170306391779 -0.416214732587 0.842565133991 0.296226615766 0.825049690363 0.308943091646 0.125465123391 -0.408759986156
3.979555555000 0.170086969100 -0.416629754368 0.842962395463 0.294525733398 0.827605152355 0.308424129081 0.124844752649 -0.409615470392
3.979977777000 0.168220502507 -0.415514173130 0.843166593766 0.293791778294 0.825463123338 0.305569034161 0.123985167713 -0.408681637007
3.980400000000 0.169412241546 -0.416197785305 0.844032744539 0.292232040687 0.827357329840 0.306237893270 0.123493423680 -0.410721959096
3.980822222000 0.168129798650 -0.417507954170 0.845332550973 0.291460843331 0.828266334946 0.303763896274 0.121797166212 -0.410607318298
3.981244444000 0.167988613995 -0.418015352529 0.845797230078 0.289601465880 0.828880918317 0.303953099246 0.121774812705 -0.410064213006
3.981666666000 0.165003912031 -0.417632515193 0.845514203961 0.287585218534 0.828718963851 0.299668546339 0.120027204881 -0.408120017976
3.982088888000 0.165869566409 -0.417355003109 0.846197436633 0.287131793061 0.829401900702 0.299731742642 0.120227228846 -0.410325947041
3.982511111000 0.166913028172 -0.418960603478 0.847286941644 0.285680820322 0.831586299345 0.300620541145 0.119784564707 -0.412196057660
3.982933333000 0.165367130340 -0.419519843244 0.848162096594 0.284411786491 0.832342835782 0.299276488818 0.119238403345 -0.412195699492
3.983355555000 0.164063874519 -0.418517833850 0.848099811216 0.282913562096 0.831750535913 0.296208052488 0.117908065259 -0.411272108203
3.983777777000 0.162898574451 -0.420195931314 0.848927398521 0.280688656450 0.833148345666 0.295066727203 0.116290789433 -0.411223841231
3.984200000000 0.162069672932 -0.418699612451 0.848845403851 0.279810979325 0.833677705346 0.294056761039 0.116596305987 -0.411949926479
3.984622222000 0.162413998783 -0.419769284425 0.849814688589 0.279172320261 0.832593577374 0.292986676007 0.116027049075 -0.411592121293
3.985044444000 0.161612286265 -0.420277855069 0.850560598275 0.277447196009 0.833257731309 0.291959231945 0.115299371619 -0.410787955525
3.985466666000 0.162315793960 -0.420947185552 0.851324682475 0.276460461781 0.834515196264 0.291693565240 0.114903124658 -0.412760431705
3.985888888000 0.159394565915 -0.421721062646 0.850902331214 0.274329791341 0.836414452415 0.287649655374 0.112796652648 -0.412270179503
3.986311111000 0.160564848222 -0.421086479735 0.852515360086 0.273892713930 0.834658831202 0.289020639045 0.113243391634 -0.412608003882
3.986733333000 0.157704573457 -0.423141547895 0.852292192669 0.271140410486 0.838892384851 0.285157548863 0.111177407532 -0.412883374704
3.987155555000 0.158738367775 -0.421590320696 0.852991028238 0.270342617873 0.836261722515 0.285786991024 0.111264223508 -0.412755793048
3.987577777000 0.159109595080 -0.423785054162 0.854375304418 0.269378380735 0.837992359831 0.285174061644 0.110225883986 -0.412599535639
3.988000000000 0.157518943072 -0.424315993308 0.855152425984 0.267914360142 0.840032741932 0.284148615578 0.108841452690 -0.413957890407
3.988422222000 0.157648804381 -0.424520089894 0.855097589800 0.267182243330 0.839183982293 0.282888564736 0.109415576785 -0.414118195269
3.988844444000 0.155894408547 -0.424038002352 0.854959987170 0.265483032494 0.839989593860 0.280844630517 0.108604323125 -0.414208489959
3.989266666000 0.155768826319 -0.425676033040 0.856122807822 0.262671684502 0.842285867431 0.280368171914 0.105459830679 -0.415573131275
3.989688888000 0.154562338434 -0.425726489561 0.856672221083 0.261454925628 0.841961530212 0.279060419335 0.106099273383 -0.413975428219
3.990111111000 0.155636601505 -0.425706204529 0.857293628274 0.261184760916 0.841731304188 0.279518667679 0.106864635699 -0.414370199252
3.990533333000 0.154028776529 -0.425872424386 0.857823385302 0.259619852734 0.842367431759 0.277694288446 0.105890998108 -0.415153129263
3.990955555000 0.152173150045 -0.427438319787 0.858093939222 0.257643192233 0.844839273648 0.273768787182 0.103094191030 -0.415169666057
3.991377777000 0.152185412177 -0.427358467878 0.858730971054 0.255896793729 0.845018219842 0.274255675465 0.102680561183 -0.415731951860
3.991800000000 0.151729079048 -0.427334130197 0.859769258532 0.254738480836 0.844148840387 0.274185892233 0.103074922704 -0.414486984801
3.992222222000 0.151228448785 -0.426584335772 0.859135274343 0.254711583219 0.843793419572 0.271172877043 0.102255765313 -0.415721534420
3.992644444000 0.150127114285 -0.426384835491 0.860191035380 0.252161216646 0.843657143456 0.270514372470 0.101585217585 -0.414299017268
3.993066666000 0.149695793552 -0.428973894776 0.860906642931 0.250660830092 0.847191642818 0.269266090716 0.100177136387 -0.416031138529
3.993488888000 0.147426409943 -0.428591123956 0.860389019159 0.248914922046 0.847522142538 0.266486876093 0.099230335732 -0.415256082582
3.993911111000 0.148429021005 -0.428529387929 0.861416477191 0.249048908472 0.846726330448 0.266522887186 0.100071172023 -0.416105248850
3.994333333000 0.148683676393 -0.431589493913 0.863850624363 0.247092047538 0.850888525432 0.268857146725 0.099018633091 -0.418047407129
3.994755555000 0.146229446084 -0.428685559220 0.861047861044 0.245739945849 0.847608529126 0.264501962420 0.098423621301 -0.414979251990
3.995177777000 0.146537091576 -0.430693186250 0.863640133271 0.245228112608 0.849369250643 0.264659831390 0.097758839151 -0.417065567806
3.995600000000 0.145267164953 -0.430718614763 0.864193827595 0.243688952214 0.849730880114 0.262114297431 0.096106827988 -0.416326829628
3.996022222000 0.142672076910 -0.429143295037 0.862150359471 0.241895021396 0.848874373826 0.259344371130 0.096336972099 -0.415461894974
3.996444444000 0.144753940462 -0.430374515463 0.865285137698 0.241133134553 0.849968436114 0.261521217694 0.096186927547 -0.417204927455
3.996866666000 0.143409260406 -0.430266875485 0.864930616949 0.240296444725 0.849651184667 0.259419179369 0.095268255029 -0.416026641573
3.997288888000 0.142903424366 -0.430311879515 0.864839442477 0.238122518484 0.849866212012 0.257918325242 0.094576093481 -0.416189365265
3.997711111000 0.141414867714 -0.431846332751 0.866684346451 0.236996852369 0.851782917543 0.255905318967 0.092785034497 -0.417208509274
3.998133333000 0.140463687430 -0.430841647025 0.864995075549 0.236349292064 0.850702215336 0.253730036663 0.092738082266 -0.415510797366
3.998555555000 0.138074736786 -0.432493582285 0.865975820086 0.233870064046 0.853983834424 0.250498975961 0.090213003092 -0.416311521304
3.998977777000 0.139466140077 -0.431134141454 0.866798859210 0.233155648400 0.851598864218 0.252886907153 0.092561167644 -0.416292755977
3.999400000000 0.135283790243 -0.432701889591 0.869793644344 0.228973643148 0.852363897119 0.247197164483 0.088381254505 -0.416143091684
3.999822222000 0.136996343705 -0.433105985508 0.868220416344 0.229943125374 0.853449921758 0.248849448744 0.089318506846 -0.416928599974
4.000244444000 0.136286232776 -0.434150548664 0.868222280135 0.230174185436 0.856422668966 0.247047055393 0.089436958132 -0.417593709347
4.000666666000 0.135602169243 -0.433845796327 0.869544416656 0.227763528513 0.855122142134 0.246057126947 0.088063326469 -0.417176266839
4.001088888000 0.134872285001 -0.434387314294 0.869005754970 0.226650583775 0.855217105536 0.245518883064 0.088322324544 -0.416240817725
4.001511111000 0.134425040983 -0.435037304681 0.869401470585 0.225153376962 0.857707390431 0.243797868744 0.086725030939 -0.416923221274
4.001933333000 0.134407775850 -0.434327782719 0.870437283511 0.224495471316 0.857368355915 0.242995242146 0.086688904645 -0.417921532277
4.002355555000 0.133055932002 -0.434899449111 0.868974056514 0.221576609460 0.856721351832 0.243384008975 0.086816407787 -0.416129200007
4.002777777000 0.130508219540 -0.436011194293 0.872891715887 0.221222944869 0.859624669605 0.237398736183 0.083359626009 -0.419341791348
4.003200000000 0.130764078709 -0.435392352705 0.872152795972 0.217904113588 0.857753775295 0.238886563597 0.083364762742 -0.417182489635
4.003622222000 0.130420233966 -0.436450315875 0.871990458578 0.217673486147 0.859337293816 0.237867063367 0.083720415360 -0.416967284094
4.004044444000 0.128723387372 -0.436219311065 0.870723733642 0.216852946401 0.858950125125 0.236541513189 0.083664209584 -0.416487889053
4.004466666000 0.129045361505 -0.436132958225 0.871757115319 0.215077328217 0.859818369801 0.235443357166 0.082443903316 -0.416736843972
4.004888888000 0.127372217983 -0.437100859642 0.873723791660 0.214846732809 0.862987236928 0.232270750828 0.081122411476 -0.419187325017
4.005311111000 0.127003794393 -0.436856008776 0.872290761054 0.211964211038 0.860411660157 0.232724150823 0.081236280115 -0.416551626960
4.005733333000 0.124918719936 -0.437023746253 0.871890285354 0.210743288894 0.861772639623 0.231236712165 0.081133885735 -0.416878668025
4.006155555000 0.126051295205 -0.437682668190 0.872567132834 0.210095852394 0.863763984624 0.230279529875 0.079976093369 -0.418028593405
4.006577777000 0.123875567382 -0.437302122106 0.874014093884 0.208276479993 0.863353010394 0.227750226549 0.078355023703 -0.418373058565
4.007000000000 0.120811063914 -0.437735732584 0.879109046824 0.203525859666 0.861981896574 0.219952799856 0.073316693889 -0.418857756704
4.007422222000 0.121900186004 -0.438811895547 0.874897247019 0.205357635616 0.864860846195 0.224954601463 0.077781977150 -0.417661993582
4.007844444000 0.121983813808 -0.438552951169 0.874518222284 0.205667793397 0.865607814257 0.225277823792 0.077938493958 -0.417995791238
4.008266666000 0.120532050482 -0.438519620670 0.874944105301 0.200809528281 0.864050079673 0.224781369394 0.076923440054 -0.416338827395
4.008688888000 0.119198745241 -0.438071766206 0.875344544291 0.201955357191 0.864074367436 0.220778895708 0.075990988494 -0.416371278718
4.009111111000 0.117769616375 -0.438942725570 0.876034703141 0.200659803404 0.866277345611 0.219438033666 0.075491233863 -0.417275736061
4.009533333000 0.117765506723 -0.438666401031 0.875949122047 0.197390076166 0.864893586152 0.217774508225 0.073407238463 -0.416633845105
4.009955555000 0.115747573903 -0.438893267290 0.876396733140 0.195207581017 0.866711398371 0.215933380319 0.072903934208 -0.416378591159
4.010377777000 0.116085695530 -0.439181904456 0.877612827909 0.195781287979 0.866640281311 0.216602101706 0.073455504040 -0.417312498824
