# GHZ S RI R 50.000000000000
3.950000000000 -0.070531320492 -0.325173214213 0.753674806005 -0.358539353684 0.755941459074 -0.335963289958 -0.099313637022 -0.311092805751
3.950422222000 -0.070574142117 -0.323698941488 0.755068486990 -0.355877545168 0.754694440636 -0.336595275047 -0.099947325336 -0.310604524509
3.950844444000 -0.070062342792 -0.323137323856 0.756489821036 -0.353442786600 0.754851709529 -0.338059805462 -0.100462142332 -0.310921580579
3.951266666000 -0.070675791434 -0.322419698375 0.756072835491 -0.352088320439 0.753909478798 -0.338844842804 -0.100353964546 -0.309876833488
3.951688888000 -0.070900877721 -0.321580941814 0.756745373478 -0.352017174036 0.753527606792 -0.340343563808 -0.101152384201 -0.310078829409
3.952111111000 -0.071235255520 -0.321712241991 0.755838566403 -0.352347882456 0.753758772957 -0.342629952476 -0.102153177648 -0.309511134580
3.952533333000 -0.070372246756 -0.321147341296 0.756417791139 -0.352917560645 0.752803976349 -0.342011590690 -0.102057717558 -0.308695951183
3.952955555000 -0.070771459316 -0.320438102896 0.756438612790 -0.354205488799 0.751839424885 -0.343348342507 -0.102551710719 -0.308610008339
3.953377777000 -0.071898380611 -0.320282780959 0.756131084405 -0.355290277244 0.751577582127 -0.346178944775 -0.103511354863 -0.308381405108
3.953800000000 -0.071894185316 -0.317980584790 0.754591171299 -0.356062374141 0.750857461375 -0.344620031025 -0.102793716460 -0.307237154003
3.954222222000 -0.072601974106 -0.319413307235 0.755349217452 -0.358045178994 0.750642901961 -0.347816273509 -0.103850940689 -0.307428393522
3.954644444000 -0.072120636068 -0.318951510565 0.755129022786 -0.358472235689 0.751097962158 -0.348870175167 -0.104341260610 -0.307509419364
3.955066666000 -0.072580005937 -0.319026180380 0.754974887694 -0.359448093914 0.750391060154 -0.350500973172 -0.104399187959 -0.306587558347
3.955488888000 -0.072536956312 -0.318439749249 0.754869953125 -0.360877837212 0.749973769602 -0.351390327853 -0.104949898620 -0.306124282669
3.955911111000 -0.073128045066 -0.317716586378 0.753905196390 -0.362657887682 0.749377275242 -0.352209923651 -0.105213521349 -0.306178512947
3.956333333000 -0.074104248462 -0.317935831370 0.753462997152 -0.363379864521 0.748409574616 -0.354780454777 -0.105949840192 -0.304930583642
3.956755555000 -0.074223128120 -0.317367331136 0.753314390134 -0.364736251315 0.748131547781 -0.355119012475 -0.105689368491 -0.304299778932
3.957177777000 -0.074566617572 -0.316169995703 0.752600501302 -0.366121819049 0.747612318095 -0.355689849868 -0.105953275428 -0.304063519990
3.957600000000 -0.074351050768 -0.315871228663 0.752677060285 -0.367286914288 0.748317863663 -0.357951980123 -0.106570128565 -0.304628192726
3.958022222000 -0.074924674023 -0.315942238926 0.752133122942 -0.368789106007 0.747387814974 -0.358759348576 -0.106940025115 -0.303575234137
3.958444444000 -0.075952856727 -0.316566397336 0.750525426429 -0.373830326011 0.748445280382 -0.359619959712 -0.107669311806 -0.303281961684
3.958866666000 -0.075965301551 -0.315504590478 0.750468570468 -0.374944582271 0.745299263680 -0.361264854731 -0.108475096357 -0.302139505968
3.959288888000 -0.076849110937 -0.314938022332 0.749738532346 -0.375424878552 0.746001584361 -0.363297539951 -0.108803519864 -0.301795345837
3.959711111000 -0.077603613607 -0.314630461353 0.749455079379 -0.375990484265 0.745757956577 -0.364664604809 -0.109123866957 -0.301365960815
3.960133333000 -0.077535378608 -0.314565165514 0.748784906916 -0.378151877324 0.745770037620 -0.365474900094 -0.109479972444 -0.300885918278
3.960555555000 -0.077239643866 -0.314006372168 0.748682328032 -0.379481874100 0.744527602448 -0.365945428618 -0.109364242712 -0.300527338405
3.960977777000 -0.077624517882 -0.313937618829 0.747964103104 -0.380524032012 0.745507272446 -0.366351313270 -0.109834463335 -0.300556246278
3.961400000000 -0.078462986143 -0.314463497665 0.747165049655 -0.382060463801 0.746571186181 -0.368987233083 -0.110484203105 -0.300027676567
3.961822222000 -0.077888902679 -0.312872135279 0.747481247021 -0.382892560330 0.743428407386 -0.369021604587 -0.110675502184 -0.298824203970
3.962244444000 -0.078968229436 -0.312835186708 0.746769397759 -0.384261764354 0.743643775907 -0.370886534239 -0.110982143772 -0.298638553622
3.962666666000 -0.078018922156 -0.312651177995 0.746221494237 -0.385394515666 0.744755087430 -0.371885509476 -0.111648253302 -0.298737146170
3.963088888000 -0.078957621334 -0.312049209869 0.746519754034 -0.387058949665 0.742911300776 -0.373594465763 -0.111505059554 -0.298329928421
3.963511111000 -0.079291056784 -0.311800519013 0.746254740763 -0.387759364244 0.741794236711 -0.374371237011 -0.111799471977 -0.297604197452
3.963933333000 -0.079552482703 -0.312113669141 0.745236921664 -0.389496363634 0.744994164671 -0.376625621817 -0.112670688625 -0.298046539403
3.964355555000 -0.080116265381 -0.311215985351 0.745113852808 -0.390497851958 0.742974172539 -0.377455487550 -0.112641191092 -0.297284513946
3.964777777000 -0.079366477116 -0.311066212118 0.744786537008 -0.391680412053 0.742603237870 -0.376212350497 -0.111425250731 -0.296481472611
3.965200000000 -0.080489113297 -0.310127877200 0.743502631908 -0.393186991380 0.740083701507 -0.379270714035 -0.112958432690 -0.295453748292
3.965622222000 -0.080495513647 -0.309515560992 0.743492604421 -0.394001652840 0.741135407147 -0.378758589143 -0.112320368332 -0.295882709145
3.966044444000 -0.081172797705 -0.309668656961 0.743464916785 -0.395590177241 0.739228531909 -0.382438649084 -0.113606253497 -0.294739348342
3.966466666000 -0.081219752924 -0.310242859020 0.742601323877 -0.397386611345 0.740284033088 -0.383980177239 -0.114364069033 -0.294773553683
3.966888888000 -0.081589652029 -0.309307492415 0.741877708475 -0.398828651865 0.740871070563 -0.383033639848 -0.113673770309 -0.294906261296
3.967311111000 -0.082374557403 -0.309403625237 0.741740401600 -0.399891708935 0.740802360747 -0.385091585478 -0.114191065426 -0.294573353027
3.967733333000 -0.082543869302 -0.308405403693 0.741512895228 -0.401643310662 0.739650400743 -0.385761351195 -0.114853170186 -0.294027433036
3.968155555000 -0.082919476687 -0.308305459705 0.740646608854 -0.402864530636 0.739484128120 -0.388058840212 -0.115571864899 -0.293954302962
3.968577777000 -0.083402343822 -0.307519896767 0.740024007604 -0.403724367341 0.738254161584 -0.391374291310 -0.116360463492 -0.292420048121
3.969000000000 -0.081146184558 -0.305367068263 0.740089136124 -0.404938062136 0.738409671142 -0.383509073344 -0.114254944217 -0.293796718273
3.969422222000 -0.083675980133 -0.306779457609 0.739767505295 -0.406256345533 0.737663941813 -0.391455919292 -0.116478484514 -0.292060913080
3.969844444000 -0.084472861609 -0.307094414437 0.739263544734 -0.408377459929 0.736826250142 -0.393253401534 -0.116534495633 -0.291261986644
3.970266666000 -0.084160111050 -0.306700945571 0.738493316555 -0.408550471590 0.737184955304 -0.393629152052 -0.116382899267 -0.290690249365
3.970688888000 -0.084906310834 -0.306007204614 0.738531235961 -0.409858579708 0.735937237628 -0.394521784157 -0.116132320784 -0.290825572282
3.971111111000 -0.085188130566 -0.305834927717 0.738215837958 -0.411853174230 0.735645548906 -0.396567937125 -0.117173633484 -0.290305837505
3.971533333000 -0.085490543638 -0.305725105765 0.736620098420 -0.412768604114 0.735422022168 -0.397676619371 -0.117346680534 -0.289187022692
3.971955555000 -0.086042577995 -0.305170240423 0.737143156894 -0.414531112748 0.735181770698 -0.398845868856 -0.117585504611 -0.289990433353
3.972377777000 -0.086144643382 -0.305090125640 0.736714287892 -0.416269143518 0.735219876457 -0.400787069170 -0.118401796522 -0.289232496676
3.972800000000 -0.086569803767 -0.304869852215 0.735502014258 -0.417213050997 0.734011852712 -0.401594993524 -0.118544543664 -0.287929469501
3.973222222000 -0.086220381573 -0.304525622045 0.735162829220 -0.418905771640 0.733127380892 -0.402684742086 -0.119055510340 -0.288050048521
3.973644444000 -0.086581839318 -0.304203482082 0.734990723924 -0.419749036821 0.734681984447 -0.403796549298 -0.119227300590 -0.288475718939
3.974066666000 -0.087389605852 -0.304510865907 0.734972479053 -0.421237854246 0.734135140745 -0.403552339601 -0.118568546709 -0.287649770652
3.974488888000 -0.087568786349 -0.304141138594 0.734308277888 -0.422429948732 0.734641860087 -0.406203683592 -0.119349793957 -0.287783538743
3.974911111000 -0.087735801335 -0.303014935468 0.733220268643 -0.423769951328 0.732640240864 -0.406961525954 -0.119927212848 -0.286734367495
3.975333333000 -0.088189398397 -0.302667713147 0.733119514682 -0.424646126083 0.732349636194 -0.408796436245 -0.120184652102 -0.286094207683
3.975755555000 -0.088560955319 -0.303032098013 0.732313422457 -0.425866715449 0.732873108257 -0.410436053273 -0.120510403435 -0.285820704226
3.976177777000 -0.088945655354 -0.302342171607 0.732009883699 -0.428178806581 0.731317412543 -0.411894484126 -0.120825343146 -0.285104737311
3.976600000000 -0.089325934112 -0.301956112926 0.730858651005 -0.428051677817 0.730479401153 -0.412656158092 -0.120619696212 -0.284310931311
3.977022222000 -0.089223499294 -0.301812079118 0.731518398756 -0.429944481025 0.730647086577 -0.413038810462 -0.120899980193 -0.285298719714
3.977444444000 -0.090299763772 -0.301740054720 0.731212982895 -0.431449671553 0.731700454025 -0.415744511325 -0.121964512998 -0.285025842905
3.977866666000 -0.090668990478 -0.300397316375 0.729765760798 -0.433213232916 0.728513416955 -0.416770788478 -0.122343287600 -0.283597482750
3.978288888000 -0.091048824234 -0.300632547365 0.730620254231 -0.434468051460 0.729822956442 -0.418214563407 -0.122314968998 -0.284145122578
3.978711111000 -0.090776117685 -0.299997247835 0.728330000531 -0.436371396949 0.728554513889 -0.418944053838 -0.122602992283 -0.282867597667
3.979133333000 -0.091785406004 -0.300182772322 0.728122938175 -0.436029352846 0.728256361758 -0.421516747822 -0.122652268424 -0.282709969694
3.979555555000 -0.092001263395 -0.299651724850 0.727899308248 -0.437354815846 0.728711704959 -0.422921708236 -0.123201770749 -0.282250972495
3.979977777000 -0.092664821551 -0.298961268705 0.727456220729 -0.439235622725 0.727126594540 -0.424679326384 -0.123614089099 -0.281437998481
3.980400000000 -0.092667815600 -0.298930236369 0.727137145685 -0.440158000960 0.726887629041 -0.424251033861 -0.123330665919 -0.281757730810
3.980822222000 -0.093106363913 -0.298517690990 0.726878516854 -0.442201468186 0.727760703560 -0.425394688813 -0.123957717247 -0.281796671617
3.981244444000 -0.092703967958 -0.298597961022 0.726625460681 -0.442426624439 0.726829192942 -0.426316171312 -0.123489017199 -0.280941422834
3.981666666000 -0.093838602731 -0.297487846933 0.725823509139 -0.443970722380 0.724936201201 -0.428837687402 -0.124438174566 -0.280132485852
3.982088888000 -0.094527025569 -0.297906747701 0.724773020597 -0.445930960205 0.725130766904 -0.428633601799 -0.123674399261 -0.279964462674
3.982511111000 -0.094644981418 -0.297281559977 0.724441936034 -0.447136772617 0.725803292615 -0.429656764271 -0.124040626214 -0.279904018860
3.982933333000 -0.094628111634 -0.297518815862 0.723971146249 -0.448923843695 0.725631945736 -0.432052510327 -0.125158157898 -0.279387189846
3.983355555000 -0.095615444336 -0.297470370429 0.724299622683 -0.450472939271 0.725441704654 -0.434140216446 -0.125578260167 -0.279526630019
3.983777777000 -0.095762708363 -0.295975025770 0.721727918403 -0.450363360120 0.722236563631 -0.435599844161 -0.125163449929 -0.277795305869
3.984200000000 -0.094088461244 -0.296916984723 0.724818928643 -0.452247610748 0.725219493694 -0.430510298197 -0.124795671645 -0.280475711040
3.984622222000 -0.096729569536 -0.295989500628 0.720493962061 -0.453923372892 0.722648898954 -0.439085149163 -0.126436939102 -0.277200587100
3.985044444000 -0.096882473615 -0.296220961197 0.722249760535 -0.455390873511 0.724010473582 -0.438202838118 -0.126150461993 -0.278269141191
3.985466666000 -0.097086009496 -0.296436405046 0.721081602270 -0.458197813835 0.725496690702 -0.439998262654 -0.126708950274 -0.277899528082
3.985888888000 -0.096663138680 -0.295133537512 0.721706442336 -0.457313960028 0.723035683354 -0.439150596295 -0.126334308261 -0.278005722633
3.986311111000 -0.097804683588 -0.295097403841 0.719304757416 -0.460511409630 0.723179199685 -0.443118291052 -0.127340579462 -0.276751664189
3.986733333000 -0.097531918057 -0.294959137687 0.720079280538 -0.460154781678 0.720280302658 -0.441352501249 -0.126411630884 -0.275857331730
3.987155555000 -0.097969369049 -0.293891883789 0.718532791265 -0.462291823054 0.720181140474 -0.445155339831 -0.127111512892 -0.275467893555
3.987577777000 -0.098578165420 -0.293482669121 0.717547830990 -0.464427780349 0.720548264065 -0.445034007394 -0.127195870507 -0.275487241608
3.988000000000 -0.099445593820 -0.293668436273 0.717581685490 -0.465250747817 0.720406950410 -0.448628280228 -0.128400849665 -0.275199022596
3.988422222000 -0.099594063771 -0.292623768569 0.716381269943 -0.467070774452 0.718015920512 -0.449972361744 -0.128645978656 -0.273660389847
3.988844444000 -0.100172441521 -0.293117839868 0.715974785014 -0.468201504792 0.720526326407 -0.450879657284 -0.129013414567 -0.274499493746
3.989266666000 -0.101725223989 -0.292560303090 0.714508027162 -0.470360366238 0.719075584933 -0.454711942374 -0.129088384480 -0.273739895935
3.989688888000 -0.101254240648 -0.291955816663 0.713638470715 -0.471092865718 0.718075698137 -0.454283340712 -0.129569638215 -0.273022211335
3.990111111000 -0.101521337531 -0.292561055227 0.715676020337 -0.472934826006 0.720379471760 -0.454446368099 -0.129196887703 -0.274379471464
3.990533333000 -0.102054414956 -0.291976854635 0.713052564231 -0.474680052860 0.718734004694 -0.455504670458 -0.129154167220 -0.273197237430
3.990955555000 -0.102679312503 -0.291550518709 0.712434106390 -0.476221362948 0.718121736601 -0.456701802225 -0.129938944407 -0.272494743430
3.991377777000 -0.103381084005 -0.291253779559 0.711216134119 -0.476494167213 0.717753377789 -0.460486576942 -0.130653270805 -0.271997792133
3.991800000000 -0.104752033271 -0.289311042008 0.709536025632 -0.479046736300 0.714702572112 -0.464192974155 -0.131093233323 -0.270135401757
3.992222222000 -0.104275225210 -0.289793176222 0.710834979991 -0.479182601411 0.714351297359 -0.463410241802 -0.130856375492 -0.270837246432
3.992644444000 -0.104589589354 -0.290402276283 0.710925854691 -0.480769975526 0.714938480407 -0.464043663785 -0.130473511178 -0.270706613187
3.993066666000 -0.105106100887 -0.289784710066 0.708410227808 -0.482275919684 0.714537398644 -0.466534520370 -0.131806981323 -0.269466628416
3.993488888000 -0.105456129075 -0.288882797557 0.708377715771 -0.483675291779 0.713300910688 -0.467427188506 -0.131717165766 -0.269132494779
3.993911111000 -0.105167295942 -0.288643264620 0.708789257471 -0.483968699433 0.713227629473 -0.467641483686 -0.131584416451 -0.269422138509
3.994333333000 -0.104622334862 -0.288487976735 0.709116338930 -0.483082279107 0.711835636341 -0.465801673777 -0.130560512234 -0.269301433760
3.994755555000 -0.105530766630 -0.287777215935 0.706352239273 -0.487514133628 0.712249430184 -0.470726190883 -0.132318545010 -0.268184266674
3.995177777000 -0.106342507390 -0.287767611301 0.707488503549 -0.488369609313 0.711304215672 -0.471743096838 -0.132922091175 -0.268323494308
3.995600000000 -0.106705477466 -0.287856825989 0.706299287684 -0.491462740138 0.711911901799 -0.472348306852 -0.132820201063 -0.267708663597
3.996022222000 -0.106922167579 -0.287013243325 0.705278141022 -0.490848033750 0.710102518074 -0.474595875224 -0.133003728719 -0.267184099965
3.996444444000 -0.107563164494 -0.286281065663 0.703127799725 -0.494637030644 0.710628755252 -0.475977199031 -0.134104718295 -0.266548475819
3.996866666000 -0.108371692211 -0.285923717666 0.703025746419 -0.493212407691 0.707623880397 -0.479340180814 -0.134495492266 -0.265526938400
3.997288888000 -0.108774162840 -0.285375936725 0.701788036809 -0.496398134169 0.709027926129 -0.478668437171 -0.133187547731 -0.266272615325
3.997711111000 -0.108903695388 -0.286150715388 0.703483237529 -0.497811085781 0.709208239584 -0.479688147459 -0.134102067174 -0.265970023562
3.998133333000 -0.109337332449 -0.285271997302 0.701722812267 -0.497897330228 0.707630613774 -0.482029408639 -0.134366945794 -0.265318956159
3.998555555000 -0.110402265901 -0.284484703689 0.700556156424 -0.500648810669 0.707322936135 -0.484592492254 -0.135075829802 -0.265381894570
3.998977777000 -0.111095536177 -0.284259997724 0.699051749763 -0.500753420794 0.706341545534 -0.485238645698 -0.134523212206 -0.264942697102
3.999400000000 -0.112671673670 -0.283994385112 0.697538618673 -0.502042145363 0.707085089983 -0.485359289727 -0.135745376583 -0.265050153796
3.999822222000 -0.112150777516 -0.283812507438 0.697466646984 -0.503920957738 0.706321773290 -0.489996679043 -0.135017068711 -0.264166158742
4.000244444000 -0.112987507838 -0.282987662283 0.697658344269 -0.506259022652 0.705100657580 -0.490941040201 -0.135445311907 -0.263070448714
4.000666666000 -0.112381214065 -0.282364470063 0.695390434638 -0.507626130080 0.702784693903 -0.490615345113 -0.135468590748 -0.261963983698
4.001088888000 -0.112768131803 -0.282147799842 0.695043217359 -0.508301863513 0.703184890235 -0.491682897042 -0.135562234474 -0.262312047799
4.001511111000 -0.113261436638 -0.281488076764 0.694826685639 -0.510819952479 0.702613269948 -0.493771441979 -0.136552950490 -0.261348587276
4.001933333000 -0.114706405118 -0.281080581508 0.695921755738 -0.511197100230 0.702781195497 -0.498473786642 -0.138083192471 -0.262172737298
4.002355555000 -0.114912599879 -0.281121841466 0.694275131012 -0.513894647750 0.701790681412 -0.499147483401 -0.136974900052 -0.261487899874
4.002777777000 -0.114657744522 -0.280153862953 0.692481579989 -0.513661819899 0.701044621313 -0.497206466535 -0.136936788456 -0.260815949627
4.003200000000 -0.115344293534 -0.280352168381 0.692014561651 -0.516152716158 0.700618624643 -0.500829823533 -0.137192062555 -0.260115051242
4.003622222000 -0.115638087991 -0.278805453650 0.688702712229 -0.518320271898 0.698798580066 -0.501658382835 -0.137847704117 -0.258479569173
4.004044444000 -0.116499228257 -0.279678692229 0.689148750387 -0.517404280758 0.699001400457 -0.504456109267 -0.137410478232 -0.259087372577
4.004466666000 -0.116651172866 -0.278270867399 0.687036698754 -0.520114769786 0.698231910163 -0.505389435267 -0.137755999223 -0.258734385757
4.004888888000 -0.117627257429 -0.278340840164 0.688740801737 -0.524419335140 0.697335662754 -0.506583468650 -0.139054285415 -0.257972915420
4.005311111000 -0.117501945888 -0.277510712552 0.688664546767 -0.524412426759 0.696370548541 -0.506987692504 -0.139119798778 -0.257826424034
4.005733333000 -0.118860419225 -0.277413952108 0.687305690139 -0.524166086783 0.696106297849 -0.509411573495 -0.138837519353 -0.258208765970
4.006155555000 -0.119549084108 -0.277020326676 0.686864696469 -0.526923593384 0.696352006861 -0.511768345557 -0.140103900254 -0.257969759943
4.006577777000 -0.119487956227 -0.276850667561 0.686296657950 -0.526760786547 0.696101662651 -0.512276654996 -0.139284391117 -0.258508101582
4.007000000000 -0.119654704504 -0.275684022187 0.683156296084 -0.533256060638 0.691997465701 -0.514316263695 -0.138853516698 -0.256398756366
4.007422222000 -0.119902964555 -0.275342057834 0.682555403072 -0.529604430210 0.693509930845 -0.514322138339 -0.138975060733 -0.256374438442
4.007844444000 -0.120944595569 -0.275308388984 0.680006313547 -0.531493176528 0.693402190039 -0.516109404657 -0.139297771951 -0.255527819824
4.008266666000 -0.120078502409 -0.274134622687 0.681274814737 -0.529483594047 0.690393098828 -0.517376979009 -0.138056352220 -0.254874121012
4.008688888000 -0.121686995986 -0.274341013126 0.683607035785 -0.533418816336 0.691699152893 -0.519021550262 -0.139321968664 -0.254896629794
