# GHZ S RI R 50.000000000000
3.950000000000 -0.026029345003 0.007329137903 0.399075381309 0.899929475277 0.375781235654 0.903420153840 -0.032171491844 0.020330024639
3.950422222000 -0.028110553257 0.006711847621 0.394031025966 0.898101057386 0.375420618806 0.902096504636 -0.032772791811 0.018899029997
3.950844444000 -0.028815272801 0.006796940937 0.394303780926 0.901106731464 0.375901836365 0.901297662081 -0.031928698172 0.018921356869
3.951266666000 -0.029425357202 0.006223276824 0.390248779952 0.900595581222 0.376712547500 0.899395545069 -0.032698948382 0.018866069345
3.951688888000 -0.029880971679 0.007979306913 0.393017826466 0.901446081711 0.379020451681 0.901930674524 -0.032262118225 0.019763526791
3.952111111000 -0.030242010148 0.007732442498 0.388307419744 0.900207821000 0.381240829779 0.899866011844 -0.032780141427 0.019796835546
3.952533333000 -0.029800871803 0.006828226010 0.392054716084 0.899631136526 0.382520950865 0.898809916476 -0.031945438879 0.019116106094
3.952955555000 -0.030896136390 0.007460489381 0.391834071764 0.897445859779 0.383346838295 0.899356200177 -0.032638801216 0.019298569857
3.953377777000 -0.030873533292 0.007350610887 0.394526113869 0.898886243129 0.384065049508 0.898140872221 -0.032097296877 0.019690466077
3.953800000000 -0.029266502605 0.009497019723 0.393577534763 0.899158423391 0.384773614897 0.898073056140 -0.030756371238 0.019468041577
3.954222222000 -0.031570268794 0.009207789844 0.395955202477 0.899430238147 0.386655789435 0.899863268796 -0.032170712310 0.021002216966
3.954644444000 -0.032040226275 0.008486001279 0.395427819924 0.899739597500 0.385878303658 0.899769956634 -0.033069736547 0.020412547982
3.955066666000 -0.031571421456 0.008467173753 0.397327777545 0.898274150403 0.389044510859 0.898884973080 -0.032222066200 0.020672121769
3.955488888000 -0.030613688661 0.009398643282 0.400628842819 0.898945724136 0.391985826267 0.899013715690 -0.030729754583 0.021035758285
3.955911111000 -0.031705743996 0.010002430847 0.400544346072 0.901210740461 0.391759477561 0.899190709152 -0.032040507708 0.022115626593
3.956333333000 -0.032227562426 0.009332912603 0.401172898355 0.900706692608 0.391502477345 0.896668708553 -0.031451288695 0.021740248682
3.956755555000 -0.031212830844 0.009913407044 0.404052867514 0.897534483576 0.396321347565 0.898724012778 -0.030947089284 0.022100495012
3.957177777000 -0.031532374266 0.010864039053 0.403922117305 0.897737262040 0.394444532111 0.898381132409 -0.030846008612 0.021720898997
3.957600000000 -0.031504119404 0.010857708587 0.406542232154 0.899076131508 0.395876481735 0.897968609539 -0.030587785661 0.021459666392
3.958022222000 -0.031393066075 0.011045888391 0.404568578284 0.898326908922 0.400093903450 0.895581062480 -0.029962808272 0.022831867823
3.958444444000 -0.030757259496 0.011186964409 0.415397117640 0.898158795798 0.400562114971 0.898596800340 -0.030242293183 0.023534149079
3.958866666000 -0.030276071092 0.010051256226 0.413967031494 0.894812739308 0.401723716377 0.896128349972 -0.030850612125 0.022306158183
3.959288888000 -0.030464648704 0.011739473546 0.416830246721 0.895239073734 0.402671679874 0.898095491423 -0.029559147178 0.022364135154
3.959711111000 -0.030869252751 0.011685682240 0.419029846841 0.896911447091 0.402761240437 0.897872594428 -0.029393734860 0.023533060355
3.960133333000 -0.030242833832 0.012517982772 0.418838155666 0.895243611123 0.406295710296 0.896618471874 -0.028752480935 0.023546714462
3.960555555000 -0.030114796216 0.012676496011 0.422101367500 0.896203179585 0.406608221764 0.898180748267 -0.029389206908 0.023224279688
3.960977777000 -0.030438668975 0.013007714448 0.422185779638 0.897161644141 0.407171235616 0.896727439715 -0.029180810556 0.024446632200
3.961400000000 -0.030817479171 0.012649400599 0.422292525606 0.893367921510 0.409967426881 0.895178984009 -0.027700972148 0.024285303092
3.961822222000 -0.030160144425 0.013679886320 0.425225330661 0.896376854318 0.410763894104 0.896561781585 -0.028025886953 0.024494306449
3.962244444000 -0.030497145255 0.013765835960 0.425325842097 0.894745343521 0.413311219372 0.895062936629 -0.027556427360 0.024968708917
3.962666666000 -0.029778396660 0.014020616439 0.426637426526 0.894954159952 0.413829035560 0.896151024300 -0.028008148338 0.023998908056
3.963088888000 -0.029797866541 0.013362591080 0.430262062864 0.893032854811 0.416254165940 0.895645206410 -0.028037226018 0.023726268052
3.963511111000 -0.029993449185 0.013875634038 0.431081492577 0.893413307195 0.416723605281 0.894874664449 -0.028072596941 0.024299606433
3.963933333000 -0.029892004332 0.014379871007 0.432211758786 0.894305591520 0.417466844218 0.895405821211 -0.026737419013 0.024220203883
3.964355555000 -0.029478719630 0.014712241221 0.433446908793 0.893036726811 0.420093312651 0.894638717680 -0.027014388928 0.024642066426
3.964777777000 -0.029210291436 0.014991393730 0.434759208849 0.893434552285 0.418885739710 0.894708490642 -0.026464674370 0.023137716911
3.965200000000 -0.029318165886 0.015302643678 0.437124019254 0.891297240430 0.423616529059 0.894023809433 -0.026436986245 0.024622718777
3.965622222000 -0.028281448204 0.015816549197 0.440008637091 0.892567470154 0.423767010345 0.893594428203 -0.025714334920 0.023868117551
3.966044444000 -0.028321946851 0.015531110630 0.441398140056 0.891345779014 0.427474216000 0.893815477038 -0.026371927307 0.024254481394
3.966466666000 -0.028812347594 0.015028541736 0.442557758373 0.891290684167 0.428191399921 0.893964047439 -0.026912981996 0.024399985289
3.966888888000 -0.028532018279 0.016177630326 0.444658897654 0.890891812435 0.429122225095 0.892730094143 -0.025594459901 0.025271994817
3.967311111000 -0.028365187720 0.016628955065 0.446689679514 0.891399282553 0.430344981034 0.893882038544 -0.025234540900 0.025043287530
3.967733333000 -0.028384283786 0.016494562131 0.446975939417 0.888925393284 0.432545507862 0.891955201781 -0.024910885421 0.025325208611
3.968155555000 -0.028498288931 0.016552381541 0.448890299022 0.889344035038 0.432832055215 0.891369409912 -0.025275129309 0.025026530523
3.968577777000 -0.026987541226 0.017382005070 0.451366634208 0.890022555392 0.436235266090 0.892152592130 -0.023925006700 0.024853263979
3.969000000000 -0.027794849110 0.019733689629 0.448934379271 0.892704261060 0.429628288209 0.891216106112 -0.022598256705 0.025015971248
3.969422222000 -0.027321987351 0.017828610899 0.453417038981 0.887904531291 0.438745621189 0.891226718777 -0.023610503915 0.024949148786
3.969844444000 -0.027047526167 0.017204178050 0.455500393513 0.886801711885 0.441051526096 0.891726986981 -0.024131396086 0.025002830472
3.970266666000 -0.026751506249 0.018246540104 0.456984744801 0.888522801357 0.441128244683 0.891837322203 -0.022974530655 0.024955076987
3.970688888000 -0.026968848847 0.017614825754 0.457905996928 0.886732769885 0.442975185263 0.889316934060 -0.023294567756 0.024756037419
3.971111111000 -0.026366005383 0.018185227221 0.460676542862 0.885082915714 0.445446408546 0.890012233954 -0.023145437895 0.024552421404
3.971533333000 -0.025057154578 0.018237801164 0.463865694132 0.882788801457 0.446730567681 0.889500104962 -0.022146639643 0.024118183382
3.971955555000 -0.026354000685 0.018359694599 0.463291970206 0.885556928051 0.448896925552 0.889014069280 -0.022999976659 0.024864061532
3.972377777000 -0.025126684502 0.018580056073 0.466069953868 0.885249101800 0.451116756419 0.889407039559 -0.022077829199 0.024652541147
3.972800000000 -0.025303466783 0.018675958964 0.467645541290 0.883319578728 0.450793551316 0.888650341403 -0.021808656278 0.024621152075
3.973222222000 -0.025789410524 0.018956379864 0.469458745195 0.883849696792 0.452896806832 0.886592518816 -0.022636600798 0.024303585068
3.973644444000 -0.025138636690 0.018768489368 0.469730408137 0.882051430800 0.453600548442 0.887203603981 -0.021878680327 0.023819140572
3.974066666000 -0.024586521249 0.019800856908 0.473534076447 0.882758643041 0.455428455248 0.887278902543 -0.021387305105 0.024529662921
3.974488888000 -0.024493299104 0.018998121679 0.473011718536 0.881969007351 0.458484164953 0.887431917550 -0.021765886047 0.023618969438
3.974911111000 -0.024244832092 0.019494439479 0.476772192028 0.879906558970 0.459142682897 0.885449148832 -0.020729639705 0.024154671665
3.975333333000 -0.023885087662 0.019703938648 0.476835862894 0.881084009327 0.461221514366 0.885699840334 -0.020645725273 0.023778653133
3.975755555000 -0.023331637083 0.019390147702 0.477995167895 0.879726528382 0.463078195595 0.885777647499 -0.020256252308 0.023731088435
3.976177777000 -0.023583700696 0.019786227552 0.481018449184 0.879473808568 0.464540804807 0.885226115667 -0.020795407799 0.023281290194
3.976600000000 -0.022369645806 0.019405911999 0.482786016365 0.878127216413 0.465380811576 0.885201408648 -0.019716343481 0.023067816166
3.977022222000 -0.023283346474 0.019926174379 0.483098175099 0.878080713736 0.466851843796 0.883861098911 -0.020703457725 0.023065493296
3.977444444000 -0.022684855557 0.019533106444 0.485627360455 0.876771761391 0.470579081297 0.883752639836 -0.020147123208 0.023458496981
3.977866666000 -0.022515257171 0.020009506351 0.487453450599 0.876248548607 0.471081909713 0.881314622243 -0.019771671623 0.024031991736
3.978288888000 -0.022216935361 0.019441796943 0.489320403115 0.874487063355 0.472760904777 0.881303772245 -0.019457098647 0.022334285703
3.978711111000 -0.021857864728 0.020149130005 0.490471786237 0.874344820823 0.473546748991 0.880450086590 -0.019328984938 0.022520219306
3.979133333000 -0.020881753309 0.018802269828 0.493775793476 0.872468328167 0.478007334443 0.882080528675 -0.020501829467 0.021868143925
3.979555555000 -0.021138051686 0.019322871998 0.493323538407 0.872524594239 0.478597696402 0.880494537049 -0.019169011424 0.022230592253
3.979977777000 -0.020588894665 0.019859319357 0.495754070759 0.871570913620 0.480874981151 0.879246934912 -0.018873167141 0.021979156094
3.980400000000 -0.021217735065 0.020178439087 0.496111152342 0.871258427411 0.480595898076 0.878338783041 -0.019190806478 0.022124687162
3.980822222000 -0.020613519044 0.019996716011 0.497180821441 0.870584509137 0.481218562596 0.878285908739 -0.018910097779 0.022571184353
3.981244444000 -0.019352173854 0.019450133094 0.500837326116 0.868928906801 0.484644397394 0.878743790833 -0.017965326295 0.021016189114
3.981666666000 -0.019782188100 0.018965537031 0.501248458823 0.866482638411 0.486934512537 0.875327137052 -0.018218328043 0.022152773887
3.982088888000 -0.019472482591 0.019204034242 0.504096569819 0.866657756287 0.487922109196 0.875418454466 -0.018590963090 0.021122331309
3.982511111000 -0.019196520410 0.020115024008 0.504500756183 0.867422582128 0.488636652622 0.874603194545 -0.017699447923 0.021327445776
3.982933333000 -0.018492278211 0.019711654448 0.507051104074 0.866318573952 0.491304510892 0.876079725510 -0.017971968949 0.020517755626
3.983355555000 -0.019031305998 0.019388562873 0.507382635234 0.864860602945 0.493040975072 0.874755387318 -0.018758974043 0.020580984848
3.983777777000 -0.019292195814 0.019546746306 0.509585572905 0.864473124419 0.494442941670 0.871988915234 -0.018096025795 0.020413901035
3.984200000000 -0.018282650567 0.020302709119 0.512006400226 0.865679855830 0.493110468204 0.873187501168 -0.017948793247 0.020159776044
3.984622222000 -0.018432274645 0.018875377524 0.512795952144 0.861841788955 0.498250560531 0.871786403850 -0.018457931334 0.019769070367
3.985044444000 -0.017664550570 0.019221209632 0.513981684943 0.861930409926 0.499104862039 0.871957388923 -0.017587057261 0.019588737432
3.985466666000 -0.017458567368 0.019289294683 0.515847596094 0.861391137836 0.500205491716 0.872451873116 -0.017875473541 0.018784445050
3.985888888000 -0.018017635268 0.019150181927 0.514988123338 0.860939854382 0.501153121388 0.869505571295 -0.017556738731 0.020160212957
3.986311111000 -0.017062182909 0.018324850309 0.518628185130 0.858504569091 0.503426573766 0.870022732589 -0.017536782873 0.018067399766
3.986733333000 -0.016668598554 0.019433859926 0.521122811516 0.857827079573 0.504206849085 0.867783141802 -0.017907934890 0.019083245331
3.987155555000 -0.016568553315 0.018776552735 0.520930661319 0.857556661881 0.505966304070 0.868006676199 -0.016964722287 0.018141661132
3.987577777000 -0.017292668221 0.018325249863 0.521290250413 0.855024895614 0.507384270470 0.865506714813 -0.017513679664 0.018988864513
3.988000000000 -0.016878039472 0.018393469650 0.523562397151 0.855335788971 0.510070119210 0.865332817280 -0.017605178996 0.018294097730
3.988422222000 -0.016146306227 0.018516020146 0.526576755898 0.854716525930 0.510657589923 0.864458182789 -0.016879456208 0.018252039863
3.988844444000 -0.015629799999 0.018307193031 0.528188804070 0.853666788875 0.512029218333 0.864656395286 -0.016941000998 0.018068888530
3.989266666000 -0.017005112827 0.017358223640 0.527871245883 0.851755037137 0.516777255827 0.862276633389 -0.018476576727 0.017118925594
3.989688888000 -0.015419606317 0.017738180764 0.531923062125 0.850554555157 0.516819410266 0.862716966330 -0.017455352889 0.017401292268
3.990111111000 -0.015052812613 0.017364975066 0.533360868362 0.850574542245 0.519199886131 0.862840406218 -0.017397900211 0.016040404635
3.990533333000 -0.015366751036 0.018014038375 0.534200034674 0.850429312750 0.518521345875 0.861636260498 -0.017152896253 0.016752538566
3.990955555000 -0.014896858384 0.017655558828 0.536609669071 0.847926010864 0.519912151044 0.860396675872 -0.017491374981 0.017111081636
3.991377777000 -0.014576937392 0.017057026392 0.537724679385 0.846701952272 0.523787376202 0.859565531335 -0.017893909858 0.016418379528
3.991800000000 -0.015898533027 0.016431267848 0.535619360774 0.846446689005 0.527535304580 0.857287248756 -0.017108394386 0.017799069095
3.992222222000 -0.015205919823 0.016660361040 0.539529186170 0.844894826111 0.526799243560 0.856225873263 -0.018014589510 0.016813184894
3.992644444000 -0.014674487579 0.016154248792 0.542067450002 0.843743052255 0.529130232583 0.855939056112 -0.018000313888 0.015568738653
3.993066666000 -0.014161493329 0.015935296490 0.543656886657 0.841882995112 0.529894399136 0.855751265790 -0.018199961751 0.015798846796
3.993488888000 -0.014549669139 0.016204829127 0.544001155291 0.842067662048 0.531617769117 0.852660003303 -0.017515973182 0.016143334942
3.993911111000 -0.014110859859 0.016339348409 0.545466874738 0.841638044351 0.532371924587 0.853893928597 -0.017578210764 0.015675530874
3.994333333000 -0.013013224801 0.016524845948 0.547257783595 0.841196989492 0.532442695107 0.854954108604 -0.016774329391 0.015669063726
3.994755555000 -0.013615433390 0.015871798464 0.549044960516 0.839413370735 0.535592624649 0.852702890304 -0.017111132203 0.014935277293
3.995177777000 -0.014013789854 0.016379694851 0.549769965076 0.839018991400 0.535987035177 0.850497366534 -0.017826709488 0.015491095959
3.995600000000 -0.013624488200 0.015386211062 0.552033321827 0.837324384953 0.538196533069 0.850621310282 -0.017481549557 0.014543928203
3.996022222000 -0.013626757642 0.015179362132 0.552649400018 0.836132417486 0.539486564839 0.848314736436 -0.017737216979 0.014779044267
3.996444444000 -0.013109806048 0.015270298537 0.554645286784 0.834390049797 0.539738167725 0.848793229431 -0.017745489254 0.014936042852
3.996866666000 -0.013689759821 0.015319374317 0.555756076330 0.833710778556 0.543173793307 0.845336691316 -0.018160120218 0.015339257156
3.997288888000 -0.013862184733 0.014769881901 0.556567302402 0.832347175220 0.543457740764 0.845060675244 -0.018032577598 0.014324827183
3.997711111000 -0.013311293725 0.014755825719 0.558693587645 0.831956432981 0.545668192318 0.845180922841 -0.017906647791 0.013765854869
3.998133333000 -0.013569320109 0.014878436341 0.559296453353 0.830766485441 0.546473719750 0.844141454664 -0.018224641110 0.014038047871
3.998555555000 -0.013899936807 0.014383114691 0.560304972156 0.830004696396 0.549731816365 0.841535671293 -0.018664866008 0.014202666363
3.998977777000 -0.013979821421 0.014053221981 0.561905020210 0.827291618584 0.551411829035 0.840178585407 -0.019419342331 0.013861163362
3.999400000000 -0.011932881292 0.015327984823 0.567212408800 0.826457541479 0.552444180276 0.839579116204 -0.019424502094 0.016400423839
3.999822222000 -0.013560694527 0.013514198090 0.564450281509 0.826546441707 0.554925265508 0.840082296456 -0.019035671036 0.013149959413
4.000244444000 -0.013073648211 0.012988848748 0.565609858354 0.824130029685 0.556369710031 0.838848003767 -0.019111078054 0.013339302440
4.000666666000 -0.013741800243 0.013742588467 0.567348720689 0.823263400671 0.555254053215 0.836607643636 -0.019164651930 0.013903646587
4.001088888000 -0.014326933551 0.013961719983 0.568123724805 0.822645871122 0.555422656236 0.835444787315 -0.019252370200 0.013555430830
4.001511111000 -0.013782948904 0.013094340253 0.570071258725 0.821167223123 0.558090779854 0.834405954470 -0.018838047554 0.013356226496
4.001933333000 -0.014009225074 0.012494928127 0.571383691780 0.820963072242 0.561051591377 0.832838985058 -0.019193896068 0.013073462182
4.002355555000 -0.014370203278 0.011795403863 0.572878744743 0.820488282224 0.564052728193 0.830980865822 -0.019459320501 0.012007113686
4.002777777000 -0.012855758687 0.013377916605 0.574070069553 0.818120653640 0.561854949429 0.832231586327 -0.018795090018 0.013515247101
4.003200000000 -0.013650452600 0.011939534255 0.575806983381 0.817890093083 0.565666953067 0.830345740008 -0.019005609461 0.012153256571
4.003622222000 -0.013489215230 0.012578116751 0.575784695532 0.814428384974 0.566054577017 0.829208803440 -0.019642377163 0.013619375503
4.004044444000 -0.014106662558 0.012249507948 0.576615628368 0.815120579638 0.569033967306 0.828224101022 -0.019977651470 0.012794063460
4.004466666000 -0.013317166590 0.011304909229 0.578605396933 0.813509022971 0.570780134346 0.827832954163 -0.019614691117 0.012618158415
4.004888888000 -0.013963229265 0.011633428243 0.581967044352 0.812787606653 0.570909034351 0.825996732029 -0.019873901766 0.012365563690
4.005311111000 -0.014070557332 0.012002803475 0.581836468109 0.811257224646 0.570686120582 0.826026617829 -0.019791114453 0.012532675396
4.005733333000 -0.014379084586 0.012043088897 0.581752666095 0.810664421820 0.572822241752 0.824069811871 -0.020648313467 0.012701902337
4.006155555000 -0.014108295592 0.011681965646 0.584548224726 0.810136199559 0.576217285809 0.823097877273 -0.020593796036 0.012800878458
4.006577777000 -0.014598261742 0.012011390661 0.584379532836 0.809424936120 0.575765602301 0.823011505657 -0.020642914750 0.012360695664
4.007000000000 -0.016410962253 0.010470921547 0.586549961434 0.808303176731 0.578391170943 0.817033208679 -0.021858490110 0.010625579821
4.007422222000 -0.014747328142 0.011714498651 0.585686497829 0.806482596351 0.577803250438 0.820396133823 -0.020552393034 0.012783247305
4.007844444000 -0.014807853908 0.011076788649 0.588854312451 0.802956202164 0.579511068784 0.818395099247 -0.021018264972 0.012584914730
4.008266666000 -0.014519830345 0.011567818518 0.584653439199 0.806335496616 0.580469131958 0.816187973079 -0.020060030240 0.012917464463
4.008688888000 -0.013953960852 0.011399627360 0.587988844536 0.805647816232 0.580496871234 0.816053340316 -0.019615821447 0.012738885868
4.009111111000 -0.014940767160 0.011547770779 0.587160358454 0.804959947500 0.581396199837 0.813700153650 -0.019946478000 0.012862344094
4.009533333000 -0.014609074032 0.010857492350 0.588072660427 0.804281524974 0.584694885505 0.814596131955 -0.019738790392 0.012019341100
4.009955555000 -0.014695112807 0.011205631731 0.589512303143 0.801245548558 0.584880548210 0.813817088836 -0.020407628008 0.012616557386
4.010377777000 -0.015211117426 0.011435726297 0.591468013477 0.800996432577 0.588364302644 0.811797780740 -0.021776282272 0.012496295690
