# GHZ S RI R 50.000000000000
3.950000000000 -0.028058415763 0.006822506983 0.393205416020 0.903250321056 0.375922257679 0.904209462667 -0.031772735857 0.016945885694
3.950422222000 -0.029216548203 0.006750011751 0.388656159319 0.902296944354 0.377864322369 0.901697019703 -0.031644916804 0.016821527469
3.950844444000 -0.030924253585 0.007506737725 0.385706069444 0.904118060140 0.376393497867 0.905119141849 -0.033485338712 0.017312459459
3.951266666000 -0.030982040812 0.006555566996 0.384975087887 0.901345872266 0.376433814461 0.901858551021 -0.033340573910 0.016611091764
3.951688888000 -0.030959056241 0.008239173225 0.388060358087 0.902726191891 0.378973617033 0.902515275936 -0.032419959125 0.017391179498
3.952111111000 -0.031156959263 0.008686968784 0.389198706345 0.905165511802 0.378663990342 0.903485410823 -0.032850175766 0.018415640975
3.952533333000 -0.030725257305 0.007619545779 0.391302256078 0.903008092475 0.380307209229 0.902039032124 -0.032333559708 0.017480832062
3.952955555000 -0.031610248674 0.008528386904 0.392159352865 0.904184040325 0.380718169741 0.901244133581 -0.032314622738 0.018155748937
3.953377777000 -0.031479935789 0.008518034626 0.392300467755 0.903859438950 0.383603662885 0.900451412715 -0.032135154041 0.019044985468
3.953800000000 -0.029579039471 0.009778163288 0.396281773904 0.899587702914 0.383030245395 0.899911739587 -0.029915663373 0.017167121816
3.954222222000 -0.032304643036 0.009677247102 0.393761661899 0.901037221063 0.385008606137 0.900947838118 -0.032194649424 0.018831416732
3.954644444000 -0.032516100292 0.008920649747 0.392588033979 0.901419319416 0.386086229579 0.900253332807 -0.032839715542 0.018965691584
3.955066666000 -0.031895016437 0.009015668292 0.395291864104 0.900063108118 0.389352915720 0.899475030151 -0.031619466617 0.019178745345
3.955488888000 -0.031082624705 0.009755703903 0.397974747968 0.900594306324 0.391734396833 0.898924355047 -0.030098260312 0.019181630890
3.955911111000 -0.032207018301 0.010584935300 0.398624118562 0.903199042704 0.391185061173 0.900201457555 -0.031896149384 0.020395646982
3.956333333000 -0.032073765707 0.009775513133 0.402063725111 0.900393986093 0.392213440088 0.898357852439 -0.030655297481 0.019867508377
3.956755555000 -0.031965558962 0.010800500047 0.402536161416 0.901856782426 0.394723261701 0.899995443940 -0.030800726834 0.020666459595
3.957177777000 -0.032543143784 0.011570502386 0.400368149480 0.900292807231 0.393353707827 0.899879603268 -0.031176357033 0.020222958992
3.957600000000 -0.032228023275 0.011586426196 0.402667841288 0.900254556682 0.396027744589 0.900050131782 -0.031139187634 0.020025808697
3.958022222000 -0.031877526964 0.012009581043 0.405998506105 0.901047713390 0.397615814610 0.898699581401 -0.029994154412 0.020756653741
3.958444444000 -0.031643966556 0.010891748623 0.410699477401 0.898442972644 0.399462010924 0.897342460128 -0.029944460204 0.021003446923
3.958866666000 -0.030883689735 0.010901729930 0.412811047945 0.899210239805 0.400081821456 0.897181082245 -0.030443448167 0.020781224135
3.959288888000 -0.030620352962 0.012694021094 0.415508673401 0.899507431124 0.403094392058 0.898607050732 -0.028575727765 0.021338207987
3.959711111000 -0.031446146257 0.012750808937 0.415922111144 0.900829981110 0.403066785745 0.899192347401 -0.029186474581 0.022711377450
3.960133333000 -0.031012242661 0.013080295245 0.417162191913 0.897688832339 0.404596404904 0.897934296860 -0.028703676694 0.021451618367
3.960555555000 -0.030558132976 0.013089864926 0.419585126114 0.897268577975 0.406770090160 0.898526236952 -0.029007015635 0.021327165305
3.960977777000 -0.030805082144 0.013281040556 0.420672897410 0.897179124450 0.407529897027 0.897593565243 -0.028777324412 0.022327232630
3.961400000000 -0.031601717270 0.014278499497 0.421816556480 0.899237454218 0.407642734112 0.898512142893 -0.027998371140 0.022962868930
3.961822222000 -0.030706189055 0.014125783074 0.424453113931 0.896476877399 0.409662628849 0.898316984697 -0.027925319802 0.022072890779
3.962244444000 -0.030954147757 0.014617554033 0.425521705723 0.895930222391 0.411877470944 0.897843945458 -0.027805209664 0.022766074451
3.962666666000 -0.030070648330 0.014359505092 0.426553652256 0.895052006327 0.412946067112 0.897673510376 -0.027591436597 0.021575446747
3.963088888000 -0.030717226048 0.014319378763 0.427324099522 0.895859526831 0.415450688326 0.897517124593 -0.028285482942 0.022347012359
3.963511111000 -0.030503397209 0.014553616920 0.429340068509 0.895497683416 0.416288538302 0.896308050449 -0.027861025541 0.022674919035
3.963933333000 -0.030161108634 0.015347483988 0.430712158264 0.897193529481 0.417970880856 0.896889003948 -0.026445123390 0.023219684267
3.964355555000 -0.029817924458 0.015339899073 0.432563433053 0.894401149940 0.419438547034 0.896213558598 -0.026695445733 0.022700222292
3.964777777000 -0.029190268003 0.015471319024 0.434386666474 0.894034728172 0.419449319721 0.896317518298 -0.025928633835 0.021675906285
3.965200000000 -0.029833159927 0.016543535057 0.436363293236 0.895369656901 0.422180211903 0.896114831586 -0.026093120546 0.023098159419
3.965622222000 -0.028807184037 0.016631341165 0.438047923274 0.895201623413 0.423571915142 0.894902367031 -0.025278414714 0.022894869029
3.966044444000 -0.029289113876 0.016356231705 0.438598666021 0.894352544788 0.425662890421 0.895343861864 -0.026457918453 0.022392515828
3.966466666000 -0.030054186486 0.015488084661 0.438753093833 0.893851856681 0.426131540405 0.894463155441 -0.026760990541 0.022331394469
3.966888888000 -0.029204760589 0.017034798607 0.442770515600 0.893588826324 0.427960748810 0.894287751777 -0.025217089695 0.023213948941
3.967311111000 -0.029001880374 0.017014033476 0.444405857527 0.892226687665 0.429426714087 0.895253922091 -0.025213497237 0.023109289444
3.967733333000 -0.028842065710 0.017360025022 0.445639401549 0.891407983874 0.431526790247 0.893963903050 -0.024881695677 0.023585782347
3.968155555000 -0.028741691464 0.017147637239 0.447740023855 0.890273970273 0.432925995802 0.892768640822 -0.025045941209 0.023144159016
3.968577777000 -0.027681235538 0.018074735330 0.449390122204 0.891749087023 0.435021307594 0.893662678804 -0.023980470680 0.022540310418
3.969000000000 -0.026597323360 0.020733611304 0.453349564155 0.893061290823 0.430342502943 0.894691259293 -0.022123115252 0.022907488557
3.969422222000 -0.027962419195 0.018902258491 0.451695781345 0.890898950728 0.437835315117 0.893246355626 -0.023529946367 0.023254113787
3.969844444000 -0.027126541373 0.018339929621 0.455780536983 0.890027057290 0.440579512782 0.893325917110 -0.023451230580 0.023231017407
3.970266666000 -0.027047794456 0.018587100410 0.455453396550 0.889075060964 0.441178433729 0.893267053598 -0.022772410310 0.023042021528
3.970688888000 -0.027268598924 0.018699898360 0.457499224525 0.889047013956 0.442132333761 0.891453470270 -0.023288938203 0.022900508742
3.971111111000 -0.026796351094 0.019239080114 0.459848799640 0.889298922509 0.444261983250 0.890833439864 -0.022140697862 0.022691121943
3.971533333000 -0.026382866249 0.019805638197 0.460062813665 0.888652437324 0.444915268835 0.891343019544 -0.022166932198 0.022724359707
3.971955555000 -0.026459438083 0.019175553806 0.462953881744 0.886901586330 0.448434470596 0.890994788047 -0.022945728970 0.022848942377
3.972377777000 -0.025400527914 0.018968216022 0.464994135431 0.886385909436 0.450854438202 0.890362021469 -0.021563287514 0.022803816522
3.972800000000 -0.025874811654 0.019421214541 0.465482062851 0.886080825873 0.450407320258 0.889834245405 -0.021311371207 0.023010163107
3.973222222000 -0.025821553489 0.019340279132 0.468253194530 0.884568689100 0.452978006609 0.887920865952 -0.022391506258 0.022705399336
3.973644444000 -0.025609562719 0.019686947249 0.468322471399 0.884722614688 0.453216587862 0.888678426034 -0.021619334214 0.022136243922
3.974066666000 -0.025490092242 0.019868268022 0.469604879703 0.882747503369 0.454376867113 0.888417541443 -0.021802157274 0.022315265349
3.974488888000 -0.024684485986 0.019700824419 0.472264699656 0.883221746054 0.457900378773 0.889085857251 -0.021559138426 0.021511624026
3.974911111000 -0.024978937436 0.020547051516 0.474807067726 0.882890857667 0.457994599928 0.887265518215 -0.020761946267 0.022374080901
3.975333333000 -0.023893673639 0.020359506046 0.476348360987 0.882320649474 0.460532168349 0.887354576520 -0.020518775227 0.021856987941
3.975755555000 -0.023480217932 0.020212685399 0.476969953588 0.882503026972 0.462587071492 0.887288523210 -0.019961644670 0.022255475933
3.976177777000 -0.024249191477 0.020377156738 0.478771943649 0.880889199978 0.463613581222 0.886472342982 -0.020550457139 0.021180890309
3.976600000000 -0.022734536949 0.019865642192 0.480761100500 0.878877055077 0.464894360248 0.886923702062 -0.019991979270 0.021085410439
3.977022222000 -0.023283374392 0.020377578422 0.482071193223 0.879349328058 0.466708713923 0.884966415741 -0.020611211456 0.021297814966
3.977444444000 -0.023425185360 0.019995403671 0.483480503465 0.878282347541 0.469446744225 0.884640555520 -0.019692533630 0.021294079705
3.977866666000 -0.022820881488 0.020448696229 0.485654432630 0.877254994494 0.470455487041 0.882787940934 -0.019762005240 0.022116816374
3.978288888000 -0.022556842833 0.020171488237 0.487455122243 0.876393284552 0.472256335282 0.882939478997 -0.019373550426 0.020682211504
3.978711111000 -0.022532705541 0.020582679792 0.488033034966 0.876118498468 0.472874583557 0.881580176724 -0.019087621014 0.020516708496
3.979133333000 -0.021663142258 0.019471980059 0.490770968850 0.874592200938 0.477269692987 0.883515500215 -0.020566424648 0.020194176644
3.979555555000 -0.021504094237 0.020305828821 0.492120500821 0.874830893408 0.477556027707 0.882401964885 -0.018985299931 0.020536284748
3.979977777000 -0.021435098493 0.020312354265 0.492482651728 0.873450987536 0.479905383888 0.881185645221 -0.019209901217 0.020664614857
3.980400000000 -0.021123546995 0.020681483799 0.495569070899 0.872222029551 0.479947731416 0.879882209827 -0.018931003795 0.020358667207
3.980822222000 -0.020606508621 0.020740596659 0.497060747237 0.872272849270 0.480451328668 0.879587975158 -0.018550134851 0.020871047792
3.981244444000 -0.020233715945 0.020631535901 0.497993872280 0.872575550818 0.483834417774 0.880520437122 -0.017969085015 0.019623375570
3.981666666000 -0.020555212861 0.021066153875 0.499963392055 0.872433306880 0.485853093944 0.877680846530 -0.018042585896 0.020688869696
3.982088888000 -0.019965182513 0.020193337930 0.502271869213 0.869335312584 0.487124972523 0.877217741586 -0.018517068115 0.019595670510
3.982511111000 -0.019519035512 0.021227706190 0.503431652162 0.870013607964 0.487660633213 0.876473840297 -0.017223739766 0.019720607284
3.982933333000 -0.018828996508 0.020246109736 0.505076212063 0.868041358356 0.490509130830 0.877898039834 -0.017777455536 0.019172486442
3.983355555000 -0.019285270224 0.020311707955 0.506447921752 0.867189649600 0.492099072643 0.876560459191 -0.018391388506 0.018778497077
3.983777777000 -0.019580966780 0.020189979896 0.507842486250 0.865932424847 0.493560883987 0.873894013925 -0.018022601413 0.018563686503
3.984200000000 -0.018713463150 0.019702624838 0.508757094024 0.864293384974 0.492317091174 0.874657068815 -0.018143126785 0.018388548031
3.984622222000 -0.018672386192 0.019632647283 0.511529539678 0.863680397626 0.497250401288 0.873508569281 -0.018380977449 0.018207415459
3.985044444000 -0.017950283839 0.020114476517 0.513156846876 0.864350445453 0.498015953567 0.873752116870 -0.017342815732 0.017774185940
3.985466666000 -0.017932834655 0.019649408519 0.513753443528 0.862529003150 0.499514808899 0.874022483312 -0.017624721480 0.017123495770
3.985888888000 -0.017560574984 0.019662121175 0.515013950888 0.861191761452 0.500375612023 0.870978150426 -0.017538522740 0.018310040550
3.986311111000 -0.017177009208 0.019114959220 0.517767957479 0.860453248298 0.502613704716 0.872171811591 -0.017288939906 0.016594759320
3.986733333000 -0.017409211629 0.019916631404 0.517954085553 0.859762787707 0.503491047042 0.869850193686 -0.017627104007 0.017749959252
3.987155555000 -0.016833192799 0.019765550198 0.519672796912 0.860046512877 0.505268598390 0.869472717665 -0.016815767086 0.016451906881
3.987577777000 -0.017429374067 0.019472492239 0.520792944916 0.857679552222 0.506332510407 0.867422194155 -0.017106612908 0.017171323372
3.988000000000 -0.016801978601 0.019344784370 0.523122736369 0.857319221696 0.509040840819 0.867144337986 -0.017315049087 0.016546518821
3.988422222000 -0.016321697159 0.019167740814 0.525342658876 0.856396534472 0.509747105658 0.866145869029 -0.016697410223 0.016494856951
3.988844444000 -0.016179250946 0.019409793943 0.526285321946 0.856554842599 0.511486813955 0.866231012697 -0.016642828819 0.016218233682
3.989266666000 -0.016478002250 0.018734773057 0.528981290702 0.853712711412 0.515381867630 0.863734433082 -0.018214141903 0.015172077731
3.989688888000 -0.015767819009 0.018554978815 0.530532554640 0.853249318395 0.516196740257 0.864267379404 -0.017210971125 0.015704849335
3.990111111000 -0.015419824283 0.017702401091 0.530921340178 0.852113471970 0.518169258468 0.865417228362 -0.017122092352 0.014696103095
3.990533333000 -0.015475221001 0.018561979328 0.532630867998 0.852153786431 0.518060361392 0.863198010853 -0.017052129708 0.014729770550
3.990955555000 -0.015028819377 0.018297159300 0.534440363881 0.849804445206 0.519494524495 0.862607154655 -0.017231412864 0.015325805436
3.991377777000 -0.015030308153 0.017775619525 0.535665184099 0.848734974666 0.522578703659 0.861596512729 -0.017576425022 0.014888742833
3.991800000000 -0.015294715202 0.017354036311 0.536181330251 0.847357274670 0.525790941512 0.858104973516 -0.017247274827 0.015692104520
3.992222222000 -0.015318433426 0.017409367727 0.538086250823 0.846645046450 0.525906837080 0.857856029738 -0.017938796658 0.014992885811
3.992644444000 -0.014936353031 0.016936861693 0.540650673980 0.846098843729 0.528745861106 0.857237158231 -0.017723548724 0.013689576800
3.993066666000 -0.014268127502 0.017130928791 0.542354310516 0.844563460610 0.529372358019 0.857319042343 -0.017824540783 0.014038407039
3.993488888000 -0.014693136641 0.016621969348 0.542301748664 0.843783941383 0.531293799765 0.854121084381 -0.017376918085 0.014297112971
3.993911111000 -0.014176961567 0.016930739980 0.543693442045 0.843135437621 0.531414444762 0.856211297537 -0.017460670454 0.014131053823
3.994333333000 -0.013028681473 0.017133613620 0.546410011795 0.842572684970 0.530685889622 0.856224462195 -0.016871220772 0.013933992355
3.994755555000 -0.013671595872 0.016289521047 0.547810050155 0.840817731286 0.534234953134 0.854444936157 -0.017017816660 0.013405921124
3.995177777000 -0.014243765140 0.017189959037 0.548173361902 0.841091378151 0.535716493982 0.853013786854 -0.017333360546 0.013813146306
3.995600000000 -0.013770360057 0.015830052514 0.550437324407 0.838850805618 0.537268981346 0.852957640056 -0.017248527450 0.012998847022
3.996022222000 -0.013797677849 0.016198007785 0.550848920613 0.838662028258 0.539265584899 0.850586210530 -0.017335469949 0.013096430500
3.996444444000 -0.013291809767 0.016597085693 0.553691959229 0.837200462197 0.538879157697 0.850105921619 -0.017282887879 0.013211928510
3.996866666000 -0.013946068419 0.016273579817 0.554142003546 0.835943562312 0.542045958341 0.846861609041 -0.018004792862 0.013727635719
3.997288888000 -0.014106192278 0.015453382827 0.554927483338 0.834820529506 0.543209572171 0.846529720655 -0.017638293774 0.012387727917
3.997711111000 -0.013510551683 0.015275480191 0.556658625256 0.833933372642 0.545047520451 0.847396469683 -0.017676762999 0.012220379599
3.998133333000 -0.013979628742 0.015904967998 0.557893423118 0.833409883505 0.546077935689 0.845753806784 -0.017832449446 0.012422106381
3.998555555000 -0.013685574425 0.015134770377 0.559056182369 0.831445148726 0.547643792382 0.843952838786 -0.018535543631 0.012686893104
3.998977777000 -0.014242182188 0.014966236686 0.560399924575 0.829661185460 0.550828419798 0.841977186427 -0.019098447974 0.012298678018
3.999400000000 -0.012359830351 0.014845839533 0.564684764670 0.828057836056 0.553204151886 0.839801075387 -0.019379351386 0.014587469474
3.999822222000 -0.013382594638 0.014037722505 0.562979274064 0.828173977104 0.554631222553 0.841304133668 -0.019032976838 0.011442497795
4.000244444000 -0.013844666086 0.014216387511 0.564307237141 0.826989964519 0.555059045358 0.840623510733 -0.018799698779 0.011908719686
4.000666666000 -0.013915830405 0.013962932708 0.565729985450 0.825319495245 0.555370381745 0.837626235485 -0.018947846910 0.012241671996
4.001088888000 -0.014130078922 0.014506255166 0.566947491001 0.824487608904 0.555476500696 0.837095810070 -0.018953557221 0.011763915986
4.001511111000 -0.013892560668 0.013752339327 0.568539045856 0.823183211566 0.557553256672 0.835779292054 -0.018701529135 0.011753840293
4.001933333000 -0.014144160225 0.013199470996 0.569592655711 0.823050814718 0.561217003865 0.835440701313 -0.018907799335 0.011532200961
4.002355555000 -0.014580044763 0.013001327717 0.571617178703 0.822703001757 0.562689621759 0.834198018824 -0.019112159253 0.010477121567
4.002777777000 -0.012949939984 0.014114553794 0.572662143823 0.820270579751 0.560983509699 0.834739983338 -0.018483899287 0.012056226332
4.003200000000 -0.013768412072 0.012867566818 0.574312015796 0.819730846433 0.563711897906 0.832587674693 -0.018840025324 0.010660741727
4.003622222000 -0.014373137131 0.013165339302 0.574099652890 0.816698172523 0.563713842187 0.829900649835 -0.019418040746 0.012178033550
4.004044444000 -0.014221922290 0.012900306743 0.574676013707 0.817242329338 0.567887205958 0.830855366665 -0.019803145259 0.011163806296
4.004466666000 -0.014152096918 0.012806078512 0.577605232030 0.815957274778 0.567642450054 0.829753593377 -0.019267939062 0.011159366201
4.004888888000 -0.014452113629 0.012044797970 0.580368259245 0.814760649611 0.569946475867 0.826776880967 -0.019758186182 0.010883352200
4.005311111000 -0.014053220293 0.012917465312 0.580286771673 0.813217349754 0.568795788835 0.828199620469 -0.019683002778 0.011135213381
4.005733333000 -0.014529681067 0.012802683065 0.580232114056 0.812755863115 0.572485410767 0.826714987439 -0.020479272955 0.011180034911
4.006155555000 -0.014463029510 0.012356813886 0.582858527038 0.812321892369 0.574131881447 0.825101152914 -0.020394119899 0.011495557972
4.006577777000 -0.014676613597 0.012216455730 0.583230707051 0.811518809841 0.575223516237 0.823925311664 -0.020416696936 0.010810118359
4.007000000000 -0.014758273023 0.011259897969 0.585193103089 0.810399311190 0.580446434093 0.822416473099 -0.021578598477 0.009054036603
4.007422222000 -0.014995510924 0.012127733774 0.584100180302 0.808546424426 0.576834771213 0.821846331372 -0.020397283972 0.011262258084
4.007844444000 -0.014454128993 0.012046249757 0.587155647691 0.804881804441 0.579204342046 0.821526082325 -0.020803434241 0.010970707411
4.008266666000 -0.014368064874 0.012298170940 0.583798443538 0.808375609381 0.578732912995 0.818002326069 -0.019730540686 0.011382737674
4.008688888000 -0.013918893625 0.011744705571 0.586399155877 0.807333295977 0.580132703454 0.817265834720 -0.019571389224 0.011253562494
4.009111111000 -0.014380695113 0.011904388901 0.585442580947 0.807354262112 0.581912026812 0.815640335112 -0.019752519703 0.011370160542
4.009533333000 -0.014977908668 0.011857820542 0.586687144481 0.805907348087 0.582823510204 0.815945237660 -0.019574955877 0.010535754415
4.009955555000 -0.015067098294 0.012237469066 0.588167627261 0.803319143273 0.582977169113 0.814019955633 -0.020209620962 0.011262070320
4.010377777000 -0.015645082387 0.012294222704 0.590346847958 0.803220419786 0.585969994882 0.812608211196 -0.021390167786 0.011003467393
