# GHZ S RI R 50.000000000000
3.950000000000 0.054317353862 -0.509889079933 0.845079807528 0.053713586080 0.831419089947 0.051195272047 0.011600862515 -0.497024559366
3.950422222000 0.052317505844 -0.508710899468 0.845854166968 0.053597317068 0.831155380147 0.051544192818 0.009741007469 -0.497033169012
3.950844444000 0.050461992098 -0.508771833852 0.843571397643 0.052979575751 0.830783539930 0.052188421895 0.007737428552 -0.494850608746
3.951266666000 0.049185360737 -0.509614382893 0.845059213910 0.050433918987 0.830593501247 0.050591128433 0.004981817411 -0.495143653570
3.951688888000 0.047199004757 -0.508524046038 0.843935466049 0.048634527955 0.830039159269 0.050916852530 0.004077557894 -0.494415930324
3.952111111000 0.047062078436 -0.509415142858 0.845098721761 0.047859263549 0.830954035146 0.049317145071 0.002822914194 -0.495042214899
3.952533333000 0.044995040977 -0.508643704148 0.845353248932 0.046583667843 0.830401840375 0.049088605976 0.003150785092 -0.494456437211
3.952955555000 0.044076122280 -0.508353168027 0.844502272561 0.044521195522 0.831004541807 0.047446753843 0.000921119069 -0.494550932497
3.953377777000 0.043795184603 -0.508557370760 0.844753270040 0.042871228976 0.831413701813 0.046550597146 -0.000439958080 -0.494563986298
3.953800000000 0.044357586745 -0.507913820348 0.843909520164 0.043396546160 0.831837172894 0.046011973511 -0.000554541508 -0.494830242174
3.954222222000 0.041986836337 -0.508434469878 0.845704979651 0.041161097435 0.832210521642 0.044005403659 -0.000944968348 -0.495200928645
3.954644444000 0.041571784533 -0.508744740833 0.846681112556 0.038758389375 0.831802512041 0.043123541983 -0.002134197671 -0.494787697105
3.955066666000 0.041732988213 -0.508480074391 0.846486494695 0.038055168593 0.831955533889 0.042984234560 -0.003040525359 -0.493471299723
3.955488888000 0.040784626588 -0.509080893878 0.847608158347 0.038289365677 0.833184943300 0.040713364495 -0.002636657666 -0.494231816173
3.955911111000 0.038195909948 -0.508379006077 0.847716970576 0.034719014346 0.832447268449 0.039266574819 -0.003631513003 -0.494090042465
3.956333333000 0.038776983531 -0.508888202112 0.847780635749 0.035355985833 0.833544720425 0.037508473903 -0.004754150908 -0.494373688386
3.956755555000 0.038602879438 -0.507483673815 0.848081972166 0.033076277445 0.833591205485 0.037580359867 -0.005386459172 -0.494916927293
3.957177777000 0.037396201836 -0.508942492818 0.848016230471 0.031911393805 0.834474385120 0.035624662916 -0.006063004854 -0.493843637374
3.957600000000 0.037220084483 -0.508787186799 0.848267519231 0.029494196745 0.834359043311 0.033903726537 -0.007937971001 -0.495362228198
3.958022222000 0.036273933276 -0.508991632646 0.848534688207 0.029585610293 0.834388288931 0.033602471917 -0.008085264580 -0.493180603256
3.958444444000 0.036473126856 -0.509320663940 0.850026267485 0.026796024519 0.835124139850 0.033005328306 -0.008931560661 -0.494368782845
3.958866666000 0.033896421452 -0.509735234117 0.850853921746 0.027691034329 0.835677277196 0.030855781627 -0.008081554901 -0.494134617242
3.959288888000 0.034017075689 -0.508537949680 0.850261001185 0.023890574542 0.835692685640 0.030601721281 -0.009718253690 -0.494670385849
3.959711111000 0.034267135669 -0.508831624141 0.850360033808 0.023293970533 0.836668190826 0.029953316630 -0.010266933240 -0.494101057030
3.960133333000 0.032674895626 -0.508546230899 0.850748913504 0.022200291952 0.836290305931 0.027801774235 -0.011097603686 -0.494388239292
3.960555555000 0.032308131519 -0.508629764897 0.851472807367 0.020561885639 0.835955500165 0.026955963752 -0.012065970528 -0.494064791203
3.960977777000 0.032294029003 -0.508062297919 0.851932861697 0.019296466617 0.836447701951 0.025177116660 -0.013538042088 -0.494850168754
3.961400000000 0.030334967943 -0.509058519383 0.852869371934 0.016763354298 0.834989838647 0.024219026085 -0.014952302803 -0.493481955261
3.961822222000 0.030461945681 -0.508658277637 0.852082663491 0.016138009993 0.836463015843 0.023464032370 -0.014523503407 -0.493751964103
3.962244444000 0.028788198208 -0.508335686259 0.852274540551 0.014832406648 0.837909579890 0.021635349087 -0.014763759631 -0.494775078625
3.962666666000 0.027885274485 -0.508015113349 0.852452942184 0.013492434411 0.836281492991 0.020671243785 -0.015613852875 -0.493638657058
3.963088888000 0.028747251173 -0.508875055371 0.852863286862 0.012068100845 0.837947633235 0.019680607062 -0.017225248224 -0.494105282804
3.963511111000 0.026716988088 -0.508786169017 0.853013595258 0.010485240929 0.837952185240 0.016577953536 -0.018553515561 -0.494353466438
3.963933333000 0.027096379420 -0.508159326393 0.853208404129 0.009256998274 0.838106637982 0.016444438299 -0.019001425012 -0.493498269892
3.964355555000 0.026226699491 -0.509266841657 0.853663489645 0.007684707631 0.839091111377 0.015898162440 -0.019529843464 -0.493907342437
3.964777777000 0.025319376939 -0.509002851532 0.853393723736 0.006863544892 0.840442720985 0.015075738486 -0.018814716298 -0.494304880566
3.965200000000 0.025126669203 -0.510206930241 0.854738286395 0.005557013067 0.839485115146 0.013036592474 -0.021562213476 -0.492983337825
3.965622222000 0.023679518414 -0.507837232857 0.854475174208 0.003262440368 0.839319828143 0.011873929932 -0.021759545488 -0.494747860282
3.966044444000 0.024105345292 -0.508449869121 0.854290785770 0.002281835898 0.839481437167 0.011955738562 -0.022519423051 -0.493554811441
3.966466666000 0.023680769823 -0.509183275637 0.854784855920 0.000500811339 0.840422337092 0.009904179931 -0.024419202105 -0.494140930068
3.966888888000 0.021217627073 -0.509875338743 0.854865692146 -0.000893892925 0.840818704239 0.008325927873 -0.024004994533 -0.492893902719
3.967311111000 0.021839665627 -0.508781321118 0.855385910103 -0.002323015377 0.839505326283 0.007248489118 -0.025857056041 -0.493208418303
3.967733333000 0.020253117845 -0.509628607229 0.855628023567 -0.003597247843 0.840522918732 0.005286670489 -0.026229706431 -0.492499982110
3.968155555000 0.019004298254 -0.509444373181 0.855955839515 -0.005090676769 0.841123137042 0.003588138018 -0.026847060583 -0.493224407256
3.968577777000 0.018901040710 -0.508922804373 0.856071713443 -0.006575343632 0.840186779079 0.004292493319 -0.027227435568 -0.492562546830
3.969000000000 0.017272946480 -0.508540387926 0.856348967870 -0.008460011140 0.840749585657 0.001338640941 -0.028633960254 -0.492509899248
3.969422222000 0.017013095562 -0.509049641346 0.856297179411 -0.009384334995 0.841088953746 0.000142508042 -0.029595287480 -0.492730144670
3.969844444000 0.017410450146 -0.509786256974 0.856207538157 -0.010588057010 0.842658296747 0.000628320400 -0.030276966173 -0.493614108784
3.970266666000 0.015532856547 -0.509219060383 0.856812992262 -0.012005747583 0.841768866746 -0.002968418023 -0.031906248132 -0.492618271388
3.970688888000 0.014612703908 -0.509951397667 0.856722681246 -0.013325769111 0.842812051227 -0.003507409398 -0.031710179340 -0.492544927354
3.971111111000 0.014951079396 -0.510272845853 0.857193801016 -0.014664297008 0.843569558878 -0.003295009650 -0.032391263602 -0.492719202957
3.971533333000 0.013977802604 -0.508949050119 0.857221829739 -0.016214974961 0.842689957344 -0.005461124723 -0.032893308917 -0.492794304219
3.971955555000 0.012633529035 -0.509818873506 0.857285016578 -0.017509645137 0.843900132220 -0.006594949749 -0.034163912898 -0.492367883568
3.972377777000 0.011951550964 -0.508898019463 0.857208047533 -0.019162666318 0.842827607921 -0.007253700121 -0.034170432246 -0.491987145764
3.972800000000 0.011706192372 -0.509991558940 0.857588840349 -0.020267387656 0.843624714897 -0.007676302724 -0.035165665062 -0.491915041827
3.973222222000 0.010925505880 -0.509281406608 0.857879513689 -0.021691667185 0.843678860435 -0.008752816472 -0.035761089369 -0.491750194030
3.973644444000 0.009715265146 -0.509791589893 0.857797592552 -0.023123141970 0.844657439236 -0.011463309078 -0.037278004993 -0.492224409130
3.974066666000 0.008118410871 -0.508125821011 0.858091979034 -0.024349515789 0.842157163181 -0.013212636548 -0.037674479623 -0.491065596937
3.974488888000 0.009072075150 -0.509982548013 0.857810953340 -0.025785824853 0.845009300384 -0.013614605402 -0.039224348168 -0.491897716232
3.974911111000 0.007555464940 -0.510689673337 0.858322413035 -0.027357591199 0.845586595630 -0.014348483506 -0.039210342688 -0.491342154548
3.975333333000 0.006761847402 -0.508929418422 0.858788216512 -0.028924518379 0.843966833472 -0.015690073568 -0.039903017625 -0.490740863560
3.975755555000 0.005051048028 -0.510617432108 0.858762420919 -0.030237092890 0.845320419422 -0.018294546241 -0.041699092380 -0.490445992377
3.976177777000 0.006011452227 -0.509765117801 0.858700501851 -0.031121583719 0.844840623132 -0.017217204745 -0.041148976209 -0.490663582847
3.976600000000 0.003983732400 -0.510113228669 0.857717620717 -0.032684058335 0.844563931518 -0.023408695435 -0.045317792468 -0.490204371881
3.977022222000 0.003979606540 -0.510855858293 0.859225433895 -0.034289341407 0.846971782463 -0.019539932391 -0.042611367209 -0.491157347668
3.977444444000 0.003977736805 -0.508689777657 0.859218885100 -0.035356039689 0.845101333994 -0.020793491904 -0.043513896563 -0.490966542774
3.977866666000 0.003414938209 -0.511238037408 0.859277386268 -0.037516881527 0.847978038313 -0.022056523310 -0.045295260226 -0.491047320577
3.978288888000 0.001722555653 -0.510028965115 0.859793087375 -0.038421782524 0.846055832867 -0.023614226824 -0.045023527535 -0.490432861480
3.978711111000 0.001228297841 -0.509956921650 0.859637093125 -0.040287654001 0.846735758538 -0.025582713712 -0.046542997399 -0.490621507849
3.979133333000 -0.000505725537 -0.511206439980 0.859602867724 -0.040959592073 0.847370595029 -0.027134280595 -0.047005809239 -0.489750447307
3.979555555000 -0.001058713575 -0.511685462305 0.859524914704 -0.043011304803 0.849862110149 -0.028169734936 -0.048158096990 -0.490825240104
3.979977777000 -0.002351767330 -0.510286912001 0.859677937647 -0.044102964928 0.847907805947 -0.030283735030 -0.048665628337 -0.489929534255
3.980400000000 -0.001518905034 -0.510620401458 0.860061576755 -0.045279140521 0.848866511368 -0.028662716001 -0.048614946952 -0.490383904857
3.980822222000 -0.003043331579 -0.511542114304 0.860613145867 -0.046449259651 0.849848869951 -0.031433655756 -0.049904040526 -0.490437797549
3.981244444000 -0.004057423040 -0.511941456439 0.860100530062 -0.048540885518 0.850011460839 -0.032593608870 -0.051260868472 -0.489627338251
3.981666666000 -0.006765177225 -0.510501981805 0.859265726955 -0.050062696350 0.848166718795 -0.036378210085 -0.052066244568 -0.487166331656
3.982088888000 -0.006069977058 -0.510123789050 0.860068336744 -0.051016383450 0.848708057411 -0.035670608574 -0.052029029751 -0.488483230689
3.982511111000 -0.005997275772 -0.511821236559 0.860211312949 -0.052380137681 0.850662243906 -0.036423673247 -0.053809891470 -0.489661382425
3.982933333000 -0.007576066663 -0.511773976278 0.861014603781 -0.053534992900 0.851167415837 -0.038142179130 -0.054049522233 -0.489568398560
3.983355555000 -0.008793123547 -0.510174289785 0.860444963674 -0.055260233958 0.849050560797 -0.040550249093 -0.055076459321 -0.488134663185
3.983777777000 -0.010243979387 -0.511582249652 0.860978020417 -0.057679459334 0.850558419167 -0.041228027094 -0.056104581576 -0.487800675258
3.984200000000 -0.009956644613 -0.510414786390 0.862576974359 -0.059151215352 0.852714955782 -0.040084192961 -0.054808761930 -0.489884769078
3.984622222000 -0.011076354044 -0.510422863111 0.860229315535 -0.058998016783 0.849439003963 -0.043720575694 -0.056839981780 -0.487301331908
3.985044444000 -0.012450597740 -0.510781727861 0.860492719144 -0.060866503160 0.849560830308 -0.046101887525 -0.058010793226 -0.486775235147
3.985466666000 -0.011791426673 -0.511667090702 0.861315864345 -0.062461203195 0.851633722253 -0.044692893618 -0.057845034380 -0.488356819886
3.985888888000 -0.014702018869 -0.511188361808 0.861106758557 -0.063913459607 0.851198981119 -0.047993331048 -0.059380031929 -0.486501804310
3.986311111000 -0.013985990196 -0.510680152065 0.861115017066 -0.064578409223 0.850077918738 -0.048285405758 -0.059847785953 -0.486787391193
3.986733333000 -0.017123501678 -0.511508889164 0.861353943152 -0.066730132373 0.852020912117 -0.051404648181 -0.061178976871 -0.485947771953
3.987155555000 -0.016231795793 -0.510371508364 0.861211230726 -0.068093908864 0.849944859646 -0.051353434632 -0.061827202642 -0.485721552006
3.987577777000 -0.016707176461 -0.512607907565 0.861401643256 -0.069333986453 0.852049838848 -0.052326400642 -0.062565689526 -0.485963668563
3.988000000000 -0.018203131606 -0.512665778392 0.862516004499 -0.070539103442 0.853770297312 -0.054863850603 -0.064456538112 -0.487097188297
3.988422222000 -0.018165983936 -0.512797784739 0.862736483734 -0.071908345970 0.853356887059 -0.053247019908 -0.062883236520 -0.486764417553
3.988844444000 -0.019982289452 -0.511159770712 0.861545904545 -0.073668289112 0.852815672671 -0.056361384815 -0.064291302373 -0.486093163812
3.989266666000 -0.020258724809 -0.512704221526 0.862064331439 -0.075879405488 0.854662630955 -0.057196746336 -0.067133123234 -0.486326773655
3.989688888000 -0.022760407632 -0.512895786729 0.861721801418 -0.078239613240 0.855234946443 -0.060556583424 -0.067685382062 -0.485790528392
3.990111111000 -0.021684269613 -0.512648390068 0.862344302889 -0.077509217545 0.853954660664 -0.059404153718 -0.066814059705 -0.485205750375
3.990533333000 -0.023376718398 -0.512599065743 0.862466941697 -0.080652915820 0.855891629803 -0.060635679475 -0.067554804083 -0.486832720456
3.990955555000 -0.025676978204 -0.513011968515 0.862472961577 -0.082213639991 0.855716093610 -0.064945997991 -0.070043444161 -0.485485997237
3.991377777000 -0.025453778424 -0.513221728652 0.863123307969 -0.083567587802 0.856472667460 -0.063846306281 -0.070199401211 -0.485909806076
3.991800000000 -0.027987081866 -0.512960891656 0.861813030283 -0.087560469110 0.856598922027 -0.067693177873 -0.072466902289 -0.484902510600
3.992222222000 -0.026183933234 -0.511301535457 0.862392124981 -0.084736031535 0.853712134867 -0.066203604628 -0.070620373527 -0.484408259314
3.992644444000 -0.027755886637 -0.510948653330 0.862102359443 -0.086941933899 0.853396692774 -0.068350808953 -0.072119498565 -0.483387722165
3.993066666000 -0.029553975201 -0.512783262519 0.862319096827 -0.089522915370 0.856255318498 -0.070588622258 -0.074028162797 -0.483878843693
3.993488888000 -0.031349277190 -0.511478747537 0.861467492245 -0.089655658452 0.854925507705 -0.073296827580 -0.074230650721 -0.482873451973
3.993911111000 -0.030833414827 -0.512046596426 0.863369398042 -0.091193155321 0.855436199716 -0.071956220281 -0.073458123904 -0.484251972858
3.994333333000 -0.032043311874 -0.515561834024 0.865961738784 -0.094765719286 0.860840013114 -0.072457138703 -0.075583275292 -0.485869222524
3.994755555000 -0.033098837340 -0.511939153107 0.862398371498 -0.093833946575 0.856395533371 -0.075098468438 -0.074924152038 -0.482983964802
3.995177777000 -0.033562057779 -0.513377384986 0.863903124144 -0.095161389086 0.858023826544 -0.075658466445 -0.076269994715 -0.484249403848
3.995600000000 -0.035052745681 -0.513081421811 0.863341778813 -0.097928024870 0.858192636374 -0.078068070652 -0.077655102042 -0.483241037568
3.996022222000 -0.036460703573 -0.510038448806 0.861500019677 -0.097246335846 0.855170822623 -0.080245342322 -0.076734600073 -0.481809142169
3.996444444000 -0.035991108487 -0.512138995705 0.863948539921 -0.099771108485 0.857447824925 -0.079312093024 -0.078371811299 -0.483809059389
3.996866666000 -0.037716817104 -0.512379577234 0.863420779404 -0.102069477604 0.858806124677 -0.081329186407 -0.078821307417 -0.483822781880
3.997288888000 -0.038221290629 -0.511352749129 0.863002829683 -0.102529987670 0.856970001894 -0.083368339518 -0.080013530595 -0.482420987654
3.997711111000 -0.040108351212 -0.512637486208 0.864357553955 -0.104607866694 0.859757058982 -0.085861272412 -0.081794803363 -0.483526887654
3.998133333000 -0.040858579377 -0.511170643595 0.862800675757 -0.105804725011 0.857850436443 -0.086993531655 -0.081376186009 -0.481453144824
3.998555555000 -0.043622321058 -0.511262288853 0.862357457883 -0.107181208717 0.857983718338 -0.091888839189 -0.084085271296 -0.480670328319
3.998977777000 -0.042176793943 -0.510096066960 0.862749396102 -0.108333729315 0.856444484313 -0.088637361643 -0.082326439483 -0.480822184071
3.999400000000 -0.047865570410 -0.510986859569 0.867742336675 -0.113764239286 0.854919006337 -0.097025876098 -0.088031978291 -0.480372351103
3.999822222000 -0.045430463655 -0.510955765577 0.864305642827 -0.112932633308 0.857126390714 -0.092551592088 -0.085232635201 -0.480108118957
4.000244444000 -0.046153090491 -0.512063368009 0.863683457468 -0.110766319158 0.860371410460 -0.093620030397 -0.084293394448 -0.481687188143
4.000666666000 -0.047597695161 -0.510710697145 0.863484486321 -0.116442821575 0.857249526728 -0.095866927192 -0.086697537683 -0.479052387292
4.001088888000 -0.048492858633 -0.511694345008 0.864440918315 -0.115135559368 0.859093174403 -0.096713118381 -0.086421673453 -0.479926953298
4.001511111000 -0.048798075909 -0.512035672274 0.863191604535 -0.116392276657 0.860309035589 -0.097779151655 -0.087008642666 -0.479780208069
4.001933333000 -0.048592194655 -0.511237884188 0.862466663663 -0.117354926895 0.860328618474 -0.097520927136 -0.086741703211 -0.480736581375
4.002355555000 -0.051016483509 -0.510599294924 0.861159595601 -0.120716906776 0.859845724496 -0.099489481949 -0.087511383011 -0.478791173375
4.002777777000 -0.053264702869 -0.510688523977 0.864682440694 -0.121731100492 0.860678814281 -0.105620774643 -0.091391717111 -0.480459558056
4.003200000000 -0.053882122010 -0.510841492372 0.865264927283 -0.124543664338 0.859479303322 -0.105444482700 -0.092084194263 -0.479274640350
4.003622222000 -0.055012678773 -0.511088116771 0.864130374265 -0.124886631765 0.860245331025 -0.106783866077 -0.091871081730 -0.478782358866
4.004044444000 -0.056770731351 -0.510795051275 0.863380362134 -0.125569864280 0.862211573833 -0.108089536375 -0.091758672030 -0.479608207125
4.004466666000 -0.056915582354 -0.510496396644 0.863434577637 -0.127479055685 0.861791228217 -0.109737167319 -0.093373447871 -0.479116330044
4.004888888000 -0.057893776711 -0.510284635873 0.864429441769 -0.128376032154 0.861384311401 -0.111521031356 -0.093830088598 -0.479121092328
4.005311111000 -0.058176085671 -0.509457345777 0.860247773559 -0.129913091388 0.860443329619 -0.110321909971 -0.092691171155 -0.476875944832
4.005733333000 -0.060653165645 -0.509747125022 0.862965356925 -0.130605880854 0.861910793186 -0.113431787126 -0.093681133113 -0.478318773677
4.006155555000 -0.060085380690 -0.510035458195 0.861731574129 -0.132971342722 0.862720891902 -0.112810057275 -0.094682635829 -0.478070974011
4.006577777000 -0.062044635334 -0.508902490839 0.862280355072 -0.135448005223 0.862100757601 -0.115488284695 -0.096230723769 -0.477852921093
4.007000000000 -0.063091249274 -0.508792328114 0.862657525750 -0.137022623305 0.861799516326 -0.116671880620 -0.097536630012 -0.478534311162
4.007422222000 -0.065211110233 -0.509063456193 0.862747172977 -0.137682105655 0.862102348148 -0.119558656268 -0.097427062723 -0.476681290553
4.007844444000 -0.065270338967 -0.508604317967 0.861748287877 -0.139100981238 0.862209444309 -0.120982500440 -0.097810391083 -0.476196788248
4.008266666000 -0.067932210959 -0.508564380223 0.862808467847 -0.143033204252 0.862355603560 -0.122646151792 -0.099612359606 -0.475806074178
4.008688888000 -0.068016439428 -0.507485429068 0.862343158736 -0.141634988687 0.859959691781 -0.124069696892 -0.099089583500 -0.474471785653
4.009111111000 -0.070234149738 -0.506724549108 0.861484391722 -0.145221235621 0.860594171575 -0.127777453747 -0.100318515861 -0.474102707775
