# GHZ S RI R 50.000000000000
3.950000000000 -0.036062368210 0.005722275210 0.365430554796 0.911864764021 0.361887782913 0.908730303180 -0.041983695767 0.022096901575
3.950422222000 -0.036565893891 0.005228900474 0.366808264394 0.913386354105 0.363246031273 0.908088339994 -0.043488463135 0.023081306930
3.950844444000 -0.035776264776 0.005300417650 0.370335401780 0.910453435422 0.363926349082 0.910220309846 -0.043485208265 0.023572197700
3.951266666000 -0.036372611379 0.004714831020 0.373923581369 0.909810457599 0.363538468234 0.908413361297 -0.043794278110 0.023712687117
3.951688888000 -0.036107695695 0.005436728720 0.374944640816 0.908082576508 0.365540938409 0.908143754603 -0.042986496687 0.024231636110
3.952111111000 -0.036401526560 0.006170263556 0.377220964808 0.909655461024 0.367591274082 0.909699437151 -0.043290276448 0.025715726245
3.952533333000 -0.036753398352 0.005733387229 0.375931899836 0.906196040359 0.367754188059 0.906296899990 -0.042612350366 0.024658720695
3.952955555000 -0.036805453415 0.006732771475 0.378680531409 0.909412172487 0.369942499023 0.909036858493 -0.043416282139 0.026483827264
3.953377777000 -0.036726517724 0.005618063603 0.379985377887 0.909181763618 0.369048000534 0.905056862238 -0.043029023128 0.025288277310
3.953800000000 -0.035862969132 0.007186313668 0.379626793351 0.909330711913 0.369733529088 0.907041348750 -0.042286794783 0.025607040030
3.954222222000 -0.037291420557 0.006095983660 0.380505522875 0.906510642697 0.372816028430 0.905351724928 -0.042614612020 0.025605755204
3.954644444000 -0.036447678517 0.007502484025 0.386788078498 0.908140845531 0.373914954350 0.904706647526 -0.041113839847 0.026489156784
3.955066666000 -0.036836444507 0.007483521577 0.385909293782 0.907425546749 0.373293299223 0.904662966176 -0.041248920274 0.025892510211
3.955488888000 -0.037260785703 0.008765670834 0.386472204745 0.907974281568 0.376891118714 0.907774238838 -0.041813032295 0.027205709471
3.955911111000 -0.038228276896 0.008640836355 0.388410702243 0.908281680817 0.376643262336 0.905932689993 -0.042002290196 0.027727480781
3.956333333000 -0.037438895835 0.008851780122 0.387704880116 0.908372329125 0.381142086435 0.905968544550 -0.041208292468 0.028546181274
3.956755555000 -0.038038882552 0.008715274294 0.389428278092 0.905490199835 0.379059412733 0.905421734579 -0.041734832241 0.027511531359
3.957177777000 -0.037525389749 0.008916565513 0.391032658925 0.905924550684 0.381783997118 0.905408182704 -0.041127168131 0.027542613281
3.957600000000 -0.037566768590 0.009459879907 0.391784682757 0.905236845384 0.382951675547 0.903186683619 -0.040524441187 0.027818320823
3.958022222000 -0.037384869019 0.009742716539 0.393827241971 0.907822156577 0.384409578693 0.904887380447 -0.039972358184 0.028219837234
3.958444444000 -0.036680930474 0.009575714232 0.395271902169 0.904602552211 0.385308843860 0.904164848521 -0.040576026182 0.027152755909
3.958866666000 -0.037779250630 0.009312020013 0.397203392803 0.905335352395 0.386253343749 0.904377120114 -0.040217942195 0.028067895995
3.959288888000 -0.037628742375 0.011239286401 0.399554947428 0.906819053468 0.387791591677 0.905252409133 -0.039545776893 0.029806452505
3.959711111000 -0.036764546170 0.012411637379 0.401509978759 0.907858485003 0.389800140181 0.906697179601 -0.039361651063 0.029358440141
3.960133333000 -0.037547780158 0.011624282879 0.402902830122 0.905573494547 0.390015919273 0.905018077647 -0.039346828677 0.029583628373
3.960555555000 -0.037153020808 0.012147267601 0.403525541998 0.905518411559 0.390559062502 0.903281277287 -0.038378574500 0.028246017125
3.960977777000 -0.036454273487 0.012641348266 0.407623604184 0.904279272464 0.394098391059 0.904032360068 -0.038047017852 0.029077038389
3.961400000000 -0.037060260741 0.012088127305 0.406599568942 0.904261665079 0.392461277784 0.902374187773 -0.039177030504 0.028428331990
3.961822222000 -0.037338516086 0.012690160991 0.407427598237 0.903339391741 0.395527907420 0.902598339657 -0.038415950990 0.030093317498
3.962244444000 -0.036669255419 0.013519088675 0.411246405952 0.903675236158 0.399074083097 0.904052116018 -0.037196191024 0.030295598311
3.962666666000 -0.037563408221 0.014493372119 0.410108118346 0.904311367050 0.397624020176 0.902820604514 -0.037875180601 0.030617012242
3.963088888000 -0.036592675640 0.013818459974 0.411883548680 0.902761042400 0.400225075879 0.902210916495 -0.037246705818 0.029688520922
3.963511111000 -0.036008062985 0.013862085862 0.415462017025 0.901678706757 0.404167105517 0.901449373688 -0.036856387402 0.030475157851
3.963933333000 -0.037728114415 0.014060180295 0.413267242193 0.900960750877 0.403541753213 0.899948308494 -0.036458546786 0.030117201918
3.964355555000 -0.035803992433 0.014458295636 0.418056822674 0.900029666095 0.406397311816 0.902413395219 -0.036615215108 0.030419998800
3.964777777000 -0.035230040665 0.015375087160 0.420165197829 0.901603047044 0.408192600530 0.903253406409 -0.035355490843 0.030364522006
3.965200000000 -0.035219275468 0.015667915563 0.422650741308 0.902838814446 0.409033755050 0.902370408843 -0.035762676813 0.030278521640
3.965622222000 -0.036000163749 0.016191403486 0.422780242815 0.901958405496 0.408127184012 0.901835222327 -0.036308486326 0.030601244640
3.966044444000 -0.035039192878 0.017162786791 0.425144644444 0.901937427145 0.410972461295 0.902255444467 -0.034787177577 0.031721374109
3.966466666000 -0.034352504452 0.015871971657 0.426000141036 0.899912034921 0.412303393398 0.900507981968 -0.035495868455 0.029745843254
3.966888888000 -0.035100636950 0.016595410958 0.429650221627 0.900054043356 0.413998240575 0.901619853581 -0.035009508488 0.030818056083
3.967311111000 -0.035177224928 0.016528956704 0.428879956622 0.898099281557 0.414961717030 0.898498011663 -0.033990650050 0.030956401455
3.967733333000 -0.035539269320 0.017118241504 0.429627601275 0.899104539155 0.417236266274 0.899354776173 -0.034482173749 0.031277687971
3.968155555000 -0.034417157847 0.016874575771 0.434120881849 0.897831036599 0.420385350858 0.899100813031 -0.034290522840 0.030925561060
3.968577777000 -0.034944602851 0.017111093426 0.432590650944 0.897473833622 0.419059654003 0.898249363966 -0.034047179681 0.030840131937
3.969000000000 -0.035011656950 0.018149508645 0.437762241532 0.900407896230 0.422492073785 0.898198419458 -0.034280796173 0.031840723683
3.969422222000 -0.034867018929 0.018712542776 0.437982969808 0.898224727259 0.422779899471 0.897585941735 -0.032930008259 0.031312311518
3.969844444000 -0.033607282571 0.018726476810 0.438368452928 0.897834051395 0.423131970168 0.900367839216 -0.033238403347 0.031264869572
3.970266666000 -0.033660558624 0.018249528071 0.440721342563 0.895518588624 0.428539742027 0.896571913500 -0.031963080944 0.030806915848
3.970688888000 -0.032380411618 0.018627958001 0.443813996757 0.894649152731 0.430265164090 0.897040816832 -0.031782442202 0.031095091766
3.971111111000 -0.032369295754 0.018426916931 0.443805171335 0.894474655966 0.430499850680 0.897172213062 -0.031947445645 0.030308954189
3.971533333000 -0.032783874433 0.019397444675 0.445795304175 0.895092596691 0.430895423342 0.894577958572 -0.031325089234 0.030696454281
3.971955555000 -0.031903378560 0.019415221729 0.448491097303 0.893917444756 0.434417042696 0.897113232566 -0.031490429345 0.030366397191
3.972377777000 -0.031648754321 0.020301692785 0.450660516456 0.894526497717 0.435343298099 0.894888500084 -0.029941103096 0.031198410291
3.972800000000 -0.032124306383 0.019321640467 0.449474059710 0.893249479656 0.435077634660 0.895736736470 -0.031314380206 0.030351587000
3.973222222000 -0.030924701675 0.020469192337 0.453364224537 0.892917682291 0.438464657855 0.895066802542 -0.029832769904 0.030706154935
3.973644444000 -0.031029627949 0.020449724643 0.455335661460 0.892211682315 0.440491650433 0.895252230194 -0.030318576627 0.031204256491
3.974066666000 -0.031843785297 0.020724736536 0.456752371430 0.891535860774 0.441646511607 0.892279263326 -0.030262708659 0.031201832350
3.974488888000 -0.030141722349 0.021036336664 0.458444759771 0.891165540936 0.442957052004 0.894923985964 -0.029264370770 0.030638667261
3.974911111000 -0.029998378638 0.020721712293 0.459467103155 0.890155655932 0.444866533832 0.894118582271 -0.029253663919 0.030927224680
3.975333333000 -0.030491669324 0.021566521759 0.461925665679 0.890820716587 0.445892743872 0.892233677871 -0.029673618681 0.030927666957
3.975755555000 -0.030032774482 0.020358912204 0.462076967835 0.888735583573 0.449062184174 0.892120497979 -0.029640950257 0.030505026025
3.976177777000 -0.028695247157 0.021384715094 0.465732336446 0.887681562712 0.448825829820 0.891939221388 -0.028181903315 0.030408653314
3.976600000000 -0.029526516476 0.022907229330 0.466938389329 0.890247036456 0.450318752609 0.890139807543 -0.026944804016 0.029765917008
3.977022222000 -0.027945960512 0.020412381114 0.468450406733 0.885133503599 0.453667190637 0.890963261415 -0.028271275659 0.029461805713
3.977444444000 -0.028182554470 0.022132900321 0.470156087750 0.887387901997 0.453168859004 0.889664836119 -0.027189661979 0.029766625497
3.977866666000 -0.027636731680 0.020605714311 0.471341130050 0.883121250353 0.456101855739 0.890977437062 -0.028418139633 0.029171282205
3.978288888000 -0.027705374947 0.021856270518 0.473763442564 0.885642309484 0.457576985264 0.889067189579 -0.026972451756 0.029965439600
3.978711111000 -0.027446816834 0.021623799625 0.474562542248 0.883521613002 0.458674209646 0.887536392865 -0.026686286629 0.029906796897
3.979133333000 -0.026328585491 0.020902853440 0.476442915956 0.881318097576 0.461485500746 0.887781726316 -0.026722155076 0.028404095833
3.979555555000 -0.026253089337 0.021353286251 0.477780574583 0.881927067824 0.463940290657 0.888996913127 -0.026727951827 0.029200472694
3.979977777000 -0.025653211371 0.021007717895 0.480730537756 0.879111698059 0.465461962591 0.885340981078 -0.026546588550 0.028595174813
3.980400000000 -0.024913552420 0.022005122784 0.482488754390 0.880223636783 0.466055658845 0.887371825130 -0.025874701565 0.028248161631
3.980822222000 -0.025381801984 0.020622333333 0.483205346631 0.877984968228 0.468257278567 0.885877919469 -0.026628587834 0.027739205959
3.981244444000 -0.025421304921 0.021637484685 0.484056612864 0.879581024577 0.469721252453 0.886834691497 -0.025484659979 0.028699135238
3.981666666000 -0.025332164974 0.020854948395 0.486882142274 0.874401110446 0.473149857223 0.882554494289 -0.026751962491 0.029221227526
3.982088888000 -0.024852792669 0.021273694470 0.487821013529 0.875310244251 0.472880227264 0.882240256923 -0.025469135132 0.028157370214
3.982511111000 -0.023220158038 0.021863112278 0.490775207575 0.876316845085 0.474502791564 0.885326356556 -0.025255466883 0.027599318296
3.982933333000 -0.023439616289 0.020459117928 0.491827839938 0.874320549586 0.477027920533 0.883265797743 -0.025142235503 0.026873614194
3.983355555000 -0.023898650722 0.021112023829 0.492720919122 0.872382762051 0.478064082409 0.880431824593 -0.025737391704 0.027489179637
3.983777777000 -0.023690826404 0.020975105277 0.495819238056 0.871411103645 0.480815005694 0.881193416740 -0.025581469695 0.027326705646
3.984200000000 -0.022763879414 0.020464536540 0.497634310511 0.869467691541 0.483245459952 0.878678382041 -0.025193733930 0.026797649161
3.984622222000 -0.022983455664 0.021601715483 0.497692869187 0.872150713377 0.483254219421 0.878340235718 -0.024428151263 0.026705784385
3.985044444000 -0.023467803060 0.021114273439 0.499357168276 0.870221588090 0.484355865909 0.876906866928 -0.025344027184 0.027087942537
3.985466666000 -0.021968044169 0.021538658656 0.501119086078 0.869690941282 0.485169448275 0.878266189718 -0.024268323833 0.026584728603
3.985888888000 -0.023046410049 0.021091394249 0.501998381681 0.869328031762 0.489635468107 0.875763192643 -0.024669481182 0.027176491826
3.986311111000 -0.021390832065 0.021765591024 0.505160975050 0.868550845135 0.488585074972 0.875474487201 -0.024182147313 0.025688277331
3.986733333000 -0.022077626819 0.019525952329 0.505186863165 0.864832766645 0.494089568736 0.874021899719 -0.025123312740 0.026225001629
3.987155555000 -0.021460758818 0.021280591434 0.507975008909 0.864974382828 0.491543886642 0.873567912017 -0.024322060472 0.025678024561
3.987577777000 -0.020873554788 0.021935065165 0.508607903144 0.866889707485 0.494328937684 0.875655128445 -0.024770533525 0.026709434963
3.988000000000 -0.020613930410 0.020129513978 0.512083133950 0.864128183477 0.497526142018 0.873897166149 -0.025349246823 0.024586477394
3.988422222000 -0.020055142763 0.020588109656 0.511322172622 0.863702696516 0.497160226120 0.873634171552 -0.023625757850 0.025210951346
3.988844444000 -0.020506930611 0.019943959670 0.511970071617 0.861615345271 0.499688338856 0.871271400373 -0.023887082013 0.025031414900
3.989266666000 -0.019530056971 0.019590757785 0.517051383387 0.860512349238 0.502161263184 0.873064296591 -0.024847989836 0.024129745636
3.989688888000 -0.020220718490 0.020283368642 0.517165438184 0.860476145296 0.503938580861 0.870316604232 -0.024383035125 0.024777721663
3.990111111000 -0.019257804444 0.020364526653 0.518147698977 0.859477799812 0.504085604926 0.869441134690 -0.023242597882 0.024814558963
3.990533333000 -0.019012997632 0.019604467779 0.519865628081 0.857855410728 0.504853360619 0.869505522693 -0.024192383118 0.024303639956
3.990955555000 -0.019517577879 0.019390801349 0.522373701426 0.857064480166 0.508917822346 0.867432712918 -0.025254581090 0.024114577610
3.991377777000 -0.018805791344 0.018870699631 0.523894825260 0.854942224149 0.509465345144 0.867605848538 -0.025050376231 0.023717483116
3.991800000000 -0.018553741222 0.018642507994 0.525507637461 0.852818054108 0.510617334670 0.865324551881 -0.024806917114 0.023706177327
3.992222222000 -0.018865120764 0.019645745344 0.525094595610 0.854821270077 0.510748269256 0.864491187195 -0.023792972575 0.024067201286
3.992644444000 -0.019079918417 0.019425314614 0.527440596163 0.852231736428 0.512405044567 0.861818247378 -0.024707075438 0.024603611194
3.993066666000 -0.018249585781 0.018535298471 0.529051030836 0.851934792481 0.516640950044 0.863564489472 -0.024174728176 0.023757512786
3.993488888000 -0.018334979751 0.018630842017 0.530821344881 0.849822725623 0.518857901842 0.861214409868 -0.025145246600 0.024067047210
3.993911111000 -0.017441689028 0.019382034201 0.532006692575 0.851177608265 0.517893483386 0.860650233356 -0.023705845122 0.023767052836
3.994333333000 -0.017348502791 0.017603173008 0.535394804751 0.849702210292 0.521597024122 0.862059372044 -0.024224673508 0.020772734966
3.994755555000 -0.017731078963 0.018280350820 0.533967152959 0.846166734242 0.520948542321 0.858426849223 -0.024566215500 0.023203573854
3.995177777000 -0.016675095846 0.017852174719 0.536957653868 0.846772698664 0.522962156078 0.860983066458 -0.024038906969 0.022223234128
3.995600000000 -0.017159860597 0.017683877909 0.538242319759 0.845390544677 0.525458168286 0.858125970169 -0.024937647060 0.022180484830
3.996022222000 -0.017751382874 0.017010556965 0.536814592630 0.843262763636 0.526907697710 0.854793855866 -0.024613187090 0.022956803200
3.996444444000 -0.017004967651 0.017861696627 0.539926146408 0.844849123733 0.526839609631 0.857172295237 -0.024315529487 0.022575655789
3.996866666000 -0.016884987840 0.018042761816 0.541552111888 0.841899101319 0.526844896740 0.855116344504 -0.025466027110 0.022304052198
3.997288888000 -0.016938711238 0.017752376001 0.541911879810 0.841413171518 0.528821471928 0.854142575403 -0.024480218238 0.022882028330
3.997711111000 -0.016641506994 0.016600313938 0.545214625704 0.841026510569 0.533929470266 0.851931484561 -0.025003800003 0.021508458229
3.998133333000 -0.016464029101 0.016748871000 0.544683914944 0.838273153779 0.532879897511 0.849968788517 -0.024843625597 0.022295946240
3.998555555000 -0.016902029942 0.015813782476 0.546956522749 0.836882866578 0.538098207764 0.849595170962 -0.026036938819 0.022085393688
3.998977777000 -0.016981478865 0.017003430681 0.547111490197 0.837304326040 0.534425669183 0.847453247761 -0.024553053908 0.022440511921
3.999400000000 -0.016750785850 0.015639536866 0.553974296389 0.835876371116 0.541615481643 0.843574568293 -0.026685162350 0.021784421152
3.999822222000 -0.016746003219 0.015733691112 0.551136088421 0.835247263694 0.539439870633 0.846977284619 -0.024780948837 0.021540809092
4.000244444000 -0.016143579841 0.015401949025 0.551809126776 0.834406151997 0.542709472585 0.845121110306 -0.025133721474 0.021856800453
4.000666666000 -0.016539325347 0.016115287376 0.553946763575 0.832670907839 0.541601767705 0.845018821324 -0.025365321618 0.021305908451
4.001088888000 -0.015778823782 0.015899253212 0.554693199006 0.832285200357 0.543682394105 0.844827512399 -0.024732140411 0.021919480463
4.001511111000 -0.017031218625 0.015689302111 0.554604890617 0.830720643529 0.545051943797 0.843957172621 -0.025845422063 0.021996295336
4.001933333000 -0.016171775081 0.016319381781 0.556680165473 0.830332262172 0.545479305997 0.843307796721 -0.025718580287 0.021747985953
4.002355555000 -0.016254151470 0.015455614624 0.557619703404 0.827860665310 0.546266583613 0.841382669790 -0.025274618720 0.021923573546
4.002777777000 -0.017090106244 0.014826989970 0.560967580638 0.829461803396 0.550777205601 0.839419966965 -0.025750095531 0.020220188976
4.003200000000 -0.016039355101 0.014921436928 0.562577803987 0.826693221242 0.551873656828 0.838395736504 -0.026226677112 0.021198281661
4.003622222000 -0.015835034350 0.015255880928 0.562416701237 0.826138256613 0.553173438878 0.838656734703 -0.025963400893 0.021965410733
4.004044444000 -0.015689576743 0.014313980750 0.562887592724 0.824719446720 0.554940754341 0.837113591361 -0.025379620883 0.021816025854
4.004466666000 -0.016095707968 0.016019060516 0.563817497240 0.823325354463 0.553080599498 0.837013355996 -0.026131665589 0.022146081096
4.004888888000 -0.017175673222 0.014628784000 0.565201781195 0.823039886385 0.556018238468 0.834939956219 -0.026123950528 0.020812569265
4.005311111000 -0.016523130763 0.014971186393 0.566232252539 0.820133368307 0.556023227566 0.834202827208 -0.025911079722 0.021798352432
4.005733333000 -0.016068930965 0.013738193128 0.567270752233 0.820089023766 0.560619659319 0.833077608841 -0.025850898235 0.021422850843
4.006155555000 -0.015974677185 0.014644114315 0.567723978107 0.819018585675 0.560530147551 0.833410231216 -0.026263006374 0.022220064280
4.006577777000 -0.016603694177 0.014030602852 0.571106179701 0.817114242155 0.561127458688 0.831063657332 -0.026406980988 0.021252418170
4.007000000000 -0.014493295837 0.013136445698 0.577117337370 0.818467973074 0.569316681717 0.826408444815 -0.026770313146 0.022594389626
4.007422222000 -0.016047309896 0.013063017671 0.572593365879 0.815353048516 0.565946016493 0.828024478799 -0.026139131162 0.022157944675
4.007844444000 -0.017526224319 0.013280295039 0.573241411963 0.814712089935 0.564828123416 0.826566304540 -0.026051666818 0.021173094930
4.008266666000 -0.016837677541 0.013326081289 0.576222946226 0.811404128847 0.565980351464 0.824485894466 -0.026678853107 0.022198351291
4.008688888000 -0.017430457022 0.012978553712 0.575626294993 0.811482718411 0.568478018396 0.821952728681 -0.026441537386 0.022100098379
4.009111111000 -0.017876190203 0.013030755136 0.576950318628 0.812012942016 0.570500655040 0.821056876375 -0.026831724403 0.021606066727
4.009533333000 -0.016325168315 0.013362854378 0.578259429718 0.807626035830 0.571032475627 0.823436865287 -0.026675834838 0.022432380363
4.009955555000 -0.017343140957 0.013250698921 0.579168943154 0.806325434824 0.573155424765 0.819703857065 -0.027913145622 0.022751138274
4.010377777000 -0.017733133415 0.012944995569 0.581340372337 0.807475329899 0.573843830253 0.818767622093 -0.027288272679 0.022335224526
