# GHZ S RI R 50.000000000000
3.950000000000 0.218587947589 -0.326894718264 0.760420219505 0.471030982604 0.751731373029 0.469570570594 0.174381294112 -0.333354125482
3.950422222000 0.215739581893 -0.327216741690 0.760575893646 0.470206341073 0.749667314914 0.468394717390 0.172094078570 -0.334937189778
3.950844444000 0.215124590968 -0.328484802578 0.759754168047 0.469341149014 0.749849259222 0.468553991639 0.169865450224 -0.333745547648
3.951266666000 0.213692379745 -0.329025924667 0.761151866609 0.467058793679 0.749825433164 0.467689529496 0.167808761702 -0.334492409533
3.951688888000 0.212441445298 -0.329233617670 0.761824420316 0.465209988546 0.749845973224 0.466884122157 0.167522800324 -0.334189052516
3.952111111000 0.210998956235 -0.330422762888 0.763323083709 0.461659207233 0.751063141725 0.464678876247 0.166888145637 -0.335174013807
3.952533333000 0.210462144097 -0.329098860325 0.762231523318 0.464412018983 0.749912302033 0.465496366856 0.166562466761 -0.334444232676
3.952955555000 0.210284543902 -0.329522336751 0.763760934356 0.462919235865 0.751331774539 0.464871801871 0.165595208714 -0.334944224380
3.953377777000 0.209947692286 -0.330301084240 0.764791256209 0.461321863669 0.752021548283 0.462528604886 0.165031658310 -0.335450866533
3.953800000000 0.209971799967 -0.329497955735 0.763162049428 0.459020579554 0.753659423806 0.462589151919 0.164729069909 -0.335447416344
3.954222222000 0.208825967230 -0.329635900223 0.764631853528 0.461123403998 0.754297659118 0.461856924595 0.164549467714 -0.334722957035
3.954644444000 0.209265908433 -0.331435133595 0.770825647689 0.457904916351 0.754848034383 0.460843662486 0.164579912874 -0.335762471406
3.955066666000 0.208838479139 -0.330963546988 0.770084677616 0.455808723199 0.755058680515 0.461233448095 0.163275433187 -0.336004516159
3.955488888000 0.209602176765 -0.331133573559 0.771360630639 0.459358212249 0.757389474498 0.459467890814 0.164294518108 -0.335357183581
3.955911111000 0.207717362498 -0.330919298018 0.772155172726 0.457701413872 0.757572806337 0.458360874282 0.163946501470 -0.335371785331
3.956333333000 0.206849191329 -0.331249116599 0.770677393738 0.454338254835 0.759486526428 0.456910084901 0.163296344651 -0.335980437985
3.956755555000 0.206547314289 -0.329941814112 0.771794059309 0.453504074680 0.758331910156 0.457187126359 0.162645129121 -0.336631179042
3.957177777000 0.206850141930 -0.331972027533 0.773476114487 0.452663738403 0.760835624080 0.455203988304 0.162579137705 -0.336611415103
3.957600000000 0.207067135527 -0.331663135354 0.776038915452 0.451299078700 0.760711353887 0.455087998699 0.161217333416 -0.337449959963
3.958022222000 0.206595126852 -0.333045899323 0.776900273667 0.450869645697 0.761425918394 0.453839490617 0.161387815034 -0.337477476619
3.958444444000 0.207537406361 -0.332554600807 0.778062550987 0.451109735915 0.762195519503 0.453202883716 0.160978727870 -0.338269656390
3.958866666000 0.205768929775 -0.333463988942 0.778734534568 0.452287765488 0.764048381747 0.453102550854 0.161595780288 -0.336751744062
3.959288888000 0.205748232655 -0.332326915972 0.780004378117 0.449170588469 0.764310608687 0.451824772129 0.160994241886 -0.337741888102
3.959711111000 0.207270361973 -0.332752917094 0.781548802179 0.449648237055 0.766076085221 0.451443402164 0.160560696808 -0.338211718706
3.960133333000 0.204576039167 -0.332870442064 0.780903677939 0.446120000984 0.766175867255 0.449584353308 0.160234497400 -0.338279407155
3.960555555000 0.205331391434 -0.333449513622 0.783680264943 0.445043768604 0.766924333888 0.448773322224 0.159574087413 -0.339206247784
3.960977777000 0.204970075688 -0.332515120190 0.783763715850 0.444473964696 0.767632279956 0.447278643467 0.158642999464 -0.339945825660
3.961400000000 0.203877988494 -0.334307524952 0.785557913766 0.440483030673 0.768829263267 0.446700246300 0.157951664473 -0.338842068063
3.961822222000 0.203929591225 -0.333727667843 0.786082726796 0.441138051121 0.768857590568 0.446442845248 0.157871401442 -0.338836577171
3.962244444000 0.203364523010 -0.334230691959 0.787385166631 0.440918098728 0.770802890312 0.445006559749 0.158489634739 -0.340610988847
3.962666666000 0.202441192448 -0.333686992080 0.787146218323 0.438734805183 0.770367480180 0.444199325726 0.158108004552 -0.339417383396
3.963088888000 0.203654406411 -0.334313907701 0.788255927582 0.438142636080 0.772125370911 0.443112113481 0.156706486929 -0.340341538476
3.963511111000 0.202220220079 -0.335101410549 0.789878069235 0.436468486282 0.773414674947 0.441489722974 0.155874026300 -0.340592342585
3.963933333000 0.202303105181 -0.334053320917 0.789547371370 0.435935493906 0.773994083838 0.439816357853 0.155893919840 -0.340862147400
3.964355555000 0.202920611732 -0.335558303834 0.791998944034 0.435241536344 0.775150289252 0.440554734893 0.155243409400 -0.341114958200
3.964777777000 0.201322530423 -0.335894917675 0.791120997585 0.432257338492 0.776540151356 0.439777043512 0.155724686361 -0.341322775645
3.965200000000 0.202316303638 -0.336337298498 0.792947168698 0.432635012933 0.777085016404 0.438492492309 0.153813176318 -0.341249632352
3.965622222000 0.200844576527 -0.335312482551 0.794328315411 0.430832449332 0.777275863119 0.437517063019 0.154007502716 -0.341954630802
3.966044444000 0.201631155006 -0.335535299670 0.795009372807 0.429317621147 0.777993828009 0.437253817243 0.153841106214 -0.342131126647
3.966466666000 0.201883104867 -0.336178707671 0.795311271949 0.428869673972 0.778735111311 0.436175153696 0.152208665375 -0.343063178665
3.966888888000 0.200520304672 -0.337923301315 0.797767764099 0.428022683501 0.780614086423 0.434228766950 0.152570256499 -0.342262169761
3.967311111000 0.200542183731 -0.336656822871 0.798653136157 0.425842314886 0.780102958102 0.433039394977 0.151849554517 -0.343067140443
3.967733333000 0.200117037331 -0.337740623900 0.799138881873 0.425633845170 0.782201544621 0.432005874026 0.151311148734 -0.342942935765
3.968155555000 0.199028829372 -0.338138540923 0.800007951312 0.424486662440 0.782724489921 0.430163562680 0.150605141130 -0.343620200579
3.968577777000 0.199315353166 -0.337935070816 0.800844211894 0.423154689576 0.782662722876 0.430733564909 0.150224761546 -0.344016592792
3.969000000000 0.197380893168 -0.338512502243 0.802579090553 0.420215763606 0.785137074621 0.427952517540 0.149344022508 -0.343719433587
3.969422222000 0.198036908524 -0.338300914880 0.802949128426 0.420289660999 0.784643644955 0.427318584721 0.149045899124 -0.344691026343
3.969844444000 0.199058386162 -0.339113171613 0.803671758526 0.418781142088 0.785974417862 0.428574979182 0.149522335189 -0.345567638956
3.970266666000 0.197619817195 -0.339273323623 0.804633839712 0.417839970656 0.787490261763 0.424800058528 0.147796914848 -0.345826392150
3.970688888000 0.197646459955 -0.340473458500 0.805813625977 0.417033311907 0.787793363552 0.424166334983 0.147709540974 -0.345214214508
3.971111111000 0.198210369352 -0.340838165392 0.806952903125 0.415746520346 0.788904815142 0.424302458691 0.146563087845 -0.346281942312
3.971533333000 0.196679578648 -0.340167907198 0.807606192771 0.414079600838 0.787969914254 0.421374170794 0.145931763869 -0.346258188062
3.971955555000 0.196448546211 -0.340982302328 0.807358757985 0.412548158173 0.790978002686 0.422129384787 0.145645646571 -0.346706265243
3.972377777000 0.196167051637 -0.340614422900 0.808475801954 0.411665217436 0.790991804887 0.419746324182 0.146036627634 -0.347275511730
3.972800000000 0.196349485263 -0.341899973837 0.809712700309 0.410662694024 0.791719168817 0.420678708747 0.144963613972 -0.347407791173
3.973222222000 0.195870681972 -0.341605228641 0.810527157073 0.409283225009 0.792312065133 0.418361028917 0.144627833530 -0.348040399044
3.973644444000 0.194965142852 -0.342283595021 0.811444977816 0.407568824129 0.794256965378 0.417385342114 0.143920833421 -0.347890171132
3.974066666000 0.193221965579 -0.341645961710 0.812140577791 0.406226544282 0.793884855359 0.414260190849 0.143605319669 -0.347959738750
3.974488888000 0.195334798733 -0.342871586315 0.813460642263 0.405047444119 0.795393801829 0.416088204001 0.143011057010 -0.348814152290
3.974911111000 0.194586934857 -0.344367918336 0.814518388126 0.403872423650 0.796431568820 0.414034148140 0.141869985005 -0.348600393371
3.975333333000 0.193401557748 -0.343279215663 0.815276896330 0.402952222385 0.796394864751 0.412105262200 0.141076692744 -0.348747318969
3.975755555000 0.193240257360 -0.345262835162 0.815634051121 0.401594811168 0.799048476211 0.411092803522 0.140329525014 -0.349382562563
3.976177777000 0.193738040781 -0.344293321613 0.816208143311 0.400150805903 0.797993207013 0.411026376861 0.140771325517 -0.349504975569
3.976600000000 0.193382035742 -0.344260818203 0.816802035427 0.399846636453 0.798419526619 0.408049866658 0.139369413490 -0.349881295628
3.977022222000 0.192510798428 -0.346152175838 0.818017568202 0.397807690417 0.800167541576 0.408299097899 0.138064457401 -0.350708812109
3.977444444000 0.192041525891 -0.344352568750 0.818342167210 0.396229104607 0.799151164797 0.407646790437 0.138861910097 -0.350803208036
3.977866666000 0.192881842264 -0.346498413671 0.819595180959 0.394641932987 0.802471729797 0.407797242515 0.137453008674 -0.351366052532
3.978288888000 0.191055967415 -0.346318829354 0.819973772310 0.393912922343 0.802110340807 0.404758353060 0.137274640009 -0.351174717023
3.978711111000 0.191029948570 -0.346307555220 0.820916846695 0.392245968635 0.802276272859 0.403839061406 0.136595379197 -0.351202531914
3.979133333000 0.190706762528 -0.348377016754 0.821698350638 0.390813135551 0.804291954333 0.402912925798 0.135845646958 -0.351995463074
3.979555555000 0.190560376099 -0.348672542406 0.822283495931 0.389512139728 0.806497210290 0.402550292707 0.135239177175 -0.352390898046
3.979977777000 0.188795261117 -0.348408862928 0.823154579163 0.388763756165 0.804786347982 0.398827484071 0.134042500581 -0.352097361886
3.980400000000 0.190058725116 -0.348463010127 0.823950523052 0.387172050937 0.806067667555 0.400764374038 0.134372748463 -0.352878992153
3.980822222000 0.188867427136 -0.349706537677 0.824627552313 0.386043080780 0.807842319513 0.398235439609 0.132609099327 -0.353370033439
3.981244444000 0.188948422128 -0.350328629033 0.825641708401 0.384442485486 0.808690470165 0.398375636340 0.132819288674 -0.352955538801
3.981666666000 0.186719538655 -0.350324002497 0.825022528138 0.382431925858 0.811030918190 0.394145820826 0.131977265116 -0.352375504162
3.982088888000 0.186692311961 -0.349646419022 0.826280644046 0.381763545997 0.808423782492 0.394050739063 0.130884136751 -0.352610005915
3.982511111000 0.188245616882 -0.351521589912 0.827589893341 0.380312646445 0.811758057415 0.394645925135 0.130610577781 -0.355076680873
3.982933333000 0.186460157519 -0.352243534775 0.828697478382 0.378917080373 0.811919033515 0.392706426253 0.129502261352 -0.354889757130
3.983355555000 0.185473851407 -0.351221191738 0.828774049610 0.377357562247 0.811767643833 0.390583431007 0.128947884447 -0.353910118528
3.983777777000 0.184915513453 -0.352622665936 0.829630143889 0.375495117332 0.813931738826 0.390192779355 0.128024251775 -0.354241952336
3.984200000000 0.183357670695 -0.352231720219 0.829661512727 0.374639038166 0.814017878432 0.385734013383 0.125956604807 -0.355532781131
3.984622222000 0.184290442657 -0.352760843912 0.830686651741 0.374048883759 0.813691958521 0.386357243203 0.126896276363 -0.355067583153
3.985044444000 0.183786965974 -0.353059006035 0.831557545801 0.372325269317 0.814686989345 0.386217007824 0.126564987378 -0.354064592159
3.985466666000 0.184351022481 -0.353623935961 0.832235988661 0.371301653095 0.814935800398 0.385605114296 0.125983514883 -0.355268996776
3.985888888000 0.181609872407 -0.354690796868 0.832216707804 0.369560244692 0.816621786500 0.381503478506 0.123761187726 -0.354682909426
3.986311111000 0.183016307325 -0.354007116137 0.833744653109 0.368810970734 0.816064795876 0.383403917013 0.124667667989 -0.355458972477
3.986733333000 0.180701640266 -0.356093645065 0.833864917612 0.366461178852 0.819815703203 0.379935470106 0.122868253370 -0.355473099215
3.987155555000 0.181433793477 -0.354405776383 0.834556289064 0.365356682178 0.817245905076 0.380665960077 0.122949876253 -0.355294078278
3.987577777000 0.182553493742 -0.356672108508 0.836034785790 0.364519169169 0.820552053685 0.380226914871 0.122423763284 -0.355847481648
3.988000000000 0.180694559322 -0.357273003342 0.837052365320 0.363225106561 0.821373323262 0.378662037575 0.120367585721 -0.356809928276
3.988422222000 0.181179779332 -0.357358688525 0.837079556940 0.362491984302 0.820779263480 0.378045326757 0.121454432838 -0.356832737664
3.988844444000 0.179510939479 -0.356970963384 0.837176484102 0.360763576576 0.821752648099 0.375876840177 0.120643385112 -0.356790777128
3.989266666000 0.179511210498 -0.359054698787 0.838506623166 0.357999212994 0.825010155654 0.374688187630 0.117349531181 -0.359047120435
3.989688888000 0.178475965641 -0.359193869262 0.838839131382 0.356487401071 0.825059453785 0.373421981284 0.117943728884 -0.357282467847
3.990111111000 0.179043155437 -0.359009211066 0.839383572318 0.356004234905 0.823836135235 0.372773997605 0.117979043822 -0.357243598249
3.990533333000 0.178102108664 -0.359332548019 0.840419589323 0.354910958185 0.824968007982 0.371848180195 0.117632125068 -0.358266460126
3.990955555000 0.176689924016 -0.360576821438 0.841401077238 0.353039513958 0.827044869333 0.369835807480 0.115717362264 -0.357627709969
3.991377777000 0.176532675626 -0.360542596256 0.841957444782 0.351671198846 0.826949468146 0.368674630122 0.114461812576 -0.358293364029
3.991800000000 0.175834596497 -0.360872967920 0.842574321033 0.350119840347 0.826731335967 0.366784451180 0.113886425328 -0.357631293437
3.992222222000 0.176039290965 -0.359980531341 0.842833834418 0.349758883521 0.826282792116 0.366720096388 0.114649764242 -0.358151968788
3.992644444000 0.174756784290 -0.360193939941 0.843214010538 0.347095033880 0.827736735337 0.364457125123 0.113302820857 -0.357780251428
3.993066666000 0.174590322548 -0.362236328054 0.844128052985 0.346047653379 0.829670493205 0.363972146762 0.112091993337 -0.358474395542
3.993488888000 0.172516277980 -0.362116508639 0.844085367976 0.344296249370 0.830619983959 0.361259038372 0.111175976038 -0.357901622608
3.993911111000 0.173912664334 -0.361911134257 0.845351985846 0.344583659926 0.829634147732 0.362198441062 0.112600491462 -0.358469012848
3.994333333000 0.174059393011 -0.364930924113 0.847583329662 0.342261748798 0.833884925099 0.364095459861 0.110992452767 -0.360804316027
3.994755555000 0.171892025923 -0.362459507617 0.845508851306 0.341012112562 0.831098686583 0.359085694290 0.110252124258 -0.357938611344
3.995177777000 0.172302086168 -0.364564113439 0.847761670316 0.339854168819 0.833667425511 0.359626920738 0.109641585595 -0.360314796756
3.995600000000 0.171163444737 -0.364481328417 0.848130182351 0.338695398378 0.834066973700 0.357119739512 0.108115706542 -0.359472203851
3.996022222000 0.168822575630 -0.363359385266 0.846750377767 0.337336423231 0.833369221227 0.353674560793 0.108170165576 -0.358764237923
3.996444444000 0.170606548355 -0.364635323115 0.849282604576 0.336211448589 0.835223058106 0.354878432216 0.107547428010 -0.360911541959
3.996866666000 0.169009542478 -0.364666233889 0.849098213309 0.335280494010 0.835004562172 0.351901734486 0.106085581716 -0.359781636101
3.997288888000 0.169322535757 -0.364582595901 0.850068921523 0.333284685122 0.835002501797 0.351775431505 0.106366380446 -0.359768860023
3.997711111000 0.167965265423 -0.366466310031 0.851838961166 0.332162631546 0.838222293497 0.349759769384 0.104559560332 -0.361305861361
3.998133333000 0.167535229977 -0.365420991141 0.850763370292 0.331217476506 0.836452630489 0.348690305450 0.104981936825 -0.359424733753
3.998555555000 0.165542371219 -0.367203421787 0.852434407109 0.328666572634 0.840080081621 0.345802646407 0.102549240788 -0.360265372383
3.998977777000 0.166441789110 -0.365489216222 0.852226550163 0.328462200435 0.836856501718 0.346854162495 0.104336302713 -0.359726414907
3.999400000000 0.162818514700 -0.368070304067 0.856570095404 0.325469330651 0.840681807599 0.339206764299 0.099854394276 -0.361420921597
3.999822222000 0.164783804287 -0.367582294156 0.853384044946 0.325498070692 0.840248644028 0.344034990245 0.101998740598 -0.360865689922
4.000244444000 0.163421292475 -0.368588711901 0.854294875383 0.323759351901 0.840923700603 0.340102868067 0.100112606204 -0.360745205509
4.000666666000 0.163519765769 -0.368004417095 0.855169140029 0.322643970443 0.840392527910 0.341564991290 0.100392790548 -0.360306581691
4.001088888000 0.163138105921 -0.368995071783 0.854412032515 0.321856382352 0.842544564989 0.340525821373 0.100699561728 -0.360497794619
4.001511111000 0.162763885163 -0.369207927361 0.855332929536 0.320555482742 0.843231327313 0.338776642157 0.098874899672 -0.360253301724
4.001933333000 0.162839400627 -0.368485916979 0.856184538689 0.319042963881 0.842995278967 0.338730443247 0.098958222812 -0.361056248145
4.002355555000 0.161423376177 -0.369437466253 0.855887957798 0.317567197665 0.843177022340 0.336699242735 0.098463921261 -0.360183692994
4.002777777000 0.159582272509 -0.370165001043 0.858931501549 0.316765870066 0.845580811927 0.334009643963 0.096444702937 -0.362449442041
4.003200000000 0.159837590822 -0.370084077128 0.859022505777 0.313785321149 0.845464627292 0.333691077619 0.095774348223 -0.361620799180
4.003622222000 0.159444984621 -0.370579285884 0.858358743526 0.313694509179 0.845502054495 0.332182388148 0.095790750603 -0.360519807355
4.004044444000 0.158267042782 -0.371694909593 0.858498874405 0.313680667041 0.848982841977 0.330362664091 0.096094974185 -0.362274236557
4.004466666000 0.158172130808 -0.370684620841 0.859298057257 0.309911201788 0.846466095724 0.329335287073 0.094181129097 -0.360810771106
4.004888888000 0.157007737780 -0.371269835211 0.860742757619 0.310134498928 0.848406842738 0.327794931076 0.093748428979 -0.362278267230
4.005311111000 0.156833095244 -0.371375171297 0.859388670162 0.307989186225 0.847449373719 0.327610471851 0.093737534311 -0.360657981412
4.005733333000 0.155057682211 -0.372484402081 0.860979783920 0.307490888234 0.851030855329 0.325211038661 0.093555613944 -0.362439161311
4.006155555000 0.155840449656 -0.372085602564 0.861207505271 0.305249477227 0.849684380469 0.324101792292 0.091825010645 -0.361716708619
4.006577777000 0.153914910452 -0.372180639817 0.862034019252 0.303807743065 0.850824191164 0.322020115944 0.090857846776 -0.362621788200
4.007000000000 0.152740647207 -0.371474031128 0.864809324071 0.298343656157 0.846622653997 0.321385223726 0.089124751448 -0.360393828830
4.007422222000 0.152678211864 -0.373683669287 0.863031581116 0.301726800920 0.852639152834 0.319590784626 0.090572980969 -0.362018217024
4.007844444000 0.152297578366 -0.373749141415 0.862842773047 0.301310594766 0.854671100949 0.319293504760 0.090302405519 -0.363044492842
4.008266666000 0.150475992924 -0.373721415427 0.862653204402 0.296329874955 0.853539518623 0.315937222695 0.088000318313 -0.361715719948
4.008688888000 0.149807741294 -0.373320454673 0.861279894538 0.297987085939 0.854692040073 0.314956914119 0.088813451727 -0.361611713246
4.009111111000 0.148637159664 -0.373586105953 0.864441762944 0.296506960161 0.852651479386 0.313083926487 0.087621639407 -0.361003725495
4.009533333000 0.149010093689 -0.373966545480 0.862266446200 0.292033129049 0.855402483619 0.313718496098 0.086974826692 -0.361637449949
4.009955555000 0.147131074635 -0.374192697691 0.863973291275 0.291411338716 0.856358903518 0.310255301055 0.085992314124 -0.361312260848
4.010377777000 0.147377722723 -0.374266451411 0.866093453585 0.291370361008 0.855235720106 0.310865398712 0.086080918074 -0.362072957354
