# GHZ S RI R 50.000000000000
3.950000000000 -0.036138120521 0.003796362980 0.366757997399 0.913734278402 0.362343834006 0.909192469102 -0.039783450949 0.026735061863
3.950422222000 -0.036045756675 0.002593770271 0.371200131524 0.911691881337 0.364000951404 0.907839197874 -0.040445992274 0.026651070535
3.950844444000 -0.035935091487 0.001874240777 0.371353281189 0.908343985776 0.362104930214 0.907927695038 -0.041027221019 0.026139099400
3.951266666000 -0.035853111541 0.001548399583 0.375591239452 0.908479087456 0.364200722923 0.905597176928 -0.040677316482 0.026875292773
3.951688888000 -0.035444364408 0.002225076916 0.377239799987 0.906450249139 0.366034349642 0.905305450849 -0.039798073137 0.027414911570
3.952111111000 -0.035856883160 0.002532393999 0.377103160128 0.906171869198 0.368750746472 0.905540206317 -0.040282373756 0.028393854208
3.952533333000 -0.035802660462 0.003009331951 0.381327920340 0.906345011632 0.368262569871 0.904970077805 -0.039019673558 0.028583678944
3.952955555000 -0.036242956439 0.003335222705 0.382004415826 0.907063360724 0.369375792099 0.906731294976 -0.040373422789 0.029321356962
3.953377777000 -0.036118529918 0.002888351908 0.384739221903 0.904595292994 0.369689752548 0.907125224263 -0.041042718751 0.028628763281
3.953800000000 -0.034636061113 0.003106971346 0.385615486770 0.902130057000 0.371087648201 0.904489196437 -0.038550137226 0.027614516310
3.954222222000 -0.037162577388 0.002967414815 0.384698855427 0.905210364022 0.369757394501 0.904953239741 -0.040521272716 0.028333004241
3.954644444000 -0.036386857264 0.004418616880 0.389302974302 0.904959429172 0.372601736531 0.905308174273 -0.039604768092 0.029615447760
3.955066666000 -0.036291210495 0.004858670221 0.389767565194 0.905379848959 0.372973259281 0.905729605938 -0.039526141607 0.029455582009
3.955488888000 -0.036057234968 0.005204300897 0.390931832892 0.905471657671 0.377563410987 0.905036773178 -0.038515792454 0.030351131977
3.955911111000 -0.037536627228 0.005683936036 0.393141088131 0.906672616013 0.376015603364 0.905623543837 -0.039538149161 0.031136541371
3.956333333000 -0.037542783390 0.005378338480 0.390190063729 0.907380112977 0.377154186467 0.903981174505 -0.039255797896 0.030826869556
3.956755555000 -0.037029274311 0.006052949306 0.393823651376 0.905220627211 0.378954716667 0.904963530993 -0.039191801564 0.031115647216
3.957177777000 -0.037117916963 0.006619567027 0.395439918699 0.906553778181 0.380201412880 0.906895947856 -0.039667269900 0.031370215507
3.957600000000 -0.037041932781 0.006976235806 0.396639388263 0.905789749628 0.381222453932 0.903654304086 -0.038863135018 0.031145587647
3.958022222000 -0.036697241351 0.006319310545 0.396385270408 0.903489350598 0.384408473498 0.904501370523 -0.038476166321 0.031023785411
3.958444444000 -0.035986547379 0.007034260474 0.400247369424 0.903460508574 0.384395465730 0.905472322032 -0.038847725718 0.030552888083
3.958866666000 -0.036204782167 0.006550209728 0.403454407633 0.903446627775 0.387796055465 0.904640853151 -0.037816819291 0.031595679853
3.959288888000 -0.036761559483 0.007262461885 0.403945908957 0.901690716596 0.387189122197 0.903572998076 -0.037468267671 0.031705327042
3.959711111000 -0.036101285185 0.008260674814 0.404321533990 0.902920705362 0.389214545173 0.904316055822 -0.037214097074 0.031093746318
3.960133333000 -0.036713117315 0.008327696789 0.406256271967 0.902828453239 0.390227338272 0.904405681612 -0.037477365313 0.032687233598
3.960555555000 -0.035346303280 0.009277206906 0.410773463469 0.902296081820 0.392330595330 0.904426981089 -0.036304622947 0.031348977916
3.960977777000 -0.036145923476 0.009412123215 0.409973331642 0.903149042227 0.392703334312 0.902489766172 -0.036408618986 0.031644058236
3.961400000000 -0.036311406574 0.008823733881 0.409180812259 0.901907769326 0.392619041899 0.901896984702 -0.037627696895 0.031654617880
3.961822222000 -0.036532747060 0.009682417079 0.412325758588 0.901546018119 0.394759260306 0.902976991122 -0.036914417099 0.032715204422
3.962244444000 -0.036182278118 0.010369124942 0.413912768690 0.903180088211 0.397458461175 0.902928931396 -0.035714177178 0.032729307301
3.962666666000 -0.036057995206 0.011310726149 0.416705964789 0.902126034646 0.397683603456 0.902586399417 -0.035849454246 0.033416814931
3.963088888000 -0.035156854360 0.011321212628 0.418001802889 0.902357683909 0.400756826208 0.903043323420 -0.035545176003 0.033018019401
3.963511111000 -0.035182454909 0.010690518103 0.418959248270 0.900006178048 0.403501607038 0.901145499188 -0.035649030600 0.033033003514
3.963933333000 -0.035693346030 0.011340222124 0.420855446276 0.898949567378 0.404909780042 0.901405786149 -0.034932506275 0.033438542796
3.964355555000 -0.035237228181 0.011458800898 0.422299805359 0.899739233917 0.404184628089 0.902402481353 -0.035538820993 0.032901492630
3.964777777000 -0.034300885927 0.011463193530 0.423825879494 0.897878611965 0.407524881060 0.901963583702 -0.034181098859 0.032397377097
3.965200000000 -0.034544063443 0.012227876020 0.425579485833 0.900434569276 0.408196785866 0.901855415830 -0.034774924504 0.032715998782
3.965622222000 -0.034684655976 0.012742098128 0.427036492378 0.899503083779 0.408800707806 0.900931079016 -0.034924767331 0.033443207500
3.966044444000 -0.034373876893 0.013043400307 0.428138265528 0.898230047496 0.409829109347 0.900439050866 -0.033616895416 0.033416618064
3.966466666000 -0.032816081001 0.013114849821 0.432888796907 0.898927364673 0.412030426709 0.901175970296 -0.034100626501 0.032319142211
3.966888888000 -0.034224071110 0.012950398501 0.432157056830 0.897691580505 0.414478415977 0.900161888043 -0.033942350604 0.033619169367
3.967311111000 -0.034096916315 0.013806364865 0.433443198722 0.897479578266 0.414800068504 0.899195919655 -0.033191144012 0.033868392666
3.967733333000 -0.034019675166 0.013923633855 0.435218969090 0.897322817198 0.417528068604 0.899362150725 -0.033248650332 0.033696624893
3.968155555000 -0.033716522145 0.013296156100 0.437204565790 0.895154266276 0.419372391027 0.898455513362 -0.033754581267 0.032936394132
3.968577777000 -0.033369353754 0.014280393210 0.438630352410 0.896895394751 0.419571474996 0.898684396236 -0.032898024513 0.033719058293
3.969000000000 -0.032977322960 0.012251289809 0.441664051636 0.889533349635 0.425485101651 0.895558389848 -0.032882025108 0.033697604679
3.969422222000 -0.033351097137 0.014764442311 0.441836220853 0.894668781726 0.423868995385 0.897048254377 -0.032199283757 0.033764188158
3.969844444000 -0.031602558482 0.014969647058 0.446394891233 0.893592442567 0.423060346070 0.899929292822 -0.031689368808 0.032596413103
3.970266666000 -0.032530280808 0.015112280222 0.445791327065 0.893849849794 0.427486419702 0.896722638010 -0.031361256412 0.032649081708
3.970688888000 -0.031894353072 0.015396990966 0.446748431685 0.894124650524 0.428911435114 0.896430182731 -0.031165355483 0.033319410310
3.971111111000 -0.031371248270 0.015308722817 0.448228892002 0.893009186266 0.429557916588 0.897735706851 -0.031572322126 0.032248499696
3.971533333000 -0.031438423156 0.015951677223 0.450470578038 0.892353351264 0.430862869447 0.894666877981 -0.030972335931 0.032712308436
3.971955555000 -0.030902103110 0.015926754939 0.452776264677 0.892115411832 0.433386427562 0.896731837739 -0.030864441724 0.032499780790
3.972377777000 -0.030913485701 0.016443381421 0.453590742550 0.891289227839 0.434454951621 0.894552214727 -0.029772275404 0.033066008045
3.972800000000 -0.030374551633 0.015701567686 0.455944038864 0.890303749998 0.435214260312 0.895358626709 -0.030281161128 0.032033024796
3.973222222000 -0.029829464174 0.016656411729 0.457980397805 0.889883422994 0.437322944679 0.894348343809 -0.029212917924 0.032121369186
3.973644444000 -0.030110725625 0.016629629179 0.458641357920 0.889610287555 0.439981193985 0.894616273043 -0.030091496695 0.033134011574
3.974066666000 -0.030091239822 0.016839238423 0.462987050139 0.888196834136 0.441547110673 0.891315381751 -0.029348942934 0.032869026666
3.974488888000 -0.028982120625 0.017217428682 0.462940800559 0.888285737200 0.442393997436 0.894273589182 -0.028942169753 0.032364540598
3.974911111000 -0.028889985898 0.017161671633 0.463676877047 0.888277204844 0.444740004512 0.893796701725 -0.029078970038 0.032994240675
3.975333333000 -0.029527312241 0.017313224973 0.465645264781 0.886609681150 0.445131002831 0.891228190506 -0.029504961755 0.032313886425
3.975755555000 -0.028434068327 0.016522606113 0.467392308185 0.885553291073 0.448954805820 0.891740258869 -0.029392375742 0.031994067486
3.976177777000 -0.027945383826 0.017547536556 0.468934712789 0.885356641868 0.448119985433 0.891111662881 -0.027960259366 0.032039160744
3.976600000000 -0.027806738202 0.018204821491 0.470915961044 0.884759164005 0.450955653501 0.889262929316 -0.027364345103 0.031108948166
3.977022222000 -0.027017725319 0.017446015507 0.472989832073 0.884608858404 0.452691589968 0.891039503194 -0.028215678575 0.031009711933
3.977444444000 -0.026963126431 0.018082652307 0.474522992084 0.883386484208 0.452488028639 0.889287071767 -0.027217510087 0.031213546192
3.977866666000 -0.026443674147 0.017443434728 0.476695113505 0.882261348140 0.455085065625 0.890692800385 -0.028109012895 0.030695982804
3.978288888000 -0.026830395274 0.017752567448 0.476876754878 0.882235067275 0.456813198754 0.888559317754 -0.027453307410 0.031547904551
3.978711111000 -0.026089740055 0.017716863744 0.479151497876 0.880303295210 0.458014922775 0.887274752463 -0.026893561511 0.031194690220
3.979133333000 -0.024940768293 0.017630948185 0.481867483281 0.880140587501 0.460549624551 0.887807620589 -0.026785216704 0.029787856959
3.979555555000 -0.024974590637 0.017611981109 0.482294558414 0.878839989339 0.463166291715 0.889234343361 -0.027251218806 0.030473248927
3.979977777000 -0.025893261336 0.017487633181 0.481922395872 0.878407374199 0.463935865259 0.884950412069 -0.026928724810 0.030471971834
3.980400000000 -0.024281448830 0.018149306228 0.485726845740 0.878174537485 0.464907420248 0.886924146511 -0.026017363512 0.029688652716
3.980822222000 -0.024253606239 0.017498543602 0.488303175147 0.877171146282 0.467577341610 0.885897647893 -0.026705427493 0.028972496077
3.981244444000 -0.024081293167 0.017731470868 0.489198711595 0.877013532105 0.469272078142 0.886341388392 -0.025740980091 0.030079388909
3.981666666000 -0.025084561098 0.018373758880 0.490661466204 0.875769062813 0.472325420827 0.882537549746 -0.026931362235 0.030695046746
3.982088888000 -0.023841294887 0.017796379969 0.492187315862 0.873516512957 0.472425782660 0.881768344941 -0.025719426049 0.028997209617
3.982511111000 -0.022453021908 0.017938766480 0.494432882421 0.874012893900 0.474071472626 0.884602838485 -0.025368187121 0.028537071545
3.982933333000 -0.022747036941 0.016810090551 0.495585003889 0.872480015227 0.476515243368 0.882903504473 -0.025469702988 0.028032319609
3.983355555000 -0.023198250919 0.017559255900 0.496423697723 0.871055807460 0.477552827072 0.880204900643 -0.026231699033 0.028795975075
3.983777777000 -0.023045591838 0.017390828935 0.499415320037 0.869953673638 0.480007802818 0.880996172833 -0.026242326457 0.028472926154
3.984200000000 -0.023007951376 0.016669815625 0.498934020107 0.868389279985 0.482602170422 0.878430956274 -0.025786924680 0.028227929367
3.984622222000 -0.022166322848 0.017520266753 0.501361355758 0.869327416988 0.482332427001 0.878143560901 -0.024911908463 0.027912502369
3.985044444000 -0.022908691279 0.017341624177 0.501815167446 0.867897644332 0.483497320101 0.877132208490 -0.026251304423 0.028330915545
3.985466666000 -0.021259900001 0.017859116467 0.504778826901 0.868135632885 0.484338657205 0.877904144241 -0.024881278589 0.027522599701
3.985888888000 -0.021583670383 0.017196029156 0.507355217354 0.866006290484 0.488782364332 0.875142245376 -0.025291047625 0.027631048900
3.986311111000 -0.020928052799 0.017399478071 0.507999200287 0.865274749127 0.487341852489 0.875160387364 -0.025204293588 0.026774860388
3.986733333000 -0.021347931408 0.016212589630 0.509304067662 0.864040893613 0.493791794522 0.873762580844 -0.025444879410 0.026962828186
3.987155555000 -0.021317082288 0.017356632570 0.510304502869 0.863105210666 0.490734361564 0.873214948868 -0.025229300304 0.026829547524
3.987577777000 -0.020197062230 0.017347844332 0.511393994892 0.862495794836 0.493351587289 0.875226507199 -0.025957074700 0.027308717938
3.988000000000 -0.020030549221 0.016103376113 0.514913251464 0.861635195712 0.496946239893 0.874057971921 -0.026137213997 0.025408418703
3.988422222000 -0.018966200941 0.017128694849 0.515985708526 0.861496397499 0.496429045079 0.873334315649 -0.024478495347 0.025821943318
3.988844444000 -0.019491703355 0.016386407384 0.516508624446 0.859479066728 0.499117508586 0.870639103352 -0.024847069701 0.025526392351
3.989266666000 -0.019148071808 0.015572809153 0.519214933995 0.857857694073 0.501587906684 0.873164250114 -0.025847189505 0.024950532284
3.989688888000 -0.019154433323 0.015923480896 0.520722294013 0.856427991861 0.503002694533 0.870078650595 -0.025768061390 0.025258738916
3.990111111000 -0.018400108725 0.016811801075 0.522804884331 0.857358763213 0.502802916258 0.869262906836 -0.024218770489 0.025351928240
3.990533333000 -0.018322079883 0.016089856618 0.523957238472 0.855952038911 0.504563592241 0.869023950591 -0.024998079500 0.024727059572
3.990955555000 -0.018611913174 0.015080075337 0.525701783005 0.853539730998 0.508423112221 0.867390242079 -0.026405861369 0.024538740055
3.991377777000 -0.018325797172 0.015403027720 0.527642342504 0.853232183199 0.508962724936 0.867376788379 -0.026084494013 0.024272573882
3.991800000000 -0.017672097704 0.015367618762 0.530051443447 0.851076262413 0.510275451667 0.864527935567 -0.025785683225 0.023916368408
3.992222222000 -0.018338200480 0.015675307262 0.528896959894 0.852260865521 0.509577844553 0.864221730863 -0.025114282739 0.024485082570
3.992644444000 -0.018516153032 0.015154648587 0.530764784594 0.849277630360 0.512068042050 0.861398631580 -0.026124248809 0.024931163845
3.993066666000 -0.017399173366 0.014854610124 0.533252038469 0.849381975486 0.515832823723 0.863098545439 -0.025390715236 0.024020926786
3.993488888000 -0.018077358842 0.014800037825 0.534026357171 0.847481724424 0.517585024100 0.860749094572 -0.026520100476 0.024512362248
3.993911111000 -0.017303836900 0.015225556374 0.533968242994 0.848251738959 0.516413360372 0.861230892965 -0.025307690394 0.024140115383
3.994333333000 -0.016176739931 0.013728057770 0.539850102536 0.846086096478 0.519286738335 0.862070868880 -0.025791487812 0.020962694558
3.994755555000 -0.017799973165 0.014573820653 0.536603393596 0.844633101811 0.520198150383 0.858655178777 -0.025922022436 0.023756980960
3.995177777000 -0.016629944451 0.014167251221 0.540349259617 0.845243390311 0.522259488425 0.859894398635 -0.025472683241 0.022258021473
3.995600000000 -0.017153313857 0.013667880831 0.541130969854 0.843373900198 0.524894679538 0.857732156432 -0.026364043941 0.022355991017
3.996022222000 -0.017391951691 0.013580308052 0.540563139205 0.841186692736 0.525188931452 0.854498722773 -0.026053915336 0.023200422160
3.996444444000 -0.016349627154 0.014158591743 0.543395035387 0.842298548733 0.525572846067 0.856626177682 -0.025960322217 0.022668065153
3.996866666000 -0.016938365638 0.014518915365 0.544574733873 0.840577537389 0.526613227075 0.855761954764 -0.026737761231 0.022544298730
3.997288888000 -0.016881157765 0.014278915057 0.545223981253 0.839679612532 0.527860315542 0.852835180965 -0.025957829317 0.022835183512
3.997711111000 -0.016293818602 0.012890676791 0.548367435733 0.838394754624 0.532209124107 0.852615982285 -0.026609597563 0.021496916525
3.998133333000 -0.016486912445 0.013440413552 0.548075452847 0.836638997332 0.531772907352 0.850128172374 -0.026129828506 0.022291891741
3.998555555000 -0.016886059679 0.012173423734 0.549985582563 0.834915618008 0.536864210107 0.848972160400 -0.027676608038 0.022055625409
3.998977777000 -0.016582761869 0.013316744127 0.550102297536 0.835085868138 0.533739570786 0.848277999885 -0.026119086492 0.022573182822
3.999400000000 -0.017776702153 0.012112895106 0.556637656854 0.834139155379 0.539462895731 0.841982719406 -0.028410083667 0.021807907037
3.999822222000 -0.016213634426 0.011803558286 0.554241590345 0.832517271098 0.538941886386 0.846807982612 -0.026549325363 0.021313220009
4.000244444000 -0.016080969648 0.012374976817 0.554869102184 0.832344399525 0.539868098808 0.846876562329 -0.026845994337 0.021789686420
4.000666666000 -0.017314598049 0.012192977124 0.556570688249 0.830675180022 0.539777980847 0.843855228298 -0.027212478830 0.021221592144
4.001088888000 -0.015899041543 0.011661464761 0.557650151598 0.829888103105 0.542742561247 0.843418932140 -0.026530088329 0.021594045201
4.001511111000 -0.016265654177 0.012174103416 0.557947025327 0.828276883135 0.544248740026 0.844514632294 -0.027676765430 0.021602934304
4.001933333000 -0.015898096696 0.012397741856 0.559577102227 0.827781776787 0.544646298505 0.843238979399 -0.027610376302 0.021441039747
4.002355555000 -0.016021942758 0.011947636923 0.560819879620 0.825483062242 0.545445528895 0.841021171776 -0.027112578451 0.021583668948
4.002777777000 -0.017316625556 0.010867959601 0.563980695930 0.827097836191 0.549426579817 0.838842907834 -0.027712085670 0.019905691814
4.003200000000 -0.016919088455 0.011613837305 0.565853717673 0.824221003611 0.549451630381 0.837415007651 -0.028125932784 0.020650134369
4.003622222000 -0.015622913918 0.011766915307 0.565764062541 0.823873892364 0.552247865183 0.838300417863 -0.027908791719 0.021430690376
4.004044444000 -0.016005135375 0.010761666460 0.566207573761 0.822065433163 0.553188634496 0.836025982172 -0.027337477086 0.021134277121
4.004466666000 -0.016440048426 0.011817041532 0.566987731257 0.820914332283 0.552707903575 0.836064307541 -0.028193742034 0.021536569848
4.004888888000 -0.016694667257 0.011213075228 0.568602031681 0.820800659475 0.555853829811 0.834492250707 -0.028045517228 0.020149760778
4.005311111000 -0.016231557805 0.011012064545 0.569222073899 0.817656598956 0.555687184010 0.833219915664 -0.027916551375 0.021153700705
4.005733333000 -0.016867340957 0.010512690594 0.570414053579 0.818129212804 0.558703178906 0.832184413540 -0.027729678786 0.020827745188
4.006155555000 -0.016232291861 0.011321579659 0.570940372905 0.816634159024 0.558126632105 0.833640094282 -0.028360601601 0.021501863141
4.006577777000 -0.016986988953 0.010348877973 0.574018284439 0.814857920730 0.560267023510 0.829983073435 -0.028482501440 0.020624484283
4.007000000000 -0.016377147255 0.009160730544 0.580084802754 0.816107395058 0.566383147204 0.822934774200 -0.028811763865 0.021893950757
4.007422222000 -0.016318903832 0.009897219700 0.575497976351 0.813347132792 0.563895717445 0.827891302292 -0.028072008767 0.021423714446
4.007844444000 -0.017221965596 0.009769171062 0.576232881721 0.812629287062 0.564781815148 0.827589928712 -0.028221827373 0.020345840074
4.008266666000 -0.016667099685 0.010589840365 0.578832693950 0.809590527751 0.565348138164 0.825873279030 -0.028812782269 0.021267409502
4.008688888000 -0.017487675800 0.009828453422 0.578447403898 0.809220158206 0.566846806590 0.823255388607 -0.028565698634 0.021243484114
4.009111111000 -0.018012882317 0.009647708039 0.579472030441 0.809621775779 0.570703607966 0.820812207638 -0.029104645384 0.020555059641
4.009533333000 -0.016822401501 0.009735568160 0.581572823780 0.805608028554 0.569009193662 0.822123535508 -0.028726533988 0.021522260222
4.009955555000 -0.018161365520 0.010075001385 0.581857168484 0.804050146128 0.570708776001 0.817959870759 -0.029933828460 0.021929947031
4.010377777000 -0.018036229000 0.010316726226 0.583824667751 0.805743269203 0.571550568703 0.819396111136 -0.029362357010 0.021427065328
