# GHZ S RI R 50.000000000000
3.950000000000 -0.048546083492 0.021737960995 0.346173118136 0.946277173281 0.357057742205 0.936560191611 -0.036619514634 0.017491860594
3.950422222000 -0.048848166949 0.020942069603 0.346014598211 0.945235967544 0.358378187114 0.935222572035 -0.037652121417 0.017312675691
3.950844444000 -0.048714610591 0.021244598961 0.350777407374 0.942734226952 0.361544826600 0.935409525515 -0.037692714979 0.018190516407
3.951266666000 -0.049019981530 0.020849233092 0.349400654631 0.943917190723 0.360594707023 0.933376427000 -0.037707383458 0.017787129466
3.951688888000 -0.049386311012 0.022796759695 0.351627967113 0.944036647082 0.362292751295 0.935613252219 -0.036641126801 0.019369036133
3.952111111000 -0.049185584693 0.023639232508 0.352555085070 0.945268668856 0.361284749233 0.933764967239 -0.035633851565 0.019611995452
3.952533333000 -0.048681638546 0.023517245149 0.355748451145 0.943775902250 0.365618001373 0.934745686178 -0.035469144867 0.019535033656
3.952955555000 -0.048329665458 0.023735215880 0.357245986801 0.944508899393 0.367407185933 0.934979083328 -0.035347282106 0.019692302371
3.953377777000 -0.048383520615 0.024211685375 0.358255288358 0.943869840929 0.366576081031 0.935054283846 -0.035310541872 0.019527772159
3.953800000000 -0.048166968599 0.024679754133 0.357860874950 0.944642090027 0.368914456670 0.937294338739 -0.034742726396 0.020133891144
3.954222222000 -0.047967390813 0.024774607631 0.359979561037 0.944411936280 0.369173188310 0.934528549565 -0.034836367087 0.019161883089
3.954644444000 -0.049234235064 0.024547587798 0.363438702016 0.943263324913 0.369600423747 0.933659047395 -0.033870269464 0.019895541141
3.955066666000 -0.048703109960 0.025795145842 0.362661896548 0.942228928550 0.371728103896 0.934899569746 -0.033129191395 0.020146848884
3.955488888000 -0.047682340984 0.024946683152 0.365320449733 0.940110320850 0.374128280926 0.932341428538 -0.032454669523 0.019782864965
3.955911111000 -0.047724522145 0.026514187591 0.367906675769 0.942950967438 0.376386993977 0.934485892664 -0.033178084491 0.021382724519
3.956333333000 -0.048897550578 0.025914707972 0.367041454328 0.942203792971 0.376962459042 0.931460399908 -0.031951781179 0.020844858610
3.956755555000 -0.048621027108 0.025709278371 0.370294175844 0.941167056495 0.376604121971 0.934158200285 -0.033037171334 0.020448037612
3.957177777000 -0.047408712414 0.025777595763 0.370781617040 0.939118323602 0.379148390120 0.932400514215 -0.032034742849 0.020434199809
3.957600000000 -0.048305178938 0.026167218972 0.372821270489 0.939790831128 0.380501852119 0.931987919351 -0.030820653365 0.021042684436
3.958022222000 -0.046073073641 0.026605142014 0.376573695868 0.940613999636 0.383178471335 0.932606973802 -0.030071373604 0.020481987049
3.958444444000 -0.046870425946 0.027819370998 0.378214498063 0.944545706161 0.382178200441 0.933129270124 -0.029541845717 0.021120764129
3.958866666000 -0.047056529242 0.027495608268 0.379495683824 0.938835196917 0.384500658989 0.931825738806 -0.029878691716 0.020553720430
3.959288888000 -0.047601153671 0.027732625114 0.379326020022 0.940572959238 0.383762718486 0.930968535844 -0.029195333660 0.020905596496
3.959711111000 -0.047164377205 0.027602709210 0.379456729252 0.939601549773 0.386549723000 0.932110095372 -0.029378353080 0.021036082177
3.960133333000 -0.047613403111 0.028538082361 0.380568701315 0.939945554443 0.387129401181 0.933136690437 -0.029771929891 0.021671042415
3.960555555000 -0.046445335378 0.028566891125 0.385397460253 0.941529925033 0.391081170602 0.933057673058 -0.028226956330 0.021964576971
3.960977777000 -0.045971927508 0.029451057339 0.384642445822 0.941155391976 0.390576330190 0.931962096916 -0.027361592349 0.021818108305
3.961400000000 -0.045553806790 0.030108479624 0.389203766679 0.941570651360 0.394709824696 0.936310653566 -0.027851060871 0.022231641308
3.961822222000 -0.045476393182 0.029044182267 0.387284422300 0.937706669910 0.394393564958 0.932510578674 -0.027531894840 0.020555485670
3.962244444000 -0.046070230996 0.029069185831 0.387917854742 0.938331799509 0.394661480948 0.933357949698 -0.028180244750 0.021688363684
3.962666666000 -0.044788753944 0.030167997749 0.392538155215 0.938898687821 0.396319350279 0.932194091760 -0.026501457084 0.020993493378
3.963088888000 -0.045075482393 0.029246556169 0.392416411752 0.938243509930 0.398355243881 0.930813059415 -0.026478134994 0.020603264270
3.963511111000 -0.044526884413 0.030848720354 0.393855719217 0.940069358670 0.400332438391 0.932498361819 -0.025474199195 0.022009055684
3.963933333000 -0.044637399671 0.030092611442 0.395575402359 0.938345891325 0.402215952040 0.930196476007 -0.024791739985 0.021500399555
3.964355555000 -0.044049746626 0.030983755916 0.399344177680 0.937671121318 0.404522234972 0.931396256898 -0.024785796256 0.021868043194
3.964777777000 -0.044851544308 0.031572830338 0.398528836708 0.939970008922 0.403427118974 0.929852478693 -0.025167949256 0.021936465833
3.965200000000 -0.043361529011 0.031529569781 0.402779412120 0.937035749373 0.407010122447 0.929541428213 -0.022864940781 0.022138608879
3.965622222000 -0.043991983946 0.031685148134 0.402574883284 0.938755550605 0.408037802103 0.928766409010 -0.022896272987 0.022461639555
3.966044444000 -0.042669142877 0.032502165891 0.407254091953 0.938512935607 0.410149183703 0.931157939926 -0.021938670042 0.022648824456
3.966466666000 -0.042745326940 0.032320325684 0.407883563246 0.934838087420 0.410634199945 0.929275663290 -0.021804932287 0.021832083157
3.966888888000 -0.041901020810 0.032417739033 0.407962871301 0.934537371593 0.413107307379 0.930094204275 -0.021327635938 0.021924900140
3.967311111000 -0.042298144187 0.032823122475 0.407807672198 0.937077410800 0.414632740221 0.929984514150 -0.020967778575 0.022717718148
3.967733333000 -0.041032604035 0.033104133201 0.412301976012 0.935383594597 0.416248201461 0.929876100804 -0.020899305097 0.020909116881
3.968155555000 -0.041769237822 0.033322427994 0.412755956359 0.937527199020 0.416966808214 0.929878351188 -0.020177690230 0.021982409403
3.968577777000 -0.041036770357 0.033228204982 0.414633521572 0.933630419722 0.420279026665 0.930330606551 -0.021203787741 0.022600651625
3.969000000000 -0.040756769854 0.032881742300 0.417020071691 0.932596228584 0.419526021557 0.925253685579 -0.021134248503 0.021978461009
3.969422222000 -0.039943194437 0.033795056189 0.419688523911 0.935799384552 0.421987368957 0.928334925933 -0.018986727381 0.020712418860
3.969844444000 -0.038960086259 0.033574415688 0.421301852577 0.935056181490 0.424420432080 0.928957413132 -0.018730263059 0.021365388921
3.970266666000 -0.039648328213 0.034132905980 0.422364838821 0.934451328627 0.424927882775 0.927799281304 -0.018622260454 0.021383977070
3.970688888000 -0.038716477425 0.034231562898 0.424913204156 0.932896883168 0.427003176401 0.927185671296 -0.017154784691 0.021247859962
3.971111111000 -0.038320362174 0.034779804141 0.425840133541 0.934074676913 0.428224529240 0.927407740568 -0.017196137622 0.020905494340
3.971533333000 -0.037764707457 0.034330904277 0.427960545407 0.932627921224 0.431140527197 0.926974457350 -0.016450054575 0.019917824700
3.971955555000 -0.037478245889 0.035387737992 0.430229919455 0.931885291604 0.431632352512 0.926993975827 -0.015719042405 0.020796124149
3.972377777000 -0.036940460891 0.034584728086 0.431006188542 0.930581305790 0.433620679653 0.926800368181 -0.015661791972 0.020474321042
3.972800000000 -0.036084673885 0.034970607425 0.434339045542 0.930762495898 0.434961905377 0.926056708100 -0.014959978532 0.020333335818
3.973222222000 -0.034877931818 0.035035067274 0.436138822627 0.929135907823 0.437711149306 0.925500637380 -0.014403847178 0.019870477562
3.973644444000 -0.035980689025 0.034142221348 0.436192241288 0.929352336225 0.439145442396 0.925100038138 -0.014372574196 0.019651446019
3.974066666000 -0.035799638460 0.034208194746 0.436531779256 0.928316157937 0.440061366104 0.924100850316 -0.014822582837 0.019494101118
3.974488888000 -0.035013319506 0.035593988937 0.440032745999 0.928729964392 0.441532087810 0.924602502504 -0.013261827601 0.019812911707
3.974911111000 -0.034685322398 0.035569151102 0.441249509437 0.928054974430 0.443516532975 0.925360580881 -0.013388148337 0.019782673501
3.975333333000 -0.034113992909 0.035154787310 0.443942466359 0.927785637357 0.445716100498 0.924167371322 -0.013467274669 0.019420337216
3.975755555000 -0.033432682080 0.036005687796 0.445816350888 0.927194429593 0.446204351660 0.923819088104 -0.012263727184 0.018634253092
3.976177777000 -0.032272553981 0.035661886673 0.448527651994 0.926490886664 0.448817111507 0.923681152933 -0.011960708603 0.018387211740
3.976600000000 -0.032709201553 0.034265456823 0.447227618221 0.919853380400 0.450507630739 0.921958798105 -0.011672477170 0.021085061246
3.977022222000 -0.032142231205 0.035617541753 0.449754658332 0.925569905101 0.452537645150 0.923346677579 -0.011469204035 0.019358327314
3.977444444000 -0.031287242066 0.035230764560 0.453255982891 0.924233111908 0.455825631011 0.922604420398 -0.010560534888 0.017816589181
3.977866666000 -0.031882918342 0.035253693868 0.453102524761 0.922945042205 0.456649176582 0.920108600765 -0.011856887832 0.018975210419
3.978288888000 -0.030609506065 0.035403111782 0.456789095427 0.923147333234 0.458066393590 0.920735788648 -0.010832888492 0.018347321196
3.978711111000 -0.030086058212 0.035224835043 0.457735688736 0.922822649976 0.459060933937 0.920674511946 -0.009923383224 0.017333415099
3.979133333000 -0.031166091531 0.034975816619 0.457771658219 0.921634901174 0.461665499088 0.917098408084 -0.010378751483 0.018311175662
3.979555555000 -0.030036634853 0.035158099100 0.460259639285 0.919629175735 0.462068152797 0.917839088089 -0.009369311754 0.017885987691
3.979977777000 -0.029087527972 0.034696589262 0.463487452062 0.919886742278 0.465895267627 0.918933458222 -0.009224832299 0.017861254360
3.980400000000 -0.028353699702 0.034519569369 0.465352993404 0.918922812205 0.467211658842 0.918213822506 -0.009083591652 0.015968559447
3.980822222000 -0.028091099574 0.035591446342 0.466114625613 0.919418670112 0.467213989642 0.916994071015 -0.008030065860 0.017559701319
3.981244444000 -0.027738379640 0.034625418570 0.468549430282 0.917570095039 0.470883288909 0.915608204322 -0.008274306226 0.016976153074
3.981666666000 -0.025914672054 0.034391932998 0.470845821320 0.914926152012 0.472110121134 0.917477948822 -0.007168683978 0.016845928039
3.982088888000 -0.026313454168 0.035087562047 0.471530431682 0.916534680348 0.472733580984 0.917041744114 -0.006936451942 0.016063359279
3.982511111000 -0.025813217748 0.033868114597 0.473692415474 0.914608340437 0.475750750579 0.914474366874 -0.007207890873 0.014695779853
3.982933333000 -0.025261796609 0.034805640344 0.475036948133 0.914651129841 0.475678510582 0.914841535339 -0.006620241917 0.014760110699
3.983355555000 -0.026186749516 0.034183636109 0.475479081959 0.912862035629 0.478519879064 0.912683997446 -0.006843777944 0.015597177842
3.983777777000 -0.024895651661 0.033986425498 0.477175726972 0.911848821812 0.479919571559 0.911213459731 -0.006084708601 0.014652245300
3.984200000000 -0.026315663863 0.033179821369 0.475376475794 0.912266613160 0.483289405593 0.910403960336 -0.004869164006 0.015003498662
3.984622222000 -0.024130360762 0.033508769065 0.481783160379 0.911336645950 0.484160600423 0.910962923887 -0.005832099842 0.014005503779
3.985044444000 -0.024025418259 0.033035591005 0.483368113451 0.909894475287 0.485699506488 0.910193271043 -0.005648605868 0.013014521180
3.985466666000 -0.023817529048 0.032969768660 0.483741106568 0.908752407147 0.487987593178 0.908248216605 -0.005628045198 0.013801853086
3.985888888000 -0.022546362769 0.033167499181 0.486195046556 0.907259901517 0.487761142369 0.908626671658 -0.005017018727 0.013469412494
3.986311111000 -0.022688636280 0.032248060069 0.488084417115 0.907055712835 0.491392569765 0.908510319128 -0.005226061370 0.012900078559
3.986733333000 -0.021575609205 0.032687433654 0.490440879605 0.906563046819 0.492121725217 0.908055459901 -0.004462031715 0.012849163278
3.987155555000 -0.021859222154 0.032835528948 0.491422677649 0.906151403986 0.493471282798 0.905372648765 -0.004086518014 0.013383405676
3.987577777000 -0.020517095246 0.031665951688 0.492843692136 0.904382868428 0.496526999276 0.907644720263 -0.003679437444 0.011442575764
3.988000000000 -0.020932198154 0.031883239893 0.494799673650 0.903139908875 0.497283336179 0.904286247536 -0.004500035345 0.011260041741
3.988422222000 -0.020470610816 0.031812302258 0.497275426603 0.902420010569 0.498404106934 0.903101241544 -0.003543661308 0.010736301575
3.988844444000 -0.019324980583 0.031475687219 0.498538338311 0.902067282043 0.500422996290 0.904638035632 -0.003097669680 0.010995106861
3.989266666000 -0.020379647977 0.030543642642 0.498665962246 0.899630178437 0.503656059365 0.901253916140 -0.004174173959 0.011238613183
3.989688888000 -0.019169046439 0.030322530431 0.501816771943 0.899208683055 0.504214011102 0.903027629608 -0.003308360493 0.010559651971
3.990111111000 -0.018928930929 0.030428580923 0.504041653612 0.898851418540 0.507042407521 0.901301183867 -0.003686427442 0.009843416253
3.990533333000 -0.019021690093 0.030214971312 0.505759425535 0.898130151202 0.508396025253 0.899860974524 -0.003828167450 0.010545225032
3.990955555000 -0.017805062164 0.029014157581 0.507030496460 0.896100989083 0.510528473723 0.900359201231 -0.002887431104 0.009184474312
3.991377777000 -0.018003629157 0.029157535165 0.508827203201 0.896075815216 0.511774608603 0.899149177206 -0.003075230350 0.008880347205
3.991800000000 -0.018840549578 0.030447412953 0.509486132895 0.897013867088 0.515563407373 0.895512365542 -0.003198895659 0.011726727401
3.992222222000 -0.017330521072 0.028318913599 0.511925068735 0.893313238148 0.515554177164 0.896696739430 -0.002410249665 0.008469508747
3.992644444000 -0.017257370821 0.028473230116 0.513894110583 0.892258719060 0.516758811571 0.895767899140 -0.003077705585 0.009277118480
3.993066666000 -0.017072869165 0.028094566446 0.515169289298 0.891733419897 0.518969752134 0.895346346023 -0.002951297582 0.008979830417
3.993488888000 -0.017195667377 0.027869335654 0.516490802745 0.890110377517 0.520219606853 0.892770823131 -0.002979047760 0.008739759837
3.993911111000 -0.015726664001 0.027889028591 0.517457077281 0.890095093152 0.519578996606 0.893937199517 -0.001551003747 0.008591653303
3.994333333000 -0.017405146310 0.026372506362 0.519604856439 0.887581080631 0.526917325695 0.888940783150 -0.004071274779 0.008109330386
3.994755555000 -0.016477692402 0.026484992169 0.520675101721 0.887194445801 0.525391333557 0.889640311195 -0.002531679929 0.007707529657
3.995177777000 -0.016347825740 0.026410416073 0.521448003097 0.886139696164 0.526532249093 0.888641998221 -0.002614542647 0.008175905478
3.995600000000 -0.015146132056 0.026160809961 0.523327514265 0.886391508541 0.527637785134 0.889982933778 -0.001460519418 0.007141951569
3.996022222000 -0.015009104909 0.026080310280 0.525482243351 0.885450950035 0.528782891495 0.889210587825 -0.001423471616 0.006710409237
3.996444444000 -0.014969257733 0.025148997442 0.527028151922 0.882762271838 0.530053357731 0.888266234013 -0.001991882357 0.006606080431
3.996866666000 -0.014097513313 0.025736576382 0.528637498849 0.883010377408 0.531585521690 0.887516734999 -0.001311165937 0.007408117052
3.997288888000 -0.014481595203 0.024612932118 0.530898113422 0.881627700497 0.534285239232 0.884434377011 -0.001918930354 0.006686295140
3.997711111000 -0.014081799781 0.024699062593 0.530707130944 0.879935556028 0.535335879876 0.883594648802 -0.001294812068 0.006522916150
3.998133333000 -0.014601606354 0.024300401777 0.532388751956 0.878751006928 0.537705975727 0.882357242298 -0.001902518516 0.006906651664
3.998555555000 -0.012789756052 0.023968124132 0.537037547671 0.879334341644 0.537823834657 0.885027086423 -0.001112769782 0.005316558313
3.998977777000 -0.014220208052 0.022844005830 0.534750700051 0.876213341037 0.541765537467 0.880980150175 -0.002155236879 0.006510144656
3.999400000000 -0.014115994268 0.023452170461 0.536726970286 0.875654865575 0.540459618346 0.879560979352 -0.001487725456 0.006962740747
3.999822222000 -0.013424167834 0.022102792852 0.538032063801 0.874274458714 0.544013625020 0.879768341512 -0.001580965914 0.005846976225
4.000244444000 -0.013980237150 0.023065824821 0.538657561438 0.874954578175 0.543914443676 0.878696147696 -0.001542419385 0.005889994750
4.000666666000 -0.013464464893 0.022177218329 0.541745008109 0.873971027558 0.547314282846 0.876066429872 -0.001482705183 0.006098482074
4.001088888000 -0.012176798071 0.022035161905 0.543465802125 0.870064019731 0.547503891455 0.876316176474 -0.001465791660 0.006349781092
4.001511111000 -0.014017002635 0.021962022218 0.546043272005 0.869998546347 0.548798027397 0.872667510037 -0.002663104912 0.005727488558
4.001933333000 -0.013460596227 0.021673562764 0.546035406119 0.867006568616 0.548497776571 0.874453319906 -0.002348278298 0.005784222816
4.002355555000 -0.012395488517 0.020853079986 0.547966188668 0.868332378563 0.551055663546 0.874860207291 -0.001013595460 0.004529853050
4.002777777000 -0.013029994691 0.020266843122 0.548493500685 0.868058539242 0.553515393451 0.872005498990 -0.000693701013 0.004238620619
4.003200000000 -0.013922970935 0.020034603527 0.549830135848 0.865683515544 0.553818662024 0.868390659545 -0.001836573271 0.005096692448
4.003622222000 -0.012515427003 0.019272827544 0.551491961424 0.864957479954 0.558144200397 0.869219292020 -0.001487405109 0.005140388476
4.004044444000 -0.013305978769 0.018912203363 0.554057929163 0.863635468663 0.558114664064 0.868590258469 -0.001449281594 0.003953746383
4.004466666000 -0.013308630561 0.019525207965 0.552254934472 0.861387935125 0.556771887485 0.867316737032 -0.001560607551 0.005317743326
4.004888888000 -0.013423316897 0.019647801631 0.555695745453 0.862265883646 0.557729740433 0.865521357240 -0.001153297210 0.005389989226
4.005311111000 -0.012703164625 0.018955353486 0.557157904045 0.860219328340 0.559892753656 0.864523027449 -0.001231936942 0.005519552607
4.005733333000 -0.013766118480 0.018347038877 0.557590974411 0.858243690742 0.563345610360 0.864622535433 -0.002043841908 0.004099109028
4.006155555000 -0.013198088892 0.018547555076 0.559477566534 0.857181045637 0.563351168994 0.861972047911 -0.001900094747 0.005467853582
4.006577777000 -0.013862737607 0.017671325863 0.560345634402 0.857028405872 0.565970295049 0.860775319173 -0.002254249494 0.004679713639
4.007000000000 -0.012275728210 0.017148712618 0.556709259256 0.862328770997 0.570193984237 0.866878177354 0.001763852522 0.004853782722
4.007422222000 -0.012517127074 0.017267196366 0.563398975038 0.855738051412 0.569653113905 0.861422645682 -0.001722659314 0.004526812538
4.007844444000 -0.013548274507 0.017084738513 0.563850122653 0.854695313520 0.570949850054 0.859821284151 -0.002104859051 0.004105589271
4.008266666000 -0.013435545410 0.015879442042 0.563924790999 0.852272499629 0.572018028884 0.857782926439 -0.001331532218 0.004392493962
4.008688888000 -0.012538214805 0.015375724438 0.566099414899 0.850625692493 0.573536357451 0.858548405877 -0.000629189806 0.004607403612
4.009111111000 -0.013714793365 0.014958323224 0.567035424559 0.853018571839 0.575962757593 0.854027899922 -0.000815094573 0.004645867018
4.009533333000 -0.013163522654 0.015292147163 0.568054628580 0.849063278417 0.575007932067 0.854110423672 -0.000880907290 0.005491267045
4.009955555000 -0.013597235394 0.015225120000 0.570319460250 0.848399809776 0.577966417271 0.851227610739 -0.002225643522 0.005432128339
4.010377777000 -0.013908391672 0.015276045650 0.571656983310 0.846527703786 0.577564846698 0.852360245314 -0.002232923684 0.005037217216
