# GHZ S RI R 50.000000000000
3.950000000000 -0.050753593677 0.021739322546 0.335470121914 0.951394592985 0.360426601475 0.939605244509 -0.038029268794 0.017134472695
3.950422222000 -0.050007457621 0.021488225167 0.341698533772 0.950723823871 0.361833611478 0.939324735367 -0.037695558620 0.017613657835
3.950844444000 -0.050412559978 0.021147415120 0.343667971926 0.948543158474 0.361914625523 0.937709541952 -0.038647768490 0.017532179678
3.951266666000 -0.049830653460 0.021989441256 0.346576005301 0.948651956831 0.364077740748 0.939105251824 -0.038054856436 0.018788707646
3.951688888000 -0.050284113076 0.022905444125 0.347806695342 0.949248913818 0.363149306013 0.937406039640 -0.036673648114 0.019110132273
3.952111111000 -0.049673848527 0.024346353262 0.352220312421 0.947090866793 0.363985453056 0.939466870861 -0.035665051360 0.019632956524
3.952533333000 -0.050144381036 0.023772255820 0.350782646210 0.948696517248 0.364890495177 0.937052700521 -0.036420431650 0.018897277015
3.952955555000 -0.050268144884 0.023770582261 0.350977018038 0.948467556811 0.365376111618 0.938097294261 -0.037075634691 0.018533572092
3.953377777000 -0.049645857921 0.023887595284 0.353065325341 0.946726110283 0.366276791327 0.936001744786 -0.035777228456 0.018511346243
3.953800000000 -0.048571644801 0.022996192892 0.351815150123 0.942791915224 0.370258045278 0.934448524530 -0.034211787859 0.017370779822
3.954222222000 -0.049045082056 0.024520896352 0.356161618978 0.947755725051 0.369030273895 0.935208687075 -0.034790553185 0.018016992824
3.954644444000 -0.050504605817 0.025323971463 0.358043999974 0.947975479528 0.370431720278 0.937202568214 -0.034924956465 0.020137105761
3.955066666000 -0.049895688202 0.026350644538 0.358591872300 0.947553650469 0.371554412943 0.937461310013 -0.033825731740 0.019985631638
3.955488888000 -0.049566977092 0.026240703144 0.360580691103 0.948038501766 0.372763101609 0.937027615389 -0.033839941806 0.020109792381
3.955911111000 -0.049409480204 0.026714744477 0.363124290609 0.946715712110 0.374721806206 0.936890767197 -0.034151745552 0.020257351217
3.956333333000 -0.049945495662 0.027221036559 0.365307821246 0.949344587229 0.377068522250 0.935534765078 -0.032139036309 0.021335407622
3.956755555000 -0.049590031148 0.026647556198 0.364997871140 0.946648877971 0.378564884574 0.936892113031 -0.033563072362 0.021092339085
3.957177777000 -0.048602707713 0.026235243311 0.369427620389 0.943830281416 0.377781480683 0.934913736006 -0.032069017879 0.019472533017
3.957600000000 -0.050156038784 0.027043683846 0.367160845887 0.945388148808 0.379403392463 0.935625282549 -0.032304621630 0.020811884714
3.958022222000 -0.048292177966 0.027344844785 0.369365780926 0.946588233725 0.381446007377 0.935885874746 -0.031807902024 0.020330022816
3.958444444000 -0.048781504248 0.027854564849 0.370458933273 0.946095904928 0.382172042175 0.935850626367 -0.031390446628 0.020254399249
3.958866666000 -0.048780534025 0.028224719996 0.373583764445 0.945011097928 0.383809362865 0.934413289565 -0.030864732581 0.020464583443
3.959288888000 -0.049101259609 0.028590606760 0.372919771022 0.943813878700 0.385461746549 0.935346870756 -0.030744949974 0.021254454658
3.959711111000 -0.048805218710 0.028348241657 0.374193219862 0.943548565294 0.386333805152 0.935493233038 -0.030271715869 0.020759296802
3.960133333000 -0.048229727675 0.029585141195 0.377692172929 0.945835072640 0.389519884999 0.935613395263 -0.029390854110 0.022179830534
3.960555555000 -0.048786287263 0.028928567673 0.377320688112 0.945246589347 0.389567477715 0.935963817220 -0.030162327401 0.021255817818
3.960977777000 -0.047546552553 0.030274377779 0.380248645028 0.945452290249 0.390098826399 0.935615485537 -0.028329775618 0.021102441658
3.961400000000 -0.047447655435 0.031518385826 0.385815758575 0.948970052845 0.392326078987 0.940387695744 -0.028911530768 0.021943623204
3.961822222000 -0.046260283672 0.030274696068 0.384576830566 0.943669426597 0.394950039519 0.935582629687 -0.027529267956 0.020816196346
3.962244444000 -0.047482363059 0.030322570726 0.384320188408 0.945892412873 0.393982229592 0.936032627088 -0.028347309222 0.021688375166
3.962666666000 -0.046120517311 0.030998320836 0.388158066815 0.943050640583 0.397055298996 0.935538106307 -0.027211325325 0.020809010064
3.963088888000 -0.046137318934 0.030253814972 0.387657691166 0.943617767892 0.400149999451 0.933290944397 -0.026583431354 0.021185362738
3.963511111000 -0.045731470077 0.031355678286 0.391506195316 0.943571567114 0.399368536904 0.934746590524 -0.025454762041 0.020825983931
3.963933333000 -0.046244706911 0.031906614600 0.391818480871 0.944695724955 0.401740868812 0.935568297036 -0.025989043683 0.021741380377
3.964355555000 -0.046248989040 0.031737591920 0.392963821060 0.943330180439 0.402885939607 0.933851062416 -0.025844510758 0.021321433711
3.964777777000 -0.044769092354 0.032487512163 0.398952226529 0.942133395393 0.405785764956 0.933577016186 -0.024748871565 0.021610797831
3.965200000000 -0.045054239993 0.033092483700 0.397842920521 0.942911028549 0.406604177754 0.934237330627 -0.024168055522 0.022084646513
3.965622222000 -0.045285370382 0.032776853156 0.399111414974 0.941951618512 0.408428782071 0.933041418173 -0.023892266696 0.022071390486
3.966044444000 -0.044597877124 0.032931199266 0.400465549409 0.941852792696 0.409753777031 0.933406654841 -0.022898228937 0.021937636174
3.966466666000 -0.045049753517 0.033645491752 0.401557602734 0.942406094071 0.409966693056 0.931577154573 -0.022368785519 0.022136023749
3.966888888000 -0.043016241907 0.034266465427 0.406487185349 0.942196158891 0.412754052826 0.933696027035 -0.021108944587 0.021842272379
3.967311111000 -0.043237312060 0.033840151091 0.405227621314 0.940685441790 0.415440046811 0.933037181739 -0.021116115020 0.022110222031
3.967733333000 -0.042636740039 0.034586416490 0.407179927304 0.942360783764 0.415892525005 0.932906879027 -0.021173368909 0.021320682841
3.968155555000 -0.042938812717 0.034181817716 0.408652090994 0.941340284469 0.417640160821 0.932445521637 -0.020706916916 0.021464944492
3.968577777000 -0.042957412349 0.034659280053 0.410182184048 0.941266426565 0.419063905680 0.932132258369 -0.020832559201 0.022279965771
3.969000000000 -0.043346063609 0.032889792502 0.408208708697 0.935562064827 0.419308968035 0.925877360676 -0.021712346039 0.021446446000
3.969422222000 -0.041436556954 0.034258303604 0.413882321991 0.938880223028 0.422640122592 0.930846890219 -0.019760549232 0.020735691122
3.969844444000 -0.041155763366 0.034177869806 0.414672879843 0.939152341489 0.423499342733 0.931000141981 -0.019423957621 0.020751023768
3.970266666000 -0.040680495360 0.035053675597 0.419127031967 0.938198107407 0.425431423368 0.930577110484 -0.018684041523 0.021041593785
3.970688888000 -0.040276302853 0.035820173751 0.420170910790 0.938868134893 0.427167277963 0.931057058562 -0.017899578219 0.021412006116
3.971111111000 -0.039499603974 0.035351041288 0.421736829693 0.936604810445 0.428883564736 0.929913198845 -0.017561778870 0.020383594926
3.971533333000 -0.039384376952 0.034881957680 0.422379838184 0.935551124119 0.431319125405 0.929785808984 -0.017445994958 0.019768551103
3.971955555000 -0.039383321644 0.035888948222 0.423119708853 0.935393791723 0.431894507465 0.929686200462 -0.016746842269 0.020974351116
3.972377777000 -0.038181900070 0.035991414174 0.427996956005 0.935424925536 0.434195821113 0.929213177045 -0.015450410851 0.020208428621
3.972800000000 -0.038113344509 0.035765371270 0.428159100378 0.935562549429 0.434711437863 0.927978817872 -0.015212017133 0.020083993187
3.973222222000 -0.037274207056 0.036412938953 0.430312400607 0.935208228258 0.436321852789 0.927988314632 -0.014441117151 0.019467335865
3.973644444000 -0.037474481658 0.035759865378 0.432026977018 0.934737425917 0.439266402014 0.928422263491 -0.014562913091 0.019697417730
3.974066666000 -0.037184498889 0.036598463397 0.433663739589 0.935681316292 0.439865864594 0.928189665754 -0.014827826744 0.019577563916
3.974488888000 -0.036204332367 0.036950367923 0.436471198650 0.933307695979 0.441998465322 0.927780846009 -0.013611802686 0.019698143916
3.974911111000 -0.035405106400 0.036912446402 0.438767360806 0.932703085478 0.444247295702 0.928691763349 -0.013332195904 0.019660860156
3.975333333000 -0.035531686069 0.035810165769 0.439112609165 0.930771413986 0.445932356210 0.926439585033 -0.013570488740 0.019070424663
3.975755555000 -0.035292083947 0.036614239651 0.440095891125 0.931131252232 0.445855651026 0.926177679758 -0.012463201723 0.018688716145
3.976177777000 -0.034439977388 0.037028230283 0.442652390151 0.932122068019 0.448382495366 0.926571728081 -0.012321123599 0.018730961078
3.976600000000 -0.033221001966 0.038562353415 0.449176222909 0.931398513655 0.450045211085 0.927777286453 -0.011163622071 0.021314843076
3.977022222000 -0.032919231552 0.036745747235 0.447618388672 0.929195196649 0.453044136874 0.926450116856 -0.011591563459 0.018956991934
3.977444444000 -0.033070123008 0.036495040680 0.448173400927 0.929529668001 0.455915882639 0.925373724467 -0.010937146100 0.017775791275
3.977866666000 -0.032553830552 0.036702175596 0.451535013999 0.927121991403 0.457318017033 0.923243352944 -0.011635905139 0.018490730618
3.978288888000 -0.031938497063 0.036455210552 0.452354981515 0.927468650291 0.458771756055 0.923389291370 -0.010918148735 0.018543081165
3.978711111000 -0.030960446453 0.036268025094 0.454983746170 0.926321657383 0.459934955000 0.923286227237 -0.009919222769 0.016901345330
3.979133333000 -0.031575688618 0.036790684304 0.456371783516 0.926652812018 0.462924388933 0.920751677693 -0.010317763420 0.018198760043
3.979555555000 -0.031614527244 0.037042443075 0.456424099294 0.926246918608 0.462641966439 0.921053464010 -0.009189335821 0.018395781001
3.979977777000 -0.030481238609 0.035977126028 0.459509057601 0.924673898383 0.466653282418 0.922214830362 -0.009564739761 0.017908094557
3.980400000000 -0.029969198642 0.035114124370 0.459900398427 0.922345065977 0.467623864312 0.920831666965 -0.009433565696 0.015935378855
3.980822222000 -0.028720346248 0.036144508353 0.463411654497 0.921533010155 0.468094898192 0.919713329564 -0.007951068388 0.017082638322
3.981244444000 -0.029237205656 0.035455152947 0.464054153844 0.921191303320 0.471300023448 0.918324426778 -0.008591124608 0.016804198107
3.981666666000 -0.028083539033 0.035736711568 0.465578073148 0.921003553008 0.471969236627 0.919964278920 -0.006941147069 0.016812687233
3.982088888000 -0.027152235961 0.036303230684 0.468689636151 0.920957171282 0.473685922986 0.919851115549 -0.007048602654 0.015969176055
3.982511111000 -0.027332261826 0.035003450614 0.469333273539 0.918944581063 0.476246544518 0.917365603120 -0.007226850770 0.014722805156
3.982933333000 -0.026549725169 0.036329292765 0.471270829505 0.919689818205 0.476213528128 0.917991918336 -0.006573845111 0.014572790230
3.983355555000 -0.027463472154 0.035256002163 0.471625938231 0.917194073475 0.479128024833 0.915246804861 -0.006578291071 0.015460872975
3.983777777000 -0.026542164854 0.035391422076 0.472737687877 0.917191816023 0.480320124665 0.914494023900 -0.005801499579 0.014952620441
3.984200000000 -0.025695368109 0.034315111792 0.476244259293 0.913798987787 0.484280230375 0.913815410476 -0.005387060558 0.014530944686
3.984622222000 -0.025491853364 0.034291463159 0.477528474260 0.915387403163 0.484579120393 0.913824655732 -0.005688758725 0.014141601309
3.985044444000 -0.024864594068 0.034143484634 0.480763248604 0.913375792143 0.485888999100 0.913279726194 -0.005735270564 0.012914721583
3.985466666000 -0.025181073810 0.033800522502 0.479503508630 0.912629009569 0.488050024833 0.911106986881 -0.005669930124 0.013765836232
3.985888888000 -0.024089191778 0.034753490196 0.482445865712 0.912907663187 0.487968042731 0.911601405762 -0.004807246102 0.013704592577
3.986311111000 -0.023550041768 0.033533007616 0.485578445319 0.911392047745 0.491688652018 0.911539632646 -0.005120564950 0.012729049039
3.986733333000 -0.023328217993 0.033760229622 0.485786109094 0.911185062490 0.492212838680 0.911536682449 -0.004040563378 0.013222456888
3.987155555000 -0.022529640309 0.034091471360 0.489228856443 0.909881585962 0.493677654421 0.908613086773 -0.003806328048 0.013306793712
3.987577777000 -0.021690558314 0.033190379114 0.490049375484 0.909533878371 0.496765583454 0.910980188785 -0.003236630355 0.011716017265
3.988000000000 -0.022285167231 0.033465945089 0.491300885582 0.908387454943 0.497324119443 0.907891952584 -0.004034655975 0.011524314666
3.988422222000 -0.022017035150 0.032713791171 0.492656591303 0.906529485985 0.497956919415 0.906477449264 -0.003481083665 0.011225576319
3.988844444000 -0.020782290758 0.032379847858 0.494226927156 0.906149591753 0.500168413583 0.908023541464 -0.002913089245 0.011359357528
3.989266666000 -0.021128328589 0.031857254266 0.496600228381 0.903942519018 0.503771055810 0.904479675072 -0.003759826432 0.011230688522
3.989688888000 -0.020569730535 0.032065578177 0.498723785335 0.905033206153 0.504298885727 0.906120872815 -0.002751697865 0.010662534247
3.990111111000 -0.020465292113 0.031134289847 0.498941619631 0.902723588992 0.506909189412 0.904828829670 -0.003533098051 0.010412865902
3.990533333000 -0.020060240877 0.031355962634 0.502727368960 0.902037775722 0.508337150558 0.903071984732 -0.003612896429 0.010558076812
3.990955555000 -0.018956441947 0.030072471512 0.503493140860 0.900023645479 0.510600930610 0.903492487080 -0.002694012176 0.009399192955
3.991377777000 -0.019237597698 0.030184170919 0.504656322718 0.899898756927 0.511740469048 0.902893742429 -0.002658656691 0.009061339154
3.991800000000 -0.019731793474 0.030874630276 0.505541517290 0.899155277124 0.514903879558 0.899778237026 -0.003139008200 0.012052414191
3.992222222000 -0.018901475362 0.029572843733 0.507787580286 0.898061618635 0.515264659119 0.900252122588 -0.002097746629 0.009114940522
3.992644444000 -0.018826796236 0.030045029539 0.510320823989 0.898368093106 0.517298895917 0.898409741801 -0.002465971087 0.009821624757
3.993066666000 -0.017796399959 0.029262086530 0.512796411540 0.895666457271 0.519348663851 0.898398530935 -0.002578875737 0.008862951374
3.993488888000 -0.018583480518 0.028888489863 0.512657859421 0.894906657203 0.520203100206 0.895878894108 -0.002579808477 0.009030794942
3.993911111000 -0.016749395857 0.029088819640 0.514715940400 0.894867182852 0.519993169372 0.896819325607 -0.000909199961 0.008793318545
3.994333333000 -0.018160765507 0.027158968843 0.516614544303 0.890798352457 0.526952835355 0.892280238483 -0.003771852047 0.008152251605
3.994755555000 -0.017862593092 0.027521118230 0.516602954324 0.891927232917 0.526206945857 0.893194754996 -0.001941151097 0.008103423851
3.995177777000 -0.017477919684 0.027996688349 0.518748626756 0.891458240108 0.526916916782 0.891085296848 -0.002118521621 0.008422794416
3.995600000000 -0.016140828577 0.027300674706 0.520635936891 0.890444748759 0.528025952829 0.892872812905 -0.000831804844 0.007408576465
3.996022222000 -0.015622529256 0.026992322646 0.523063961503 0.888952205922 0.528506797229 0.892278810740 -0.001115737141 0.006918499477
3.996444444000 -0.015926373822 0.026114341530 0.523781774396 0.886947830596 0.530337297356 0.891579660052 -0.001418297347 0.006986984482
3.996866666000 -0.015199438798 0.026748753281 0.525390700104 0.887296678364 0.531749980992 0.891215363519 -0.000705237724 0.007877083921
3.997288888000 -0.015758108810 0.025902293182 0.527598864985 0.886766583589 0.535500027279 0.887866568141 -0.001044813568 0.007147986811
3.997711111000 -0.015332235074 0.025467147374 0.527168635412 0.884016373414 0.535162527627 0.887337804488 -0.000833130407 0.007106302219
3.998133333000 -0.015847260293 0.025028550048 0.528777581530 0.883009286802 0.537622205263 0.886238979060 -0.001452770772 0.007391926554
3.998555555000 -0.014148624951 0.024805760245 0.533279284836 0.884184611411 0.539188543583 0.888084135199 -0.000381160744 0.005742089386
3.998977777000 -0.015537046442 0.024181965806 0.532016826349 0.881410479354 0.542834482247 0.883893619463 -0.001233442090 0.006866053580
3.999400000000 -0.015110744403 0.023503911902 0.532902205280 0.879552078829 0.541974773834 0.881680359864 -0.001016658147 0.007218231119
3.999822222000 -0.014567531724 0.023204098220 0.535116104975 0.879187947392 0.544819630861 0.882741125202 -0.000758333760 0.006311744231
4.000244444000 -0.015285095886 0.024073361191 0.535245175807 0.879536572654 0.544465820891 0.881915207838 -0.000836794834 0.006471971680
4.000666666000 -0.014548605070 0.023393391626 0.538639015257 0.878654578309 0.547615063685 0.879728180698 -0.000632462027 0.006692992748
4.001088888000 -0.013979655909 0.023459821757 0.540020741375 0.875397675269 0.546736099539 0.879641463353 -0.000538860275 0.007100905835
4.001511111000 -0.015150924875 0.022899473981 0.542698388832 0.874848115947 0.550245087636 0.876055898576 -0.001765587557 0.006156878195
4.001933333000 -0.013707146668 0.022505245367 0.542959179101 0.871206833860 0.549625140040 0.878592360946 -0.001504270534 0.006267860382
4.002355555000 -0.013564754645 0.021577636175 0.544945465522 0.872660398068 0.551791229741 0.877683810116 -0.000192380237 0.004916846053
4.002777777000 -0.014319683459 0.020148201893 0.544816667407 0.872509588766 0.555390879677 0.873991779295 0.000142967502 0.004842908798
4.003200000000 -0.015038351926 0.020667325184 0.546744156846 0.870359638636 0.555157526427 0.870950366545 -0.000979679734 0.005508970178
4.003622222000 -0.013647999614 0.020646004125 0.548508168970 0.870119603796 0.558311186402 0.873198875945 -0.000490252461 0.005795686812
4.004044444000 -0.014105958995 0.019714561384 0.551019078604 0.868529434781 0.558301188902 0.871864862587 -0.000548314007 0.004630964143
4.004466666000 -0.013718533769 0.020636152542 0.549309195020 0.865962082345 0.558710069068 0.872012998822 -0.000532502303 0.005915587086
4.004888888000 -0.013729353325 0.020424541317 0.552798769975 0.866490478470 0.558630694278 0.869344914575 -0.000351155117 0.005891323408
4.005311111000 -0.014192226990 0.019983558250 0.554436198755 0.865095671182 0.560449842352 0.867167217079 -0.000338870266 0.005900963725
4.005733333000 -0.015032925539 0.019036443750 0.554761276349 0.862498361015 0.562705428332 0.866187414560 -0.001291538685 0.004717691028
4.006155555000 -0.014363271292 0.019064660542 0.556491154771 0.861784365321 0.563697553526 0.865170381502 -0.000865237263 0.006121385021
4.006577777000 -0.015194516307 0.017911458566 0.557785125481 0.861510567266 0.567528002645 0.862172711766 -0.001309714112 0.005188059858
4.007000000000 -0.012287141211 0.016972709835 0.553898901793 0.866771473947 0.573487414376 0.869976066993 0.002781767495 0.005492850008
4.007422222000 -0.014384788085 0.018041972752 0.560564681343 0.860527973435 0.569038563720 0.863396131662 -0.000724267217 0.005086544027
4.007844444000 -0.014490537294 0.017179825497 0.560976169675 0.859165710556 0.572838471621 0.861916756461 -0.001218247258 0.004761110681
4.008266666000 -0.015333250155 0.016418251357 0.561388958591 0.856811689201 0.572461737646 0.859388579076 -0.000311568161 0.005124563355
4.008688888000 -0.013690269259 0.016295306801 0.563096970111 0.855022593085 0.573262979581 0.862219954849 0.000295374797 0.005201828872
4.009111111000 -0.014674511782 0.016276268406 0.564430219958 0.857661956457 0.575767952768 0.858381442800 0.000242862637 0.005222649112
4.009533333000 -0.013967507399 0.016406523400 0.565170146477 0.853637239489 0.575618732720 0.858921165341 0.000142098605 0.006225034526
4.009955555000 -0.014308182953 0.016605735694 0.567360931989 0.852799609522 0.577889193851 0.857271005547 -0.001176490561 0.006089118987
4.010377777000 -0.014866462949 0.016258586045 0.568825339385 0.850905660922 0.577943073646 0.855084377249 -0.001204647942 0.005793306457
