# GHZ S RI R 50.000000000000
3.950000000000 0.706673959618 -0.464620760456 -0.269943711573 -0.417256758768 -0.284903406819 -0.405410567965 0.714448467848 -0.479200897396
3.950422222000 0.704054427695 -0.465028662397 -0.270558882006 -0.414557926584 -0.285304504160 -0.404005091786 0.711555033390 -0.484443774166
3.950844444000 0.702902069488 -0.465555394111 -0.271081152963 -0.412410173326 -0.286357072346 -0.401684177577 0.706801039345 -0.489490005245
3.951266666000 0.702932624846 -0.468616259356 -0.271683742795 -0.411646177583 -0.284900870845 -0.400026117285 0.703659827165 -0.490202055672
3.951688888000 0.700466244192 -0.467812583219 -0.271639806538 -0.409818889770 -0.284813714479 -0.397655368382 0.702104535575 -0.493118302829
3.952111111000 0.699013759556 -0.469313719524 -0.272808315354 -0.408281472135 -0.285229299943 -0.397811705090 0.702761600613 -0.494226809652
3.952533333000 0.697744566513 -0.472474542905 -0.274020756925 -0.407392145179 -0.285330024362 -0.395777487892 0.700664688903 -0.497155611580
3.952955555000 0.698698281228 -0.472286249156 -0.272907306764 -0.406594945058 -0.286538883554 -0.394723125971 0.698903885422 -0.498956113784
3.953377777000 0.696404592444 -0.473619114404 -0.274457428175 -0.405484786719 -0.287474877124 -0.395063909882 0.701242759730 -0.500714640667
3.953800000000 0.696864716464 -0.472269518847 -0.272404354698 -0.403881956452 -0.286942062391 -0.392767890752 0.697364012344 -0.502585021145
3.954222222000 0.697514148697 -0.476514250741 -0.275430403212 -0.403328010184 -0.287442891234 -0.392883251007 0.697269695469 -0.504269838693
3.954644444000 0.697536102020 -0.475964213524 -0.274895359885 -0.404801515812 -0.286985960476 -0.391423371291 0.696710030311 -0.504690601828
3.955066666000 0.696144677588 -0.477025038329 -0.275362842363 -0.403738323562 -0.287265185062 -0.391981118023 0.698980106233 -0.504758734721
3.955488888000 0.695446160693 -0.481152099896 -0.276921404779 -0.401405944528 -0.288751065239 -0.390282212182 0.696072812124 -0.506719019371
3.955911111000 0.695796452118 -0.482581872149 -0.277721723826 -0.401796032618 -0.288877348694 -0.389476673781 0.695612477416 -0.508030090471
3.956333333000 0.695177772137 -0.482888692319 -0.277558012219 -0.402140222109 -0.288696391669 -0.388186191682 0.696126893038 -0.508542078543
3.956755555000 0.695655099148 -0.485673713179 -0.278640431910 -0.401326054060 -0.288749934222 -0.386916147616 0.694182241968 -0.510569800918
3.957177777000 0.695719345563 -0.487284027142 -0.278784411322 -0.400014372940 -0.289443291236 -0.387210285865 0.693631804714 -0.510193286339
3.957600000000 0.692530925405 -0.489935755102 -0.279964186640 -0.398847048988 -0.290079108572 -0.385667863570 0.694634312084 -0.511542873848
3.958022222000 0.697944382754 -0.489932238963 -0.279928473095 -0.399917100862 -0.290071963095 -0.384944978214 0.692712527176 -0.513837113200
3.958444444000 0.695752056806 -0.489117782593 -0.279430232479 -0.399031112187 -0.291294465346 -0.384544498042 0.694059229937 -0.515725421844
3.958866666000 0.693452614980 -0.491390470924 -0.281086870750 -0.397125856001 -0.290511226021 -0.383139716086 0.691989789793 -0.516996966431
3.959288888000 0.693494553453 -0.493522619410 -0.281920824837 -0.397119929650 -0.291639299131 -0.382984791261 0.693004367730 -0.517797890889
3.959711111000 0.693579889049 -0.495900769766 -0.282097070690 -0.396379970142 -0.291980708831 -0.382065830508 0.692444998001 -0.518648562156
3.960133333000 0.691744157048 -0.496944847595 -0.282830199223 -0.395341788522 -0.292966312099 -0.381172366905 0.693017629750 -0.520604468364
3.960555555000 0.693263654436 -0.500068239178 -0.283036233020 -0.395378883630 -0.292731406245 -0.381093749269 0.692040194040 -0.520113130540
3.960977777000 0.693803194642 -0.499688510801 -0.283168835614 -0.394495570303 -0.292923106509 -0.378631704200 0.690954012570 -0.522644543747
3.961400000000 0.695335365098 -0.501098906756 -0.284189407137 -0.395156612731 -0.293587775497 -0.379557365644 0.691604657436 -0.525682043657
3.961822222000 0.694138806101 -0.502945907136 -0.284302153363 -0.393305088423 -0.294021133163 -0.378043704062 0.690291383816 -0.525847166869
3.962244444000 0.693360767461 -0.504976552590 -0.284637156345 -0.392257944719 -0.293789207064 -0.377580029322 0.689336913758 -0.525197730887
3.962666666000 0.694166283372 -0.506026601448 -0.285180690501 -0.391800797802 -0.293887610678 -0.376240777640 0.688038400168 -0.527444579526
3.963088888000 0.692988102776 -0.509051064410 -0.286333764270 -0.391056484799 -0.294921219007 -0.375110490253 0.688140257110 -0.529667801935
3.963511111000 0.692812839293 -0.508390017236 -0.285897640423 -0.389800231875 -0.295133580008 -0.374406280298 0.687928683438 -0.530895517401
3.963933333000 0.691292154686 -0.510752679112 -0.286192794813 -0.388716548022 -0.296605448107 -0.372484593361 0.686870819845 -0.532348387223
3.964355555000 0.691064949014 -0.513660835534 -0.287969643730 -0.388549728229 -0.296458403405 -0.372851610299 0.687082556615 -0.533831773026
3.964777777000 0.692313870609 -0.517327166165 -0.289523382851 -0.389101144472 -0.296457325711 -0.372106934219 0.687244800863 -0.533697753227
3.965200000000 0.691427104901 -0.517029057467 -0.289306729382 -0.387540579256 -0.296499669346 -0.371135098294 0.686525924215 -0.535800808854
3.965622222000 0.690369902837 -0.518468991825 -0.289080882830 -0.386862872581 -0.297138120638 -0.370132736762 0.686212493347 -0.536208184895
3.966044444000 0.689470731016 -0.520705991527 -0.290487694777 -0.385345268632 -0.298211830366 -0.369172536563 0.686523104670 -0.539133071087
3.966466666000 0.688760325155 -0.520227707240 -0.291129623617 -0.384909844262 -0.297404897660 -0.367769445589 0.685872568950 -0.541161144173
3.966888888000 0.688287333106 -0.523332284360 -0.291742043587 -0.383694381821 -0.297696815670 -0.367254371706 0.686121407345 -0.542444375338
3.967311111000 0.689250102819 -0.524171267352 -0.291512489577 -0.383310447040 -0.298225149039 -0.366653035811 0.685263638359 -0.543708200985
3.967733333000 0.690654073758 -0.526992277192 -0.292244872707 -0.382857847706 -0.298890488642 -0.365460406868 0.683919188315 -0.545043028353
3.968155555000 0.688361338063 -0.529873248381 -0.292777347670 -0.382100719623 -0.299407433034 -0.365066243246 0.685280906031 -0.545475074726
3.968577777000 0.688325033590 -0.530492278858 -0.293202174151 -0.381315743568 -0.299236965698 -0.363868800308 0.683536976444 -0.547492364872
3.969000000000 0.686319543029 -0.529856198935 -0.294137212910 -0.380628037591 -0.299446329366 -0.362353639189 0.682895618658 -0.549803306115
3.969422222000 0.687890917590 -0.534612079157 -0.294274729114 -0.378819699185 -0.300519268511 -0.362074410811 0.681938640790 -0.550164136751
3.969844444000 0.687063235595 -0.535916792336 -0.295071453114 -0.377966204019 -0.300733620810 -0.361808402660 0.682469177871 -0.552616350139
3.970266666000 0.687487535313 -0.537362554042 -0.295247037441 -0.378034745465 -0.300785059185 -0.360329411526 0.682273410420 -0.553018968081
3.970688888000 0.686585162482 -0.537954842025 -0.295392403909 -0.376924043945 -0.301374066153 -0.359396207029 0.682537931160 -0.554934988943
3.971111111000 0.687472368892 -0.540171331449 -0.295856072846 -0.376435207258 -0.300965537777 -0.358216293244 0.681724421719 -0.556167946486
3.971533333000 0.685923701434 -0.544451136929 -0.297229780860 -0.374816071719 -0.302734476528 -0.357676382173 0.680876080890 -0.558269309395
3.971955555000 0.686444651715 -0.546157450100 -0.297817514257 -0.374410274530 -0.302391740655 -0.356955358926 0.680874440495 -0.558044565968
3.972377777000 0.686672077539 -0.547806717265 -0.298360586811 -0.373695397195 -0.302746856570 -0.356106260566 0.680181558121 -0.560467695855
3.972800000000 0.686296840996 -0.549697214130 -0.298963371640 -0.372542495568 -0.302487270013 -0.355271760267 0.679621814003 -0.561642610425
3.973222222000 0.686424044517 -0.550810969207 -0.299780922825 -0.371816237761 -0.302650306880 -0.354078158240 0.678535365807 -0.564348800118
3.973644444000 0.684083415974 -0.552842098711 -0.299541454869 -0.370433645888 -0.304088543367 -0.353173608904 0.678868933540 -0.565463809256
3.974066666000 0.684866627167 -0.554401387234 -0.300265337247 -0.370557445975 -0.303868987098 -0.352566597940 0.679185367980 -0.567570438204
3.974488888000 0.684318551124 -0.555092379485 -0.300168034164 -0.368891468634 -0.304490590211 -0.351147220334 0.678209459567 -0.567876230326
3.974911111000 0.683346940503 -0.557530732868 -0.301055324159 -0.367171274212 -0.305152430627 -0.350511359748 0.678032857994 -0.569830390739
3.975333333000 0.682523600380 -0.561025245384 -0.301340686984 -0.366837034560 -0.305400396546 -0.349995473168 0.677190061058 -0.570100013323
3.975755555000 0.683043627041 -0.562718630812 -0.302598936109 -0.365961188505 -0.304980079367 -0.348515827514 0.676734986838 -0.572845140528
3.976177777000 0.683278107318 -0.565747705944 -0.303089817257 -0.365156780622 -0.305560829486 -0.347691720290 0.675933576043 -0.573612174038
3.976600000000 0.680203693103 -0.565923224712 -0.303374461294 -0.363331863780 -0.306587257951 -0.346539219112 0.676951386312 -0.573880796496
3.977022222000 0.682176217716 -0.568926546633 -0.304190515916 -0.363193654102 -0.306520710506 -0.346197401872 0.675757271657 -0.578608852568
3.977444444000 0.682714185218 -0.573035957415 -0.304950420029 -0.362492607701 -0.307194967470 -0.345263924061 0.674100730137 -0.580771032426
3.977866666000 0.678546233379 -0.574712767019 -0.305481866350 -0.361108030545 -0.307782626546 -0.343589755487 0.674156477896 -0.580299222171
3.978288888000 0.680445423220 -0.576945870501 -0.305646972171 -0.360560553436 -0.307632366667 -0.342637643216 0.673894388303 -0.581538942886
3.978711111000 0.680036336512 -0.576433723281 -0.305869656017 -0.359304791047 -0.307820918502 -0.342321622235 0.673638377581 -0.585127697550
3.979133333000 0.677465244473 -0.579524292770 -0.305811890253 -0.358398271514 -0.308699393443 -0.340227332962 0.672720387874 -0.583823527830
3.979555555000 0.677683593188 -0.581811797327 -0.307371383026 -0.356930351982 -0.308327980686 -0.339788365771 0.671867986737 -0.586421454282
3.979977777000 0.677652092393 -0.584839255125 -0.307451470552 -0.355682668209 -0.309334942317 -0.339205293987 0.671506813351 -0.588709101422
3.980400000000 0.679147294561 -0.585772103157 -0.307968553347 -0.355600438986 -0.309125742119 -0.338374294082 0.671496004230 -0.592249407464
3.980822222000 0.676457948866 -0.587746583989 -0.308628678149 -0.353856962717 -0.308710193450 -0.336841279626 0.671506968672 -0.591969974298
3.981244444000 0.675179800666 -0.591538733690 -0.309495854866 -0.352607943438 -0.310103119549 -0.335634950586 0.669420037471 -0.593839860031
3.981666666000 0.675194073377 -0.594254536041 -0.310911704941 -0.350870554983 -0.309986313449 -0.335382072903 0.668580143718 -0.595636819481
3.982088888000 0.675056880247 -0.594480397341 -0.310231318671 -0.350304386764 -0.309774730239 -0.334657943062 0.671064303648 -0.597275625022
3.982511111000 0.675188684638 -0.598521267781 -0.310791523469 -0.350082384444 -0.310090763974 -0.333015543194 0.669526477482 -0.598969723249
3.982933333000 0.674191108965 -0.600828292570 -0.311794981043 -0.348696151942 -0.309976451175 -0.332712297883 0.669337269510 -0.599974238591
3.983355555000 0.671844718778 -0.600855334939 -0.311566147746 -0.347367397657 -0.310845314425 -0.331071521734 0.668190784117 -0.601291925836
3.983777777000 0.671999817510 -0.603198994205 -0.312179179008 -0.346418754790 -0.310371147366 -0.329876117838 0.667771864836 -0.603523289665
3.984200000000 0.674098562333 -0.604927233174 -0.311212918714 -0.345223169110 -0.311481820067 -0.328393273518 0.666451787625 -0.604640251915
3.984622222000 0.670500004074 -0.610833410391 -0.313529313677 -0.344240547474 -0.311150133776 -0.328265705246 0.667061668832 -0.605605923102
3.985044444000 0.670540652909 -0.610552800483 -0.313630396313 -0.343135429852 -0.311365641512 -0.327436896575 0.665599156950 -0.610040905650
3.985466666000 0.669259928306 -0.613173871687 -0.313727499314 -0.341630850622 -0.311699204201 -0.325881414364 0.665071666451 -0.609359372390
3.985888888000 0.669463110355 -0.615476980159 -0.314544590446 -0.340607479373 -0.311406319789 -0.325043144411 0.665904559091 -0.610669769826
3.986311111000 0.668444552659 -0.618230653877 -0.315112024364 -0.339086870092 -0.312327610878 -0.324520473850 0.664475419251 -0.613622679732
3.986733333000 0.667824195884 -0.621587995249 -0.315942890865 -0.338181680623 -0.311947065900 -0.323455551580 0.663820199863 -0.615043307267
3.987155555000 0.666094336917 -0.622269920826 -0.316173550440 -0.336898143187 -0.312020360339 -0.321746573330 0.663719915704 -0.615317916310
3.987577777000 0.667033945707 -0.623959260128 -0.315860295628 -0.335781944766 -0.312778702272 -0.321861265386 0.665306910277 -0.620128476077
3.988000000000 0.665010442205 -0.627026028008 -0.316645451346 -0.334644566959 -0.312639827876 -0.320510226438 0.662289055015 -0.618840063958
3.988422222000 0.664708707395 -0.628755764027 -0.317047581259 -0.333615554502 -0.312243642338 -0.319160141858 0.662421173256 -0.621299401931
3.988844444000 0.665066402649 -0.632661406707 -0.317931388881 -0.332128286851 -0.312558084164 -0.318489039729 0.661723299446 -0.624044883343
3.989266666000 0.659557185966 -0.634578666861 -0.317905524004 -0.330403669050 -0.313422662567 -0.316966606033 0.662033116093 -0.624066963826
3.989688888000 0.662771250501 -0.635933482409 -0.318083133162 -0.329484066355 -0.313322620097 -0.316483718399 0.660598496893 -0.627962687728
3.990111111000 0.660376376222 -0.641093625454 -0.319328996320 -0.328721187244 -0.313754229774 -0.315234120970 0.660518707660 -0.629294893009
3.990533333000 0.659463533517 -0.643878786017 -0.319930927234 -0.327034861649 -0.313773156888 -0.313792070027 0.658296773930 -0.630392771499
3.990955555000 0.658050455713 -0.645942041386 -0.319740134132 -0.325497618949 -0.313674697907 -0.313560408848 0.658627320534 -0.632515671678
3.991377777000 0.657199379913 -0.647788418414 -0.320303985358 -0.324451382623 -0.313731731531 -0.312514978285 0.658134414158 -0.634597738390
3.991800000000 0.655092800482 -0.650992716941 -0.320845088882 -0.323012581055 -0.314721733667 -0.309316109514 0.654457127219 -0.637309681099
3.992222222000 0.655803947818 -0.653584786192 -0.320754445740 -0.322103713004 -0.314142719718 -0.309824626052 0.655980807849 -0.636900612278
3.992644444000 0.653940422356 -0.654162766787 -0.321578873295 -0.320186360870 -0.314684731251 -0.308484923323 0.655543181598 -0.640166686454
3.993066666000 0.651821245268 -0.657765297750 -0.321975779997 -0.319049868921 -0.314625798853 -0.307736635051 0.654549619643 -0.640636329800
3.993488888000 0.652353255641 -0.659004980226 -0.322187109938 -0.317511594495 -0.314796871193 -0.306075929361 0.652943526655 -0.643272340302
3.993911111000 0.651082440334 -0.661676006734 -0.322483455869 -0.316449659762 -0.313896077098 -0.305574132126 0.654241676199 -0.642574082463
3.994333333000 0.646133469940 -0.667211831174 -0.322846820743 -0.315002351726 -0.315541453466 -0.303546191908 0.649358082255 -0.645601131214
3.994755555000 0.648021685801 -0.666847648958 -0.322938297309 -0.313907655871 -0.314811406924 -0.302684293372 0.650759577734 -0.649098365374
3.995177777000 0.647228688333 -0.669712368573 -0.323473588356 -0.312363670016 -0.315081231107 -0.301250004766 0.649824761929 -0.649984040133
3.995600000000 0.646495463404 -0.671318184541 -0.323828531406 -0.311247715543 -0.314830805590 -0.301020043696 0.651398577475 -0.652577003291
3.996022222000 0.646469051412 -0.674676601269 -0.324414546992 -0.309653272377 -0.314613763134 -0.300223984384 0.650598571218 -0.652933810135
3.996444444000 0.642936004739 -0.676668926953 -0.324615405003 -0.307845098720 -0.314866618768 -0.299532733467 0.650562318013 -0.654816243755
3.996866666000 0.642173663879 -0.679050444598 -0.324830509204 -0.306444206584 -0.315182894892 -0.298146309041 0.650591660448 -0.655717799459
3.997288888000 0.640881197869 -0.682461612324 -0.325470350837 -0.305414706616 -0.314976932274 -0.296296422006 0.646774538081 -0.658927034471
3.997711111000 0.639833717132 -0.684217632767 -0.325024396904 -0.304061741854 -0.314697375506 -0.294865297372 0.645957771207 -0.659679306950
3.998133333000 0.637822478736 -0.686312651937 -0.325483267314 -0.302605941510 -0.315352953399 -0.293999743239 0.644701626336 -0.661277901492
3.998555555000 0.637648247243 -0.689952136964 -0.326838407032 -0.301116161737 -0.315075959131 -0.294044039903 0.647363480458 -0.665163283661
3.998977777000 0.634086777314 -0.691747400524 -0.325951168587 -0.299600496885 -0.315977065349 -0.291745052671 0.644665341855 -0.665797781595
3.999400000000 0.632168428619 -0.696620006522 -0.326706490486 -0.297838699768 -0.314859020872 -0.290638871220 0.645465847991 -0.663517335676
3.999822222000 0.631017901426 -0.698217134684 -0.326458107512 -0.296636820827 -0.315796529014 -0.289752062722 0.644719466034 -0.669487442175
4.000244444000 0.630951070955 -0.699808616941 -0.326756566698 -0.295860963007 -0.315540486182 -0.288599805973 0.643637285517 -0.669641049452
4.000666666000 0.629706860222 -0.704447984245 -0.327217408332 -0.294393627751 -0.315491361512 -0.286242669719 0.639722079556 -0.671829734091
4.001088888000 0.628306481058 -0.703941662927 -0.327444476203 -0.291689205413 -0.315220286805 -0.285672801674 0.638933928113 -0.673443093863
4.001511111000 0.623514697120 -0.708220167900 -0.328438559414 -0.290639666106 -0.315871078985 -0.283909753440 0.639006459090 -0.677161228378
4.001933333000 0.623885452672 -0.709388263044 -0.328153481114 -0.288211863803 -0.315461756986 -0.284157379217 0.639644570083 -0.677537917421
4.002355555000 0.624498195307 -0.711996815351 -0.328232685143 -0.287936627884 -0.315140963218 -0.283271475945 0.639835156593 -0.680168941713
4.002777777000 0.620977974965 -0.714784892785 -0.327835126333 -0.287050659637 -0.315605971131 -0.280862750099 0.638923645697 -0.683131687827
4.003200000000 0.618582275843 -0.717702637624 -0.328563298642 -0.285102166592 -0.315200868711 -0.279480349368 0.636421845837 -0.683305191828
4.003622222000 0.617845013477 -0.721089123875 -0.328198848116 -0.283426769238 -0.315927891538 -0.277949021249 0.633998424594 -0.686973361955
4.004044444000 0.617059537774 -0.723575395400 -0.329006751886 -0.281819701555 -0.315556842081 -0.277542642410 0.634009327220 -0.689397446827
4.004466666000 0.614348051398 -0.725128019842 -0.328355800883 -0.280151655574 -0.315114910254 -0.276754816572 0.633804414606 -0.686421125528
4.004888888000 0.612891255625 -0.726418457190 -0.329240885679 -0.278904194044 -0.314577559447 -0.274759842872 0.632577375925 -0.690134698881
4.005311111000 0.609761525126 -0.729729338058 -0.329383947811 -0.277022249802 -0.315187941049 -0.273530453923 0.633034853799 -0.692568032224
4.005733333000 0.607576761939 -0.732900056494 -0.328869666193 -0.275826281616 -0.315682092372 -0.272345460861 0.630380647942 -0.695748164666
4.006155555000 0.605656958925 -0.735135960272 -0.329170780860 -0.273758647577 -0.315521305025 -0.270898819928 0.630056239382 -0.696185301036
4.006577777000 0.604417114711 -0.739515435418 -0.329146834810 -0.272967716855 -0.315981308769 -0.269733808352 0.628420339339 -0.698319017706
4.007000000000 0.608370590947 -0.740711467218 -0.326832182198 -0.273469672414 -0.317611102715 -0.268173286260 0.630649072414 -0.704179521483
4.007422222000 0.601649333502 -0.744211455761 -0.329571726422 -0.269872502042 -0.315538402446 -0.267701084507 0.626730739095 -0.702168450583
4.007844444000 0.599794727307 -0.748416984357 -0.329256854736 -0.268490441855 -0.315859033273 -0.266532674418 0.626114959637 -0.703274384209
4.008266666000 0.595581200790 -0.747486615290 -0.328588916743 -0.266942286074 -0.315429551312 -0.264436874481 0.625666780044 -0.706140136781
4.008688888000 0.595717984414 -0.751030532659 -0.328556387931 -0.264356187899 -0.315311737794 -0.264372316130 0.625434720119 -0.706688153042
