# GHZ S RI R 50.000000000000
3.950000000000 -0.040194618632 -0.000563326161 0.339614796665 0.918744420883 0.380654647575 0.896793123339 -0.041107369235 0.001176315672
3.950422222000 -0.038561503064 0.001410776637 0.351240384019 0.916704116153 0.381113311593 0.897391843738 -0.040273065588 0.003387233492
3.950844444000 -0.038710353162 0.002730391472 0.355711884382 0.915398748327 0.378473685378 0.897989615297 -0.040387202043 0.004524057874
3.951266666000 -0.036067901149 0.003059260096 0.364382198504 0.911320713946 0.380412083554 0.897505238765 -0.039267342914 0.003955505043
3.951688888000 -0.036140865575 0.003951764654 0.366061062599 0.911172411126 0.380918877667 0.897512974221 -0.038953238577 0.004932728876
3.952111111000 -0.036007511083 0.005326169037 0.370255091227 0.912093553685 0.382685583409 0.899992632087 -0.038456915197 0.006924578711
3.952533333000 -0.036038135671 0.004681755718 0.372090575381 0.911720977258 0.382481354497 0.897377826695 -0.038950315757 0.006593251904
3.952955555000 -0.035349885652 0.005652143384 0.374779091110 0.910947701766 0.383036725150 0.897872778939 -0.038381584822 0.006720075752
3.953377777000 -0.035071919176 0.005570128692 0.376226648466 0.909306324614 0.386096345344 0.896269591847 -0.037903216619 0.007042600972
3.953800000000 -0.034561731229 0.006683970342 0.376201851084 0.909138639066 0.384352792955 0.898580612747 -0.038080980634 0.007055814783
3.954222222000 -0.035438798864 0.006723156546 0.379162507736 0.908908055928 0.387605555747 0.898195887553 -0.037909717515 0.007477338211
3.954644444000 -0.035765579972 0.007131268995 0.380492960670 0.909348871151 0.388752990388 0.897913993902 -0.037944380249 0.007482289132
3.955066666000 -0.035410309362 0.007260539220 0.380295316369 0.909087784607 0.389757197096 0.896208813598 -0.037498663972 0.008228880669
3.955488888000 -0.035365880898 0.007679786516 0.383686679519 0.908499019933 0.389713520245 0.897137300240 -0.037246700267 0.007485316265
3.955911111000 -0.035474462400 0.007172079301 0.384811081437 0.907580515758 0.392101799446 0.896262534388 -0.037947859660 0.008040276501
3.956333333000 -0.036025419025 0.006855129873 0.382579582188 0.906725998301 0.393776906104 0.895567330832 -0.037568288812 0.007800334594
3.956755555000 -0.035891014889 0.009495132123 0.388218107075 0.909489215149 0.394435560524 0.897102305756 -0.036691138021 0.008986986716
3.957177777000 -0.035310708536 0.008667718747 0.389041281375 0.907359161238 0.396162464642 0.897568325396 -0.037137974033 0.008597217132
3.957600000000 -0.036078941131 0.009105709714 0.389655468739 0.907337526353 0.396570290074 0.895854716338 -0.037025538596 0.008648513543
3.958022222000 -0.034787390313 0.009767596597 0.395219932761 0.904641023955 0.400025760359 0.897738812562 -0.036488393580 0.009536416357
3.958444444000 -0.035008169916 0.009890178671 0.393544392095 0.905355030562 0.399944704578 0.895351442056 -0.036063835284 0.008562446788
3.958866666000 -0.035032949859 0.009921901101 0.396817298827 0.905963808663 0.401286728296 0.894816782101 -0.035639858711 0.009112488947
3.959288888000 -0.035221656078 0.010551191397 0.397789769034 0.906606569621 0.402863727727 0.895670006578 -0.035649274003 0.009439606955
3.959711111000 -0.034937732052 0.009823188202 0.398073589507 0.905523261013 0.404410405816 0.894814858876 -0.035923686513 0.008980247450
3.960133333000 -0.034761377363 0.010926336968 0.401328672816 0.905769222017 0.405880792478 0.895397788907 -0.035415186649 0.009949578439
3.960555555000 -0.033885906934 0.011666250565 0.402923908712 0.904905512056 0.406605869712 0.894963579275 -0.034612392635 0.008769105488
3.960977777000 -0.034095386274 0.011718625773 0.404507924932 0.904724193200 0.409245586835 0.895491859006 -0.035079606567 0.009791869978
3.961400000000 -0.034489985502 0.011886464780 0.402546847828 0.903176663783 0.408958251646 0.892585780689 -0.034064756225 0.009233011754
3.961822222000 -0.034623613501 0.012616593842 0.406750565469 0.905004583016 0.410405624511 0.894009294312 -0.034682343322 0.009965038119
3.962244444000 -0.034348154915 0.011730049943 0.406884129794 0.903375854157 0.412155735328 0.893486439225 -0.034546141490 0.009609660233
3.962666666000 -0.034544070912 0.012586706641 0.409262562529 0.903479574814 0.413282781427 0.892775458552 -0.034808437155 0.009850718763
3.963088888000 -0.033965087319 0.013355233624 0.411681883395 0.904023442043 0.415104947872 0.893476474570 -0.033906590107 0.009992199962
3.963511111000 -0.033675246525 0.013317047905 0.413079164717 0.902484085294 0.417031853347 0.894088620472 -0.034108429082 0.010604911497
3.963933333000 -0.034426138941 0.013406783836 0.414067354529 0.902715782742 0.418062421849 0.893045341641 -0.034069460760 0.010436731486
3.964355555000 -0.033824306134 0.014016001696 0.415125965592 0.903025234208 0.418762768957 0.892491006252 -0.033560398336 0.010164780779
3.964777777000 -0.032976643491 0.013185050274 0.417808537238 0.901109216894 0.421571891130 0.892329923961 -0.034822903029 0.009476589956
3.965200000000 -0.033317567805 0.014552610601 0.419872700998 0.902958004612 0.422834364085 0.892940278575 -0.033411513431 0.010734503309
3.965622222000 -0.032507802925 0.014664511938 0.422345366336 0.901549979241 0.424741398977 0.892567782937 -0.032625951275 0.010280788772
3.966044444000 -0.032895855070 0.014428294362 0.422744580424 0.900719969007 0.425289756958 0.892145284605 -0.033713063780 0.009914288188
3.966466666000 -0.033420347543 0.015197652824 0.422984900282 0.900195876437 0.426421114938 0.889556184428 -0.032694089836 0.011029533962
3.966888888000 -0.032617154383 0.015109749917 0.425958194296 0.898796713868 0.428790057356 0.891099249638 -0.032288418875 0.010630053073
3.967311111000 -0.032603439154 0.015718391087 0.427835203168 0.900587608022 0.430260592490 0.891470265931 -0.033085734042 0.010333048123
3.967733333000 -0.031852314992 0.015481763444 0.429398053077 0.898541716261 0.432303196436 0.889524705786 -0.032174051514 0.010632089417
3.968155555000 -0.031656203237 0.017071241896 0.431697772491 0.899541921576 0.432355156974 0.890827159256 -0.031222471040 0.010545226288
3.968577777000 -0.031390044082 0.016914343249 0.432977089732 0.897768350751 0.434149802608 0.890658177935 -0.031237979192 0.010833754673
3.969000000000 -0.030133207449 0.016885682161 0.435469610331 0.896460900305 0.435146753702 0.891793284237 -0.031083053083 0.010087999102
3.969422222000 -0.031527967358 0.016919946253 0.436330930804 0.897624771580 0.437311526770 0.890308423503 -0.031595114260 0.010439780695
3.969844444000 -0.030961549082 0.017126105906 0.438357529897 0.896687468118 0.438619396980 0.888560618086 -0.030908189741 0.010320343165
3.970266666000 -0.030009134841 0.017474393417 0.440547239811 0.896069044323 0.441032227174 0.889199763718 -0.030258436840 0.010427701953
3.970688888000 -0.030436317680 0.016581933433 0.441054374424 0.895004399281 0.442545044731 0.887205135761 -0.031301082716 0.009795329407
3.971111111000 -0.029542986514 0.017900419340 0.442777330464 0.894211259072 0.443999384651 0.888516393891 -0.030142276546 0.010472602404
3.971533333000 -0.029424843665 0.017682522952 0.444112391209 0.893935249353 0.444954118510 0.886752551801 -0.029943589672 0.010149870948
3.971955555000 -0.029469107151 0.017913843468 0.446208926892 0.893290049865 0.446414835912 0.886664950683 -0.030265563335 0.009514460589
3.972377777000 -0.029132469332 0.017837710439 0.448307415324 0.892688574430 0.448949840733 0.886831802934 -0.031224576626 0.010223617552
3.972800000000 -0.028685901414 0.018312368730 0.449706643823 0.892250078902 0.449841765900 0.885361917895 -0.029393883264 0.010010186155
3.973222222000 -0.027915088864 0.018370594097 0.451700780768 0.892196244739 0.451588061409 0.885510956142 -0.029314041729 0.008533733513
3.973644444000 -0.027891405706 0.018393027956 0.454224475431 0.891846886843 0.453825282112 0.885749367756 -0.029899164791 0.009006296229
3.974066666000 -0.028153506166 0.018830505089 0.455548278250 0.891242077575 0.454397804515 0.884956185118 -0.029537226190 0.010015926087
3.974488888000 -0.028237610501 0.018731538385 0.456860419119 0.890626358619 0.455695537787 0.883790727510 -0.030028878109 0.009182692430
3.974911111000 -0.027463102723 0.018232952966 0.458110178248 0.888263195296 0.458415229051 0.882705032413 -0.028958237020 0.008997932705
3.975333333000 -0.027052273672 0.018766552540 0.460119269155 0.888046692780 0.459827760916 0.882559479744 -0.029263988003 0.009840528137
3.975755555000 -0.026684435093 0.018762148042 0.461445757434 0.888377403259 0.460835876914 0.883421960463 -0.029776982576 0.008599731716
3.976177777000 -0.026150215139 0.019451485212 0.464089736243 0.887897210417 0.463185806145 0.882152578999 -0.028117533561 0.009658883157
3.976600000000 -0.026353739189 0.018324799928 0.464928947796 0.884692646799 0.465339672129 0.882561322396 -0.028589876721 0.010631649232
3.977022222000 -0.025385509393 0.019370489479 0.466879663547 0.886297983427 0.465959111979 0.881622466542 -0.028038417574 0.008391411065
3.977444444000 -0.025381272034 0.019392190861 0.468885422093 0.885167308221 0.469077856851 0.880475679043 -0.028167164398 0.008697086671
3.977866666000 -0.024821008642 0.019273967684 0.470293163092 0.884262593176 0.469924571826 0.879935705931 -0.028272578050 0.009025905086
3.978288888000 -0.024640347588 0.019487244111 0.472159142111 0.882826819423 0.470357535001 0.879361891685 -0.027642569528 0.008138117309
3.978711111000 -0.024572323762 0.019234060107 0.473567843080 0.882531913889 0.472599468809 0.878962566600 -0.028918479030 0.007591562256
3.979133333000 -0.023456753377 0.019405138602 0.475695488999 0.882629208305 0.474115926227 0.879313071851 -0.027955468665 0.006877662341
3.979555555000 -0.023398968308 0.018722530093 0.476929515520 0.880748571015 0.477078589011 0.877868120675 -0.029140200498 0.007493852747
3.979977777000 -0.022927156016 0.019016516774 0.478932079791 0.879924321134 0.478234487580 0.877381838435 -0.028081847996 0.006712478626
3.980400000000 -0.023226933054 0.018974184858 0.480064894930 0.879313085850 0.478853052050 0.876515108253 -0.028082034940 0.006874503781
3.980822222000 -0.023252169391 0.018984046048 0.480674609410 0.878807349279 0.480160028392 0.874968946102 -0.027840823642 0.006778094580
3.981244444000 -0.022830907406 0.018783052424 0.483391769235 0.876848971131 0.483188490348 0.874281558510 -0.028406760718 0.007544966772
3.981666666000 -0.022177583697 0.018748424025 0.485878242794 0.877380724238 0.484764338101 0.875283743211 -0.028436102514 0.006341313421
3.982088888000 -0.021944023451 0.019298912362 0.486454552670 0.875343784453 0.485666074439 0.873652608630 -0.027381587350 0.007118446092
3.982511111000 -0.021836309586 0.019538918404 0.488058272059 0.875626472356 0.487006204165 0.872452962622 -0.027386594915 0.006305909536
3.982933333000 -0.021309551779 0.019726800404 0.489138878997 0.875021060562 0.488083760625 0.872628128676 -0.027491371643 0.006205479271
3.983355555000 -0.021702481004 0.019305928468 0.490539298443 0.873147094657 0.489581053595 0.871545886299 -0.027888809846 0.006653350089
3.983777777000 -0.020449367653 0.018865938166 0.492998088312 0.872456390875 0.491850893289 0.871298950773 -0.026442413818 0.005559023329
3.984200000000 -0.020398228923 0.019365390889 0.493674962169 0.871840605403 0.491962035764 0.870973016630 -0.027316571850 0.006090246383
3.984622222000 -0.020447114712 0.019040127422 0.495826758193 0.871085809276 0.495256976266 0.868779922639 -0.027687858287 0.005469242340
3.985044444000 -0.020393176004 0.018358242565 0.497330904811 0.869537975445 0.497330244951 0.867499121368 -0.028094909274 0.005703050090
3.985466666000 -0.019434971660 0.019374367658 0.498934147831 0.869444745006 0.498147796908 0.867280587519 -0.026741775854 0.005532118651
3.985888888000 -0.019148390052 0.018906929063 0.499949925725 0.867531966769 0.499518791781 0.867134469170 -0.026439327160 0.005316314686
3.986311111000 -0.018557407307 0.018019964071 0.502799488616 0.866619218850 0.502906204900 0.866685330344 -0.027387643318 0.004460946093
3.986733333000 -0.018939926815 0.018682514150 0.503617122699 0.864601688879 0.504778088439 0.863784848822 -0.027609592709 0.006715768454
3.987155555000 -0.018510042747 0.018158521064 0.505350653343 0.864765242701 0.505225427610 0.866090317293 -0.028272358938 0.004403192062
3.987577777000 -0.017891145446 0.018917878010 0.507380805985 0.864585347680 0.506741542721 0.864854974876 -0.027879404774 0.005860727750
3.988000000000 -0.018105582431 0.017982880141 0.508461213696 0.863421814766 0.508183703501 0.863419477838 -0.028155303463 0.004014463296
3.988422222000 -0.018029383911 0.018324867456 0.509761367585 0.861966719502 0.508861487045 0.862228197308 -0.027585015174 0.004735329517
3.988844444000 -0.017525337220 0.017656196468 0.511707747653 0.861444040838 0.511760840375 0.861837775773 -0.028082498882 0.004162709624
3.989266666000 -0.017005174419 0.017618459729 0.514206371248 0.860536378877 0.512629560179 0.862484199131 -0.028401225937 0.003464430566
3.989688888000 -0.017525037002 0.017133149811 0.514907229938 0.859461188596 0.514616507662 0.858690808270 -0.028370835941 0.002950093974
3.990111111000 -0.015950720057 0.017771204732 0.516778765347 0.859624639468 0.515300545065 0.861254167325 -0.027222796424 0.003070727997
3.990533333000 -0.016292896209 0.017260403407 0.517767575185 0.857418906481 0.516966197936 0.858861161589 -0.027355035101 0.002991966836
3.990955555000 -0.016309686238 0.016907314109 0.519661907388 0.855816227742 0.518107386153 0.856576849714 -0.027980836606 0.002985845027
3.991377777000 -0.016222321230 0.016394057539 0.521532934720 0.855277790159 0.521392486497 0.857062260581 -0.028931479252 0.002592824969
3.991800000000 -0.015082572512 0.016649119368 0.522950112470 0.854544993860 0.521576671059 0.859106861678 -0.028436937489 0.002977505246
3.992222222000 -0.015570108785 0.016485272913 0.524559547840 0.853165603913 0.522954708464 0.854755245398 -0.027828505005 0.003026229220
3.992644444000 -0.015159751044 0.016154922747 0.525397991611 0.851298363268 0.525696943117 0.853373461136 -0.029189365209 0.002799189563
3.993066666000 -0.015165738838 0.016428984520 0.526387166645 0.850604925924 0.526854152421 0.852601383070 -0.028561166790 0.003516387781
3.993488888000 -0.014863793586 0.015687968459 0.528067274240 0.850223781955 0.527881088048 0.852180356715 -0.028217578930 0.002103092977
3.993911111000 -0.014841930981 0.015327585450 0.530042445497 0.848717419691 0.530599527803 0.849946932799 -0.029031789816 0.001864513576
3.994333333000 -0.014882611830 0.014586716511 0.531219630989 0.847367040098 0.533406784879 0.851582536672 -0.029255823467 0.002048919149
3.994755555000 -0.015040796303 0.015382989780 0.533118598322 0.846807557685 0.532486254372 0.849082850506 -0.029482836747 0.001386720603
3.995177777000 -0.014822251233 0.014974114898 0.534135093118 0.844606062098 0.535640421351 0.848184281585 -0.030201126104 0.002174939409
3.995600000000 -0.014631301156 0.015015436553 0.535119944182 0.844488824139 0.535561598916 0.846167027098 -0.029509480257 0.001843771071
3.996022222000 -0.013781356787 0.014685349264 0.537164353053 0.843558663492 0.537648930227 0.847444751448 -0.029252897915 0.001019110367
3.996444444000 -0.014249415733 0.014668906620 0.538020423255 0.842472757867 0.538315085639 0.843827099834 -0.029427777688 0.001971548065
3.996866666000 -0.014529885248 0.014963886253 0.538965323830 0.842348227573 0.538633484461 0.842973332583 -0.029252215854 0.001484443004
3.997288888000 -0.014369495712 0.013807226889 0.540803549141 0.839704536488 0.543408854209 0.841916852864 -0.030827967850 0.001627610093
3.997711111000 -0.013633426227 0.014333883656 0.542564396858 0.839796985997 0.543275361463 0.842751132697 -0.030242623952 0.001686152713
3.998133333000 -0.013665727980 0.013553053708 0.544022444746 0.837836565340 0.544334775894 0.839354073589 -0.030226630435 0.001607626169
3.998555555000 -0.013126469414 0.013551221732 0.545566318533 0.837279662680 0.546041707850 0.839778975776 -0.029949299319 0.001452271526
3.998977777000 -0.013415137379 0.013588150207 0.546173573052 0.835930636971 0.547126950278 0.838661117842 -0.030495580294 0.001489218153
3.999400000000 -0.013737782310 0.014259640184 0.548020853419 0.835140844275 0.548443220080 0.838450742065 -0.031649094011 0.002069470736
3.999822222000 -0.013636528489 0.012917974818 0.549266624315 0.834241419254 0.551902810301 0.837689884784 -0.031479132111 0.000539128229
4.000244444000 -0.012344252039 0.012991453203 0.552549405337 0.833731278160 0.551823908693 0.836903253833 -0.030859055617 0.000748574160
4.000666666000 -0.012627656174 0.012304570150 0.552158931778 0.832429078651 0.555623626883 0.835072806678 -0.031111904824 0.000660217218
4.001088888000 -0.013536309260 0.012808357909 0.554135502087 0.829690797737 0.554740325198 0.832709695563 -0.032275850668 0.001235618129
4.001511111000 -0.013514143484 0.011834996501 0.555014351795 0.829910369930 0.556273225023 0.831975654754 -0.031538867900 0.000285803758
4.001933333000 -0.013929473308 0.012123310626 0.556671927274 0.829566880720 0.558275456459 0.828914894931 -0.031716818457 0.001414568209
4.002355555000 -0.013106068840 0.012772105516 0.556737508830 0.828387497097 0.558436668654 0.831306198169 -0.032445182702 0.001109860957
4.002777777000 -0.012676643323 0.011738678438 0.559074495759 0.826260843541 0.559126805390 0.828934602640 -0.031278317369 0.000921812744
4.003200000000 -0.012904844665 0.010908229927 0.559587098286 0.825557533514 0.563644885945 0.827934279135 -0.031844612442 0.001120816769
4.003622222000 -0.012669013255 0.011126227737 0.562426907192 0.825311528196 0.565153359701 0.826961200139 -0.032379762790 0.000855627744
4.004044444000 -0.013421781560 0.012041513408 0.563741814816 0.823099055132 0.563084681968 0.824568008855 -0.033240472834 0.001243121202
4.004466666000 -0.012508122414 0.011675501544 0.563105590421 0.819467562386 0.562425719150 0.825555748170 -0.031864695875 0.001871925744
4.004888888000 -0.013448521994 0.010130720602 0.565176105050 0.820112641422 0.568462670824 0.822900257130 -0.032742721096 0.000648722710
4.005311111000 -0.013991576541 0.010279677058 0.567245867276 0.819246945783 0.569631968776 0.820690676219 -0.033863165135 0.000514440789
4.005733333000 -0.012702304269 0.010644787127 0.567729554591 0.817898937238 0.570114775256 0.824042893866 -0.033567188777 0.000549610318
4.006155555000 -0.013276749227 0.010130191236 0.567967529967 0.818342068145 0.572008379769 0.821444483984 -0.032873882832 0.000299385697
4.006577777000 -0.013432404501 0.010364525522 0.569238544429 0.815786528705 0.571718720776 0.818808621730 -0.033300014532 0.001128347378
4.007000000000 -0.012812131289 0.008740799701 0.568656727311 0.814953569380 0.574612248062 0.819777199166 -0.032893269499 0.000825195604
4.007422222000 -0.013626081711 0.009900261744 0.573058306295 0.812491896195 0.575176687166 0.815499898073 -0.034486999950 0.001210294767
4.007844444000 -0.013640369010 0.009602148599 0.574458409976 0.812004796042 0.576279875412 0.815619855589 -0.034021246059 0.000945983619
4.008266666000 -0.013776932667 0.009255261504 0.574177017697 0.810967654704 0.580595413215 0.814960872662 -0.035022714645 0.001015486816
4.008688888000 -0.013308318188 0.010125256092 0.576415676357 0.810754231622 0.580667388371 0.813848751673 -0.034865714447 0.001672417353
4.009111111000 -0.014364842420 0.009422066775 0.575963776494 0.811950682193 0.582550704476 0.812331272531 -0.034822800123 0.001419823084
4.009533333000 -0.013351268501 0.009427585215 0.576608248832 0.809236784591 0.581893808604 0.810777325480 -0.034145175978 0.001922702977
4.009955555000 -0.014132772583 0.008978994759 0.579448986927 0.806733523051 0.581367761347 0.809234842474 -0.034308569592 0.001712936932
4.010377777000 -0.014310375473 0.008548207451 0.580997815447 0.806738447710 0.585524180106 0.807480932581 -0.034817566794 0.001621707498
