# GHZ S RI R 50.000000000000
3.950000000000 -0.036574515831 0.003003428219 0.375099354590 0.910684401464 0.359771567755 0.909401930444 -0.038694036318 0.026123300603
3.950422222000 -0.037281929043 0.001721303920 0.375512930903 0.910326436243 0.361200172120 0.906965154665 -0.039847446303 0.025808147545
3.950844444000 -0.037613253067 0.000876601419 0.371542221601 0.906592618522 0.360506096777 0.906440343869 -0.041042930383 0.024810365808
3.951266666000 -0.038480195472 0.000707925237 0.375712015278 0.906758738609 0.360714256279 0.906678084977 -0.041645433843 0.025426562130
3.951688888000 -0.037831840400 0.000543369156 0.378066717580 0.904854353488 0.361844371933 0.903304504009 -0.039722408390 0.025006838157
3.952111111000 -0.038512920383 0.001655252451 0.377187693555 0.907378508768 0.364715452815 0.905174210031 -0.040831280667 0.026804220993
3.952533333000 -0.038723091249 0.002172610598 0.378941082898 0.905994449688 0.365796132516 0.905423659627 -0.040074925478 0.027150241398
3.952955555000 -0.039029998734 0.002122920874 0.380044300697 0.904989412095 0.367202868479 0.906873180525 -0.041254417211 0.027490403640
3.953377777000 -0.038409727494 0.001751468621 0.381652906444 0.906186090875 0.369064158863 0.904020438351 -0.040717466637 0.027585307051
3.953800000000 -0.037497129728 0.002204651593 0.380259470121 0.901449746467 0.371013584172 0.903697620482 -0.039388640058 0.026703797662
3.954222222000 -0.039422756415 0.001826375439 0.383447632631 0.904362834218 0.369208659291 0.903640984301 -0.040492397105 0.026876089253
3.954644444000 -0.039690853234 0.003288127756 0.383413568136 0.905473985313 0.370653904817 0.903485825746 -0.040579201931 0.027984293306
3.955066666000 -0.038716923577 0.003841106868 0.386993638386 0.905558546736 0.372869992021 0.904076147513 -0.039499067170 0.028371795151
3.955488888000 -0.039173324494 0.003794409574 0.386963070724 0.903670692915 0.375061907665 0.903615260523 -0.039250910451 0.028021484243
3.955911111000 -0.040411570362 0.003732601839 0.388479994466 0.902858684229 0.374997279689 0.903073360504 -0.040052908922 0.028515637517
3.956333333000 -0.039236435635 0.003682922472 0.389839612880 0.900878008460 0.379941143668 0.903491224706 -0.038906993881 0.029070652707
3.956755555000 -0.040254944395 0.004353796797 0.391822519859 0.903749874505 0.375081199611 0.903502523563 -0.039972017111 0.028473247311
3.957177777000 -0.038958955514 0.003805685912 0.394151989476 0.901553106647 0.380469709863 0.901069678202 -0.038011513281 0.028226965274
3.957600000000 -0.039641200833 0.005371494577 0.395178734111 0.901598866906 0.380187892175 0.903140014773 -0.039151250090 0.028909891650
3.958022222000 -0.038824297916 0.005057101186 0.397331434954 0.903390235045 0.383345724059 0.902434833231 -0.037559896712 0.029513582129
3.958444444000 -0.039333070610 0.005622626248 0.397827256020 0.902656758691 0.380444624392 0.903967704400 -0.039577655946 0.027996549335
3.958866666000 -0.039731985975 0.005492241868 0.398996443054 0.903645960808 0.384581967110 0.903883604411 -0.039065759888 0.029826240517
3.959288888000 -0.040261361456 0.006197758447 0.398456103358 0.902545397523 0.385403629818 0.901955715839 -0.038402711172 0.030436346670
3.959711111000 -0.038531231623 0.006701013990 0.402147419937 0.901655897350 0.389130342349 0.901567810333 -0.036761626471 0.029824196773
3.960133333000 -0.039498566242 0.007035633346 0.403755507960 0.901854216468 0.389287821254 0.902737836153 -0.037630243501 0.031049309527
3.960555555000 -0.038241016782 0.007843709713 0.406547479706 0.901469061557 0.391523351386 0.902108074836 -0.036664850191 0.030187871961
3.960977777000 -0.039152792849 0.008264099987 0.406161445756 0.903186778206 0.391391405106 0.901152928017 -0.036908818039 0.030413853614
3.961400000000 -0.038562193230 0.008490323811 0.411099173212 0.903083998191 0.390602819072 0.902859395844 -0.037857317938 0.030268777884
3.961822222000 -0.039352825471 0.008608668140 0.410164431103 0.900961518086 0.393159765790 0.901884552369 -0.037342502448 0.031366771209
3.962244444000 -0.038907486435 0.009337467304 0.411391840091 0.903261654061 0.396461168987 0.901610024915 -0.035914811672 0.031688731747
3.962666666000 -0.039320395121 0.009797826360 0.412641389647 0.900970738541 0.395676345215 0.900425464185 -0.036380497254 0.031692170324
3.963088888000 -0.038418234667 0.009703364084 0.414955607870 0.900971306602 0.397920766624 0.900933641607 -0.036018274878 0.030790975680
3.963511111000 -0.038051066785 0.009688911508 0.417403969594 0.899470535986 0.401506258677 0.900449145717 -0.036082011618 0.031672507601
3.963933333000 -0.039336590361 0.010247430106 0.416372406135 0.900381049103 0.401961144447 0.898987906228 -0.035370796771 0.031933109161
3.964355555000 -0.038792506587 0.010097894665 0.417317795804 0.899057540630 0.402127886600 0.900466676962 -0.036273039372 0.031466576577
3.964777777000 -0.038082239375 0.010679085156 0.419300616545 0.899072320762 0.404287815191 0.900797142739 -0.035020824373 0.031015726118
3.965200000000 -0.037361345821 0.010313797503 0.423068680242 0.897855952109 0.407068862743 0.898982216155 -0.034774024190 0.030896107975
3.965622222000 -0.037220400978 0.011236446775 0.425782547042 0.897491373541 0.407352908680 0.899046889511 -0.035014514053 0.031689048741
3.966044444000 -0.037812913382 0.012155291212 0.424327947547 0.898177894906 0.407359253291 0.899612491667 -0.034537641563 0.032273639736
3.966466666000 -0.036203645550 0.011440209378 0.428840854802 0.896795256993 0.409679185170 0.899016389724 -0.034751934718 0.030466196938
3.966888888000 -0.037260076544 0.011709645296 0.429839306982 0.896553744632 0.412342373172 0.899041968925 -0.034460177110 0.032087322148
3.967311111000 -0.037244234867 0.012142053034 0.430151780493 0.896017371321 0.412679224903 0.896968541708 -0.033553437023 0.032054748004
3.967733333000 -0.037403714440 0.012113305834 0.431360111592 0.894807978340 0.415087085536 0.897090730620 -0.033998578635 0.031961348885
3.968155555000 -0.036515220469 0.011969236272 0.435800948132 0.894427845154 0.417691847566 0.896209560330 -0.033583201278 0.031473626836
3.968577777000 -0.036721836313 0.013074546678 0.435575650866 0.895737630749 0.416428417883 0.897662571612 -0.033729069347 0.031800323214
3.969000000000 -0.038168109294 0.011877524620 0.433692566783 0.893825015137 0.419730715970 0.893744947067 -0.034236455177 0.032052256689
3.969422222000 -0.037167552825 0.013703738368 0.438101703297 0.894033921256 0.420437314130 0.895846358542 -0.033236376899 0.031997409005
3.969844444000 -0.035351017766 0.013721810813 0.440149637761 0.894050912027 0.421540990596 0.897769912535 -0.032518197331 0.032156201675
3.970266666000 -0.035373155778 0.013979078841 0.443363473437 0.893154166665 0.426231715278 0.895507913720 -0.031851140643 0.031771716541
3.970688888000 -0.035164539784 0.014315954491 0.444195973128 0.893424843951 0.426485669578 0.895239265595 -0.031777731716 0.031917371930
3.971111111000 -0.034146340019 0.014183337520 0.446665319496 0.892800990815 0.428260671041 0.895652633510 -0.031489099426 0.031284661030
3.971533333000 -0.034565139302 0.015004073476 0.448391686657 0.892648236460 0.428655298371 0.893017790023 -0.031236267177 0.031421533008
3.971955555000 -0.033845799481 0.014292437992 0.450000415360 0.890076108066 0.431914130592 0.895025994291 -0.031474715775 0.030905937848
3.972377777000 -0.033879873516 0.015740220420 0.451465708110 0.891887116357 0.433254682049 0.893393157583 -0.030156200574 0.032370557492
3.972800000000 -0.033551083315 0.014633173294 0.452313289737 0.889792254048 0.433635135727 0.894180995939 -0.031262281804 0.031242491475
3.973222222000 -0.033501390994 0.015735367387 0.453810795753 0.889964980576 0.435069932900 0.892912325977 -0.030104410326 0.030983879437
3.973644444000 -0.033402983239 0.015678033669 0.455937328143 0.889862635955 0.437909476533 0.892837414389 -0.030399415746 0.031939980077
3.974066666000 -0.034073735202 0.015385075579 0.456764391980 0.887751822175 0.439700327944 0.889800693275 -0.030528158193 0.032351668128
3.974488888000 -0.032477548596 0.016196821280 0.459352263121 0.888195147268 0.440339770617 0.892720999861 -0.029388943163 0.031221523461
3.974911111000 -0.031931602878 0.015428936612 0.460730644162 0.885150707653 0.442668962640 0.892189111619 -0.029914391238 0.031328879058
3.975333333000 -0.032456196366 0.015993874635 0.463332680485 0.885985607425 0.443666378675 0.889551984787 -0.029787356786 0.031274055133
3.975755555000 -0.031618595282 0.015655919489 0.464685830195 0.885101919665 0.447364264873 0.890633495253 -0.030031727216 0.031222794260
3.976177777000 -0.031001920111 0.016677498148 0.467032824907 0.885037494414 0.446038812089 0.889891954546 -0.028501402899 0.031052237470
3.976600000000 -0.031453609020 0.016930657513 0.467114888978 0.884526128782 0.448888292995 0.887254326319 -0.027598217751 0.030605241376
3.977022222000 -0.030494404021 0.016132495357 0.469716021142 0.883461823683 0.450517289225 0.889311689109 -0.028708490443 0.029630849690
3.977444444000 -0.030248850866 0.016689774262 0.471137996010 0.881862997574 0.450375662230 0.887620426285 -0.027988583286 0.029885905472
3.977866666000 -0.029972391213 0.016624757187 0.472997731010 0.882434578261 0.453278459752 0.889235153858 -0.028795412677 0.029586927079
3.978288888000 -0.030027066125 0.016569659193 0.474373896532 0.881255864582 0.454885257112 0.886720036652 -0.027900678744 0.030353280437
3.978711111000 -0.029349523316 0.016332153993 0.475918278370 0.878954302759 0.456325021111 0.885560428840 -0.027769927562 0.030082035674
3.979133333000 -0.028676029039 0.017183370361 0.478455233104 0.880876636099 0.458509607625 0.886649315343 -0.027633964018 0.028842953135
3.979555555000 -0.028051654383 0.016626102646 0.480227440853 0.878708289088 0.461515406259 0.887234024074 -0.027661561904 0.029506158952
3.979977777000 -0.028391158202 0.016521127437 0.481268962968 0.877227280273 0.462278722910 0.883544342997 -0.027305761969 0.028938488825
3.980400000000 -0.027930544503 0.016870462291 0.481564568310 0.877396299565 0.462950208605 0.885228024071 -0.026821206689 0.028793908139
3.980822222000 -0.027670677428 0.016047973207 0.484484064196 0.875897828704 0.465797033031 0.884014221708 -0.027796236573 0.027962707936
3.981244444000 -0.027485012039 0.016579655331 0.485731710197 0.875588013203 0.467039340720 0.884678439671 -0.026610492523 0.028829733721
3.981666666000 -0.028872067958 0.016660451413 0.485939107279 0.874139074588 0.470277805280 0.880824205388 -0.027717930950 0.029598329030
3.982088888000 -0.027275802235 0.016839662514 0.489287686431 0.873297522997 0.470302860557 0.880290922362 -0.026454337503 0.028203486985
3.982511111000 -0.025585072795 0.016768623412 0.491372161653 0.872829122283 0.472283772772 0.883056423343 -0.026411687818 0.027738556361
3.982933333000 -0.026002970003 0.015886898782 0.493127818884 0.872135767595 0.474221517833 0.881277699526 -0.026337689892 0.027040981104
3.983355555000 -0.026537776482 0.016273987359 0.493057392344 0.869711741859 0.475505139381 0.878461738871 -0.027236189764 0.027919025366
3.983777777000 -0.026678084006 0.016033769226 0.495426724633 0.868948029561 0.478138730564 0.879213038126 -0.026964835600 0.027620563003
3.984200000000 -0.025999689086 0.015511279889 0.496409796251 0.867204180678 0.480722769216 0.876813750035 -0.026836786068 0.027501590627
3.984622222000 -0.025657375872 0.016485930420 0.497913403357 0.868911557286 0.480466597649 0.876399841393 -0.025658367373 0.027167564172
3.985044444000 -0.026237029430 0.016090748340 0.499125697990 0.866985542636 0.481677599005 0.875074336980 -0.027102306710 0.027315158543
3.985466666000 -0.024497753536 0.016765361709 0.501486333098 0.866884738483 0.482402042456 0.876171065761 -0.025678664572 0.026649197594
3.985888888000 -0.025100722505 0.015620336515 0.502972154043 0.864128615401 0.486662918231 0.873807064073 -0.026526182777 0.026957783170
3.986311111000 -0.024212533107 0.016291083533 0.505014745612 0.864333085357 0.485427786853 0.873577029199 -0.026117867695 0.025884456316
3.986733333000 -0.024788802555 0.015225558215 0.505895764517 0.863003111898 0.491428240569 0.872031332888 -0.026557870570 0.026261444568
3.987155555000 -0.024620158668 0.016284205784 0.507070615251 0.861974480572 0.488712651314 0.871811728299 -0.026070255130 0.025974359711
3.987577777000 -0.023352908101 0.016474889961 0.508973751498 0.862184643742 0.491241950845 0.873289263173 -0.026991032086 0.026588478698
3.988000000000 -0.023496173600 0.015022922701 0.511816909661 0.861092627117 0.494997881676 0.872256618775 -0.027023807001 0.024725918764
3.988422222000 -0.022578496350 0.016079765606 0.512377837891 0.861066938751 0.494620041380 0.871643734027 -0.025382677782 0.025362290112
3.988844444000 -0.022985542341 0.015289871016 0.513291909601 0.858315013654 0.497008347122 0.869359805749 -0.025979170863 0.024961620733
3.989266666000 -0.021874108689 0.014531925865 0.518114960691 0.856256927162 0.499368283544 0.871239316985 -0.026656764998 0.023789686057
3.989688888000 -0.022718397065 0.015060953941 0.517939948448 0.856322213759 0.501163964993 0.868424901659 -0.026527483975 0.024706063423
3.990111111000 -0.021282442646 0.015410712691 0.519954985427 0.855307676125 0.500909766939 0.867652271908 -0.025308073188 0.024515572032
3.990533333000 -0.021787612089 0.015062793625 0.520633338613 0.855530042715 0.502686176060 0.867428466782 -0.025907382451 0.024079428089
3.990955555000 -0.022292334963 0.014132295012 0.522143870764 0.853500320627 0.506609685801 0.865700507465 -0.027299076895 0.023958345835
3.991377777000 -0.021829176832 0.014318703944 0.524414765128 0.852639731184 0.507138836836 0.865654002770 -0.026959436227 0.023639920743
3.991800000000 -0.021533011073 0.014302481800 0.525585100817 0.851068832260 0.508702696832 0.863787433046 -0.026659149484 0.023544318088
3.992222222000 -0.021195390197 0.014654871507 0.526320907365 0.850918260234 0.507794613230 0.862489407433 -0.026074396957 0.023606762970
3.992644444000 -0.021898708607 0.014481626752 0.527754687563 0.848846838308 0.509767725138 0.859781749434 -0.026904962231 0.024323155480
3.993066666000 -0.020970406920 0.013736672586 0.529663466272 0.848538514203 0.513008515277 0.861645703865 -0.026496306989 0.023496444312
3.993488888000 -0.021178739633 0.013724544648 0.530679917442 0.846593263970 0.515819764264 0.859351365336 -0.027513969722 0.023931127880
3.993911111000 -0.020333551542 0.014335553879 0.531547299133 0.847742079528 0.515082181481 0.858621337326 -0.026184292057 0.023434714983
3.994333333000 -0.019993342916 0.012154725905 0.534467460239 0.845128928840 0.518176182177 0.861786004267 -0.026847836358 0.020761695037
3.994755555000 -0.021052298193 0.013900348316 0.533892348747 0.844351320933 0.518257964753 0.857092521752 -0.026695450624 0.023142716688
3.995177777000 -0.019823086183 0.013061450774 0.536744442894 0.844126943385 0.519889118852 0.859025545828 -0.026468389005 0.021844907818
3.995600000000 -0.020389273549 0.012665150099 0.537850315063 0.842532738279 0.522697543843 0.856262740597 -0.027467281525 0.021862722125
3.996022222000 -0.020948324041 0.012565401177 0.537242822028 0.840495928461 0.523489368363 0.852709721330 -0.027123981495 0.022599862975
3.996444444000 -0.019725733763 0.013345882412 0.540688825124 0.841605149566 0.523742544780 0.854873106683 -0.026898988826 0.022131619293
3.996866666000 -0.020175712479 0.013836239883 0.541547862040 0.840198202569 0.525367097753 0.854238739101 -0.027590889943 0.022119593421
3.997288888000 -0.019868506222 0.013609306022 0.542622336686 0.839066667634 0.526306207929 0.852143772389 -0.026898016580 0.022498117916
3.997711111000 -0.019774815077 0.011972895790 0.545182854829 0.838040666661 0.530916363036 0.850790368891 -0.027596103998 0.021193766225
3.998133333000 -0.019848575808 0.012439312834 0.544646714773 0.835901598171 0.529895518247 0.848412106086 -0.027276029696 0.021986100949
3.998555555000 -0.020245455612 0.011631046620 0.547562733564 0.834692953517 0.534965747214 0.846594830958 -0.028732062980 0.021636782452
3.998977777000 -0.019690011194 0.012519985508 0.547380647347 0.834140681983 0.531105408322 0.846166822729 -0.027274249705 0.022151684256
3.999400000000 -0.020566479829 0.011848279527 0.553960398310 0.833534303380 0.537073044002 0.841964992219 -0.029388519311 0.021533355181
3.999822222000 -0.019744676370 0.011185640902 0.551346729659 0.832074935539 0.535733053778 0.844855764147 -0.027697613111 0.021043029182
4.000244444000 -0.019166032966 0.010544679436 0.551445867609 0.831310427422 0.539555852124 0.844454441888 -0.028103053240 0.021521224461
4.000666666000 -0.020110709537 0.010926329546 0.553603174955 0.829763567738 0.538693120779 0.842503559084 -0.028328369376 0.020953866015
4.001088888000 -0.018910737228 0.010987672060 0.554836127717 0.829283718289 0.541250466543 0.842693637619 -0.027542471290 0.021433394746
4.001511111000 -0.019462807656 0.011080303530 0.555015539743 0.827515612943 0.542865669283 0.842796360971 -0.028812394003 0.021407212167
4.001933333000 -0.019508632524 0.011747204032 0.556901031237 0.827406306407 0.542035093446 0.840798259063 -0.028722060887 0.021249723592
4.002355555000 -0.019121884267 0.011324789578 0.558021903229 0.824755826684 0.543422267774 0.840199908497 -0.028271939160 0.021404202597
4.002777777000 -0.019948242895 0.009974631456 0.561262769883 0.826305874284 0.548073606388 0.838285378770 -0.028760029637 0.019750604415
4.003200000000 -0.019967619252 0.010898077724 0.562833858406 0.823497042552 0.547772279156 0.836273121500 -0.029319488580 0.020546298237
4.003622222000 -0.018975982840 0.010963572656 0.563070337946 0.823075963014 0.549537042870 0.836000242015 -0.028983585078 0.021345101718
4.004044444000 -0.018706221104 0.009957884320 0.563145984088 0.821447112867 0.552093572066 0.836405448441 -0.028623315903 0.021101222737
4.004466666000 -0.019438264036 0.010329843300 0.563847707077 0.820262416391 0.551642119918 0.834021806321 -0.029343191019 0.021577831638
4.004888888000 -0.020222842689 0.009948557757 0.565343750323 0.820225555552 0.553707785842 0.832329988486 -0.029173520638 0.020274336654
4.005311111000 -0.019051880078 0.010436112922 0.566063865296 0.817254389962 0.553184074450 0.833726128425 -0.029033789913 0.021211071342
4.005733333000 -0.020021093121 0.010012980484 0.567217685697 0.817389995409 0.555644346740 0.831784978249 -0.028979733043 0.020749479792
4.006155555000 -0.019174023103 0.010370291439 0.567823561095 0.815857375213 0.556383202389 0.832140495211 -0.029547733689 0.021526759991
4.006577777000 -0.019977075408 0.009553767451 0.571056996848 0.814326023028 0.557797230679 0.829640148240 -0.029622349044 0.020701550976
4.007000000000 -0.019953822764 0.009757740266 0.577119939605 0.815151249366 0.561352270267 0.823323067879 -0.030081348545 0.021860644984
4.007422222000 -0.019528229405 0.009268284749 0.572427416393 0.812682983555 0.561779099607 0.826592141189 -0.029377574244 0.021502066902
4.007844444000 -0.020266463579 0.008563206042 0.573130458130 0.812113058552 0.563404412370 0.825846778266 -0.029445756212 0.020561193764
4.008266666000 -0.020045508531 0.009910088380 0.575922815012 0.808819900762 0.563049018350 0.824510091342 -0.029980151999 0.021450041219
4.008688888000 -0.020688508412 0.009328403197 0.575168332069 0.808597306193 0.564610738944 0.822432125103 -0.029849714934 0.021430157527
4.009111111000 -0.021101427011 0.008035766976 0.576918739060 0.808641666554 0.569531636276 0.818462727916 -0.030318751374 0.020755029704
4.009533333000 -0.019848135585 0.009594353196 0.578092848747 0.804662275977 0.566378413069 0.822333372461 -0.030114625646 0.021620859989
4.009955555000 -0.021367593103 0.009727389856 0.578908212920 0.803167632047 0.567851435178 0.817785341649 -0.031305789286 0.021782502822
4.010377777000 -0.020658761042 0.008897877305 0.581026769095 0.805194703797 0.571090469927 0.818185742612 -0.030677618920 0.021494022449
