# GHZ S RI R 50.000000000000
3.950000000000 -0.030384841376 0.011262964098 0.375010605959 0.911922183974 0.366816012100 0.908696488813 -0.045610072228 0.011343944613
3.950422222000 -0.031633654022 0.012190962211 0.374940480019 0.911641945592 0.368534815762 0.910236608656 -0.046332115746 0.012101797238
3.950844444000 -0.032753558839 0.012712090937 0.373670781846 0.914069453875 0.368755111183 0.908760862474 -0.045991034834 0.012706501954
3.951266666000 -0.032181626102 0.012273795636 0.374751220557 0.911080358338 0.369673075403 0.908075632288 -0.046281783072 0.010870064327
3.951688888000 -0.032890567917 0.012799351837 0.372224917054 0.911701174663 0.371515000476 0.907098341912 -0.046074334355 0.011505784099
3.952111111000 -0.033656912192 0.013935915261 0.374044060940 0.914103359395 0.371975772422 0.909806884627 -0.046306930102 0.012894070879
3.952533333000 -0.033552417658 0.012822535793 0.374274855939 0.913583029903 0.373674053402 0.905107191031 -0.045750600136 0.012350779447
3.952955555000 -0.032415974958 0.014333461053 0.377628632121 0.912655544554 0.377342808276 0.907399753763 -0.045163906092 0.013453828816
3.953377777000 -0.033428027081 0.014020053689 0.376017500714 0.911921777518 0.376564279982 0.905883957292 -0.045964543175 0.012479931551
3.953800000000 -0.031855099655 0.014724656055 0.378176942689 0.910421718165 0.377503605001 0.906599498016 -0.044502830700 0.012403971629
3.954222222000 -0.033897491329 0.015760229751 0.379430907663 0.914222096364 0.377528901539 0.909204715270 -0.045973181505 0.013374797554
3.954644444000 -0.033557815494 0.015137835165 0.383102205142 0.912417458498 0.379108650160 0.905808336148 -0.044590315172 0.012242215473
3.955066666000 -0.033267117725 0.015970948785 0.381405175477 0.911562554618 0.382003916564 0.907002896848 -0.045234094849 0.014002693918
3.955488888000 -0.032980042532 0.015797635133 0.383331762181 0.910813479221 0.382792486094 0.904652337520 -0.043905792947 0.012972983525
3.955911111000 -0.032935431194 0.015461565512 0.385472724165 0.910642052000 0.384961148029 0.904463050561 -0.044672253445 0.013556479027
3.956333333000 -0.033744058192 0.015735859759 0.383774372412 0.912429170058 0.385409708976 0.905145537070 -0.044723346245 0.013766114181
3.956755555000 -0.033418528165 0.017735748775 0.388843351736 0.913474651251 0.386369790330 0.904177920139 -0.043108260027 0.014031818410
3.957177777000 -0.032820347344 0.016852689812 0.389884408656 0.910809613778 0.388130751347 0.904950017441 -0.043602845566 0.013589090275
3.957600000000 -0.033942200091 0.017425132372 0.390384577069 0.910526531153 0.387864688901 0.904888090967 -0.044253121704 0.013550694971
3.958022222000 -0.032868042114 0.018087000140 0.393256433231 0.910011227528 0.391014374124 0.904376901414 -0.043438468313 0.014582013567
3.958444444000 -0.032550276817 0.018169486494 0.393466666871 0.909955209937 0.391756667916 0.902469647259 -0.042554319620 0.013833085050
3.958866666000 -0.032982776798 0.018405324241 0.393045215321 0.910773205290 0.394122982602 0.902002248308 -0.042659915324 0.014758417587
3.959288888000 -0.032929146995 0.018696819083 0.396152072875 0.910579180669 0.394874068945 0.902795300839 -0.042462492513 0.014422717187
3.959711111000 -0.032620067502 0.018521738950 0.397295820716 0.911350978967 0.396316908080 0.902911136233 -0.042617002607 0.014318014728
3.960133333000 -0.032710796323 0.019254928478 0.398741059550 0.908918281112 0.398030632982 0.903651805492 -0.042808851857 0.014925461904
3.960555555000 -0.031309121788 0.020211531605 0.403249007517 0.908811798563 0.399101639897 0.903508910800 -0.041191871629 0.013806559193
3.960977777000 -0.032014961764 0.020106955500 0.403548005808 0.909117656527 0.400113138846 0.903797362877 -0.042055433102 0.014346878514
3.961400000000 -0.031892079298 0.020575319926 0.402943894816 0.908420154098 0.401113225904 0.900878136734 -0.040331815108 0.014172300156
3.961822222000 -0.031922349628 0.020863966210 0.405786425785 0.908821327070 0.403211493457 0.901580991465 -0.041101829490 0.014770294356
3.962244444000 -0.031728945226 0.020367707975 0.407262465939 0.907080259375 0.403499724346 0.902995658034 -0.041589994481 0.014110834489
3.962666666000 -0.031678798634 0.021344717220 0.409363419182 0.907975709783 0.405870909313 0.902133851632 -0.041458010800 0.015007002576
3.963088888000 -0.031441777561 0.021578864678 0.409864735792 0.906823777907 0.407810821966 0.901570579373 -0.040700220624 0.014803712921
3.963511111000 -0.031217085703 0.021808897551 0.411701062213 0.907515463880 0.408849420905 0.902367100962 -0.040889272734 0.015466902253
3.963933333000 -0.031145432412 0.021865178370 0.414557849347 0.905773844076 0.411715281983 0.902130743350 -0.040555744258 0.015581059499
3.964355555000 -0.030800903268 0.022101999513 0.414722706809 0.905721498780 0.411944356338 0.900419663456 -0.039742386074 0.014785833688
3.964777777000 -0.030599197674 0.022084832969 0.417076258049 0.907148117570 0.412297836838 0.900893722862 -0.041466992193 0.013901618025
3.965200000000 -0.030631416211 0.022736278329 0.418609895235 0.906169129009 0.414900634566 0.901197337784 -0.039992197606 0.015105714535
3.965622222000 -0.029887327252 0.023061664667 0.420189280964 0.905800257951 0.417221350559 0.900681201204 -0.039117093148 0.015109878129
3.966044444000 -0.029632508367 0.022828328965 0.422692470963 0.904304941004 0.417841781813 0.900598926526 -0.039952023431 0.014276097462
3.966466666000 -0.030448272399 0.024345244382 0.423449714841 0.906199245192 0.418302097094 0.899065804459 -0.038898703059 0.015710322532
3.966888888000 -0.029741784379 0.023411564744 0.425563987222 0.902412128895 0.420455913172 0.899684497686 -0.038593135167 0.014574798477
3.967311111000 -0.029381207193 0.023681261297 0.427513303926 0.903251497988 0.423012112511 0.899581009356 -0.039243212128 0.014581222703
3.967733333000 -0.028906695841 0.023770283142 0.428609286937 0.902200057255 0.424448707298 0.897748924374 -0.038270081046 0.014586274843
3.968155555000 -0.028389478335 0.025157460459 0.430895105104 0.903055511048 0.425095379918 0.898476877070 -0.037064373704 0.014836912920
3.968577777000 -0.028261203939 0.025067138853 0.431513049936 0.901219107690 0.427043980220 0.898858515267 -0.037380945117 0.015169269194
3.969000000000 -0.028617883420 0.023837120759 0.427961111622 0.898949393433 0.426592036866 0.896878991352 -0.037327155342 0.014023384616
3.969422222000 -0.028450471824 0.025287886211 0.434699212207 0.901772103034 0.430152456865 0.898942622288 -0.037864724298 0.014971454582
3.969844444000 -0.028009255063 0.025531340919 0.436092246947 0.901344449816 0.431375535238 0.896753899779 -0.036912002929 0.014860692110
3.970266666000 -0.027087095090 0.025726813692 0.438041152237 0.900514025582 0.433729594765 0.897184026129 -0.036224830992 0.014985500551
3.970688888000 -0.026904540303 0.025201977330 0.440960743870 0.899395548966 0.435507253225 0.896045156699 -0.037041281794 0.013958675601
3.971111111000 -0.026455898675 0.026640894874 0.441906943433 0.899348917830 0.436071333560 0.897650331044 -0.036152125781 0.014549079287
3.971533333000 -0.026052692342 0.026541255549 0.443248878637 0.899560920454 0.438133724493 0.895573552571 -0.035592493352 0.014855313686
3.971955555000 -0.026172583855 0.026541122504 0.445530652327 0.897950186151 0.438797932535 0.895670699388 -0.035963074529 0.013587043198
3.972377777000 -0.025907145618 0.026282788491 0.446741408023 0.897747427544 0.441213977402 0.895349532803 -0.036805951268 0.014241829823
3.972800000000 -0.025038643229 0.027036869084 0.449276235895 0.897459916705 0.443142013199 0.894412827773 -0.034991971507 0.014508336774
3.973222222000 -0.024490292446 0.026585696678 0.450640013241 0.896217894093 0.444559734179 0.893621097612 -0.034820128118 0.012461397427
3.973644444000 -0.024455046903 0.026438465426 0.452784983117 0.895317125412 0.446729840526 0.894120995292 -0.035417074107 0.013059080387
3.974066666000 -0.024397599084 0.027179076789 0.454829580356 0.895973072538 0.447810730121 0.892915831896 -0.034492324231 0.014146603617
3.974488888000 -0.024462677886 0.026654478855 0.455822939456 0.893710196006 0.448858672042 0.892416653669 -0.035557876343 0.013109930509
3.974911111000 -0.023823201538 0.027274871664 0.457250761283 0.894656682544 0.451304759929 0.892076612128 -0.034492377418 0.013219212726
3.975333333000 -0.023204527523 0.027366383582 0.459966410196 0.893244011993 0.452856403655 0.891552062096 -0.034481604756 0.013803468810
3.975755555000 -0.022839199644 0.027097741613 0.460840425327 0.892310095383 0.453889892436 0.892276299100 -0.035075225526 0.012511255582
3.976177777000 -0.022525364170 0.027688195025 0.463241251876 0.891973125531 0.455424690630 0.890578559349 -0.033388466580 0.012921629332
3.976600000000 -0.023154965535 0.028061063796 0.464177117639 0.893429237930 0.456997165802 0.891833657141 -0.033409414940 0.014324723553
3.977022222000 -0.021435411742 0.027672855840 0.466574813942 0.890509243512 0.458471323777 0.890578424619 -0.033177633795 0.012062471317
3.977444444000 -0.021560437023 0.027978036170 0.467950916449 0.890460112769 0.461590047877 0.889609435009 -0.033308942503 0.012364797748
3.977866666000 -0.021304316641 0.027704318601 0.468796458538 0.889332677586 0.462156536805 0.888826566908 -0.033312575134 0.012599148519
3.978288888000 -0.021064675085 0.028010857538 0.470410903124 0.887802568098 0.463006888053 0.888312699708 -0.032817258527 0.011845507944
3.978711111000 -0.021136984550 0.027718400071 0.471785657726 0.888764512630 0.465360468222 0.887519916956 -0.033488073128 0.011466457308
3.979133333000 -0.019703924793 0.028150714209 0.474833807607 0.888206085546 0.466702875646 0.888745051038 -0.032941533632 0.010375337842
3.979555555000 -0.019531391602 0.026952754719 0.475914091542 0.885521797623 0.469611236089 0.886584041224 -0.033760580296 0.010966804986
3.979977777000 -0.019013733765 0.027669661761 0.478143197497 0.885207375411 0.470744255602 0.886739721582 -0.032919698993 0.010155894419
3.980400000000 -0.019611890223 0.027327173183 0.478309490578 0.884761353481 0.471220174193 0.885739934565 -0.032930685345 0.010541398029
3.980822222000 -0.018944516733 0.026930282938 0.480416901396 0.882565726764 0.473233714384 0.883732319261 -0.032321473751 0.010237456063
3.981244444000 -0.019047461631 0.027115409269 0.482048461175 0.882108256108 0.475990394512 0.883261640188 -0.032795868717 0.011061163427
3.981666666000 -0.017817594635 0.026372677556 0.485400135180 0.880313891324 0.477851825955 0.884115152241 -0.032776780633 0.009641823947
3.982088888000 -0.017664801694 0.027726313729 0.485815107358 0.880576828224 0.478723626582 0.882867391019 -0.031784537112 0.010569020163
3.982511111000 -0.017791495735 0.027108193420 0.486045500558 0.879153126547 0.479985276979 0.881616802931 -0.032165164584 0.009712417615
3.982933333000 -0.017026046539 0.027569418016 0.487727842090 0.878891964437 0.481214512520 0.881792686697 -0.031944831211 0.009633531149
3.983355555000 -0.017651016238 0.027545529504 0.489328322601 0.878341539635 0.482703182151 0.880599321988 -0.031952237308 0.009954222377
3.983777777000 -0.016335660506 0.027074223089 0.491788759967 0.877406449715 0.484797545149 0.880441542380 -0.030580928630 0.008825633906
3.984200000000 -0.016296197449 0.027559116799 0.492209125598 0.877203107407 0.485130580099 0.880078455372 -0.031453342983 0.009358921196
3.984622222000 -0.016010917974 0.026991020791 0.494949401260 0.875935436131 0.488513283805 0.877936950262 -0.031712492162 0.008752732016
3.985044444000 -0.015785956794 0.026337481381 0.496909509626 0.874306251661 0.490772431737 0.876342869119 -0.032296671750 0.008787026787
3.985466666000 -0.014877005707 0.027224542890 0.498421457412 0.873909316951 0.491455268073 0.875994492172 -0.030735544386 0.008399805971
3.985888888000 -0.015096468170 0.027125723964 0.498205248749 0.873424516412 0.493105868190 0.876172008268 -0.030092329631 0.008482792629
3.986311111000 -0.014263037816 0.025790637635 0.501656798546 0.871484091733 0.496339029606 0.875794281138 -0.031219328743 0.007630110914
3.986733333000 -0.014763732797 0.027041773518 0.502792427599 0.870887103296 0.498077914603 0.873199979243 -0.031075295257 0.010190462008
3.987155555000 -0.013810723804 0.025976005786 0.504903067516 0.869125125599 0.498501526791 0.875387364199 -0.031998334627 0.007278739681
3.987577777000 -0.013306345818 0.026595823342 0.506363854884 0.868930096787 0.500034741627 0.874162857601 -0.031508957100 0.008678620039
3.988000000000 -0.013459685386 0.025662284197 0.507716228169 0.867645837215 0.501148553589 0.873071728222 -0.031613903351 0.007006337592
3.988422222000 -0.013467518336 0.026246556176 0.509050387044 0.866849147503 0.501915538163 0.871611984055 -0.031052076025 0.007942302743
3.988844444000 -0.012937789721 0.025553457828 0.510952901435 0.866409988078 0.504922995954 0.871162867103 -0.031379776539 0.007332385014
3.989266666000 -0.012430906390 0.025208187910 0.512939534304 0.864965250886 0.505977680902 0.871735360554 -0.031823917559 0.006331677055
3.989688888000 -0.012654126757 0.024870557184 0.514332616313 0.864227390975 0.507986599632 0.867800160075 -0.031657801912 0.005633667759
3.990111111000 -0.011145301286 0.025478420883 0.516304520038 0.864077035625 0.508409397381 0.870114620337 -0.030685862802 0.005776561792
3.990533333000 -0.011347865475 0.025328186726 0.517731044320 0.862771637213 0.510201717765 0.868333409911 -0.030230998664 0.005854709472
3.990955555000 -0.011981208560 0.024664927472 0.518051326043 0.861705032175 0.511868987075 0.865686936344 -0.030946417054 0.005851625900
3.991377777000 -0.011512537378 0.024058613007 0.520784747749 0.860295285577 0.514940675651 0.866188300916 -0.031995484283 0.005283319189
3.991800000000 -0.010316436909 0.024382085299 0.521964955449 0.859728374122 0.515055556943 0.868463225440 -0.031454233817 0.005896559777
3.992222222000 -0.010808065962 0.023988424775 0.523481571163 0.857929344934 0.516365430182 0.864041628154 -0.030771628587 0.005746782552
3.992644444000 -0.010427674417 0.024075990612 0.524418772052 0.856887931472 0.519315561283 0.862959519138 -0.031855587132 0.005439022087
3.993066666000 -0.010239291180 0.023682537455 0.525188386327 0.855401402313 0.520615169069 0.862170834863 -0.031277463043 0.006069209873
3.993488888000 -0.009938024730 0.023483936879 0.527570432017 0.855656898202 0.521678288411 0.861926204695 -0.030678733674 0.004667642967
3.993911111000 -0.010036965294 0.022839496302 0.529064313199 0.853939242837 0.524190706668 0.859494091397 -0.031576626355 0.004501565672
3.994333333000 -0.009819192087 0.022362900515 0.531005532924 0.852552524137 0.526759471988 0.861359218810 -0.031564794736 0.004638826586
3.994755555000 -0.010207262029 0.022765242078 0.532108059088 0.851844926646 0.526200808273 0.858212684837 -0.032018194204 0.003964137356
3.995177777000 -0.010046963554 0.022269005668 0.532862340975 0.849977214934 0.529316337716 0.857649906553 -0.032578317941 0.004719829957
3.995600000000 -0.010106360093 0.022097744021 0.533507463822 0.849791114152 0.529563980168 0.855711276123 -0.031866607630 0.004383888384
3.996022222000 -0.008964040797 0.022012157042 0.536118038571 0.848860223987 0.531273023701 0.856913644725 -0.031570818341 0.003622049760
3.996444444000 -0.009215447071 0.021882942541 0.537098822781 0.847601466155 0.532428067017 0.853353953362 -0.031589433689 0.004397730461
3.996866666000 -0.009665444762 0.022122073456 0.538305478865 0.847606137398 0.532566515619 0.852446521884 -0.031440834947 0.003866229235
3.997288888000 -0.009321102802 0.021236392003 0.540009729679 0.845128928141 0.537434366373 0.851557416032 -0.032791658886 0.003992837975
3.997711111000 -0.008676294338 0.021452720854 0.541682932329 0.844972465963 0.537221984075 0.852324910675 -0.032213121957 0.004018690018
3.998133333000 -0.008676184218 0.020759459242 0.543532564840 0.843088347691 0.538397831506 0.849450154237 -0.031991971836 0.003958534563
3.998555555000 -0.008025783659 0.020366983622 0.544389599227 0.842226358038 0.539976817921 0.849945650966 -0.031773732851 0.003809626450
3.998977777000 -0.008421798554 0.020509255880 0.545289629116 0.841086892944 0.540755969317 0.848499619873 -0.032389271639 0.003819447748
3.999400000000 -0.007669670071 0.020462269664 0.546603358789 0.839298943171 0.544010038974 0.848456938058 -0.033434157677 0.004109349873
3.999822222000 -0.008869724601 0.020249320477 0.547996938050 0.839854605031 0.545044998757 0.847875787183 -0.033105679307 0.002845572160
4.000244444000 -0.007457053076 0.020020218189 0.551330489504 0.839163503423 0.544911587760 0.846557858761 -0.032438022537 0.003011550394
4.000666666000 -0.007658629084 0.019203046818 0.550823675209 0.838001092806 0.549189843536 0.844542799477 -0.032610079221 0.002823988628
4.001088888000 -0.008596186250 0.019421635406 0.552699054658 0.835058081351 0.549141388498 0.842078373649 -0.033710027289 0.003260171600
4.001511111000 -0.008282891592 0.018837276292 0.554088003692 0.835264475985 0.550856997249 0.841497604518 -0.032855306692 0.002227039667
4.001933333000 -0.008213535003 0.019273166371 0.556156123658 0.834723849700 0.552366585495 0.839552159731 -0.032973526970 0.003345922542
4.002355555000 -0.008301028862 0.018947701953 0.555497416823 0.834157576257 0.554111931350 0.839834725642 -0.033621352142 0.003054651195
4.002777777000 -0.007623385276 0.019213619568 0.558144592465 0.832040463064 0.552244554678 0.839013518383 -0.032337105851 0.002885432995
4.003200000000 -0.007922433314 0.018162184144 0.558753261796 0.831129072609 0.557414516534 0.837568240390 -0.032925085034 0.003004420040
4.003622222000 -0.007807199852 0.017769379740 0.561631087445 0.830584251892 0.559356504061 0.835983028966 -0.033360602134 0.002656384239
4.004044444000 -0.008547799293 0.018441599558 0.562783642640 0.828612249530 0.557298333175 0.833473258931 -0.034188162805 0.003150422863
4.004466666000 -0.007482856572 0.018419798664 0.562094189857 0.824855213063 0.556516453699 0.835164584825 -0.032748193960 0.003870820923
4.004888888000 -0.008119003926 0.016927656851 0.564260936366 0.825600148989 0.562960493696 0.832682205347 -0.033525402584 0.002507436403
4.005311111000 -0.008590128358 0.017048246271 0.566511086985 0.824738887372 0.564699860864 0.831035499469 -0.034610233596 0.002316935073
4.005733333000 -0.007703807434 0.017585080730 0.566928563120 0.823310151701 0.563285386058 0.833738931737 -0.034155292540 0.002279516554
4.006155555000 -0.007842988874 0.016699254312 0.566879637713 0.823634006051 0.566770141808 0.831047631627 -0.033499979601 0.002010848927
4.006577777000 -0.008055579770 0.017117616540 0.568365483220 0.821381389348 0.566953813178 0.829292891033 -0.033762624908 0.002838088553
4.007000000000 -0.007032737105 0.015137167330 0.567773272314 0.820429914358 0.570653125035 0.830224287459 -0.033301752626 0.002584461559
4.007422222000 -0.008744633199 0.016132922186 0.571942194953 0.817880493774 0.569558255988 0.824712662904 -0.034947231735 0.002925156423
4.007844444000 -0.008415268689 0.016505160211 0.573401263438 0.817466835512 0.570330387879 0.826450622548 -0.034383426136 0.002569573736
4.008266666000 -0.008623776370 0.015410441189 0.573483079029 0.816832113111 0.575643467479 0.824666746244 -0.035122521149 0.002769909838
4.008688888000 -0.008779532601 0.016186925373 0.575654300518 0.816179508745 0.573099846546 0.821894275695 -0.035088897659 0.003341341928
4.009111111000 -0.009114513500 0.015425563368 0.575076854575 0.817837716644 0.577880148156 0.822250269632 -0.034938541922 0.003054355764
4.009533333000 -0.009402114068 0.015575383721 0.576005399175 0.814307988863 0.574786638065 0.819576273779 -0.034242506161 0.003415307939
4.009955555000 -0.009412609240 0.015409534541 0.578786522666 0.812316438292 0.575031255101 0.818564776927 -0.034216109453 0.003194199473
4.010377777000 -0.008708002060 0.015159390585 0.579959151618 0.812103360084 0.580570357322 0.819929738326 -0.034788473391 0.003034043580
