# GHZ S RI R 50.000000000000
3.950000000000 0.020187982109 -0.500590108088 0.849081174779 -0.002157246423 0.836349008727 -0.003737716847 -0.025157723467 -0.489583711267
3.950422222000 0.019181026813 -0.499181407888 0.847770191667 -0.002565497726 0.835935203410 -0.003473467041 -0.028001736641 -0.489723094252
3.950844444000 0.017502209154 -0.498561515681 0.848626278278 -0.001515958993 0.836087652713 -0.003748553359 -0.028219689243 -0.489336055939
3.951266666000 0.017382552717 -0.498208680101 0.848482108084 0.000237854953 0.837173599579 -0.005003657544 -0.029512432714 -0.490002047021
3.951688888000 0.014867103213 -0.497552750288 0.847569036698 -0.002204632331 0.835917162553 -0.005224327760 -0.030945646500 -0.488660166464
3.952111111000 0.014622530664 -0.497977285369 0.849488444172 -0.003451565715 0.835630401584 -0.006820566054 -0.032588130558 -0.489369621695
3.952533333000 0.013251274219 -0.497869180202 0.848314325445 -0.004650938458 0.836374194844 -0.007190642974 -0.033123794756 -0.487885698395
3.952955555000 0.012509849063 -0.498192423959 0.849445527993 -0.006165230297 0.836460713959 -0.008523483480 -0.033982326768 -0.488190206186
3.953377777000 0.012280754337 -0.497801281656 0.848829657986 -0.007833910668 0.836967083354 -0.009654435618 -0.034799517323 -0.488177362700
3.953800000000 0.010908366440 -0.497900478959 0.850677890503 -0.011425677987 0.834849260736 -0.011200420851 -0.037387641344 -0.486959407343
3.954222222000 0.009902024752 -0.497007420254 0.850030792268 -0.010042128692 0.836739392132 -0.012033087843 -0.035823463724 -0.487512358724
3.954644444000 0.009291494751 -0.497787253742 0.849749431327 -0.011847512571 0.837481132450 -0.013579099265 -0.037288243007 -0.487511694458
3.955066666000 0.009344401833 -0.497121508592 0.850053395600 -0.013164987960 0.837017152930 -0.013865823547 -0.037722135244 -0.486869706359
3.955488888000 0.008257160320 -0.497081852917 0.850059250666 -0.014412924902 0.837659291689 -0.015744099799 -0.038294091762 -0.487654197387
3.955911111000 0.007650159617 -0.497290295705 0.850300057969 -0.015959887808 0.838229386796 -0.015748875605 -0.038662834015 -0.486738788708
3.956333333000 0.007500819365 -0.497027286495 0.853096589471 -0.016987405770 0.836682651681 -0.018179906857 -0.041400330206 -0.487686273341
3.956755555000 0.006544453916 -0.496530456977 0.851559491683 -0.019036600997 0.837690138431 -0.019398786919 -0.040960269830 -0.487338053930
3.957177777000 0.006625150727 -0.496829691629 0.852127438590 -0.018830470554 0.839011801931 -0.020084763799 -0.040757445140 -0.487285790050
3.957600000000 0.005180741320 -0.497523043555 0.852046447538 -0.021568359263 0.839263509518 -0.021651991694 -0.041752456529 -0.486952031171
3.958022222000 0.005182810679 -0.496271305289 0.851976886111 -0.022682636635 0.838113755833 -0.022278583603 -0.043795988941 -0.486587378617
3.958444444000 0.004514264337 -0.496898093205 0.852408356620 -0.024176101578 0.839426728523 -0.024015143268 -0.043958430828 -0.487172441598
3.958866666000 0.003546231247 -0.496721597594 0.852439537651 -0.025922847567 0.838249226193 -0.025053407258 -0.044898491819 -0.486324802487
3.959288888000 0.002405584480 -0.495937957249 0.852936324069 -0.026632142888 0.839417049652 -0.026508699332 -0.044976339408 -0.487023357341
3.959711111000 0.002216006192 -0.496998251988 0.853559368102 -0.027947117146 0.839526350215 -0.027844252239 -0.046401163680 -0.485949660222
3.960133333000 0.001343945172 -0.496651861631 0.853791848922 -0.030510652143 0.839898078211 -0.029424479415 -0.047254201001 -0.486600187733
3.960555555000 0.001129330244 -0.497277398608 0.853954748889 -0.031019222397 0.839558689796 -0.029955964673 -0.047738344301 -0.485156733068
3.960977777000 0.000425193846 -0.496946220218 0.853737640109 -0.032740150346 0.840658048927 -0.031524841251 -0.048658878043 -0.486150575605
3.961400000000 0.001342208771 -0.497144880740 0.853491818194 -0.034565466069 0.839885699684 -0.030435951758 -0.049302362335 -0.484403381978
3.961822222000 -0.001214512878 -0.496862128699 0.854390397370 -0.034898395689 0.840943744872 -0.033741116063 -0.049842209990 -0.485247266847
3.962244444000 -0.000990748448 -0.496632607329 0.854448724180 -0.036132432054 0.840653375837 -0.034302686890 -0.050069137047 -0.484909899320
3.962666666000 -0.001863099419 -0.494933280380 0.854761360142 -0.038414249296 0.840368338345 -0.035462626892 -0.051768319365 -0.486103598239
3.963088888000 -0.002458448378 -0.496119927898 0.854917258701 -0.039441497871 0.841560393282 -0.037369857899 -0.052413680283 -0.485795286302
3.963511111000 -0.003565376587 -0.496798884872 0.855143389906 -0.040774906192 0.841233551127 -0.039728031973 -0.054138514259 -0.484789799897
3.963933333000 -0.003792397197 -0.496656925235 0.855889558202 -0.042276105500 0.841996615269 -0.039143661719 -0.054236999971 -0.484582988169
3.964355555000 -0.005032867484 -0.496722632135 0.855198564600 -0.043863013690 0.840951692176 -0.041521968437 -0.055300895729 -0.483779164858
3.964777777000 -0.005238329042 -0.497619385795 0.855669487146 -0.044604524191 0.843267493031 -0.043316783158 -0.057028780707 -0.485060767089
3.965200000000 -0.006232328683 -0.496767693822 0.855915719323 -0.047017032983 0.842216566747 -0.043841788545 -0.056650771062 -0.484167061441
3.965622222000 -0.007737477601 -0.496427446878 0.855908201931 -0.047768273620 0.842343137406 -0.045274256897 -0.056896322226 -0.484326222694
3.966044444000 -0.006770377087 -0.497334878661 0.855981976404 -0.049180446651 0.843670916203 -0.045401429573 -0.058017917042 -0.483801887837
3.966466666000 -0.007585760735 -0.495666058779 0.856213817554 -0.051277074480 0.842977789893 -0.047710244313 -0.059560133533 -0.484268238356
3.966888888000 -0.008665551272 -0.496523174711 0.856812494141 -0.052241414790 0.842930422678 -0.048368964893 -0.059493663801 -0.483876015582
3.967311111000 -0.009204516669 -0.496236297555 0.856766936691 -0.053947760635 0.843917770645 -0.049078205230 -0.059921588941 -0.484117367627
3.967733333000 -0.009900470235 -0.496500002355 0.856937035723 -0.055523794252 0.843956749447 -0.050447050632 -0.061670275110 -0.483365701874
3.968155555000 -0.010023104885 -0.496744683386 0.857093767723 -0.056671569130 0.844834267468 -0.049978788456 -0.061148466088 -0.483950869812
3.968577777000 -0.011722437936 -0.496504339618 0.856565419555 -0.058099327254 0.843738231369 -0.053188901800 -0.062287467321 -0.483139599855
3.969000000000 -0.014037512336 -0.498329089699 0.856345485285 -0.059761360680 0.847527860060 -0.056777961610 -0.063536630185 -0.484915074409
3.969422222000 -0.014266772682 -0.496302482960 0.857477432484 -0.060796427185 0.843629315039 -0.055370269389 -0.062891301978 -0.482367467923
3.969844444000 -0.013278431928 -0.496883133762 0.857736869400 -0.062199676691 0.844217081938 -0.056438908746 -0.065242255009 -0.482004061188
3.970266666000 -0.014607257975 -0.496502783529 0.857417076191 -0.063630556580 0.844960331409 -0.058362656202 -0.065666558705 -0.482526231256
3.970688888000 -0.014854566089 -0.496714441691 0.857992260042 -0.065272441982 0.845209859137 -0.060186505769 -0.066894234781 -0.482234973492
3.971111111000 -0.015545125681 -0.496459441475 0.857890300597 -0.066585037335 0.845730091739 -0.059772473139 -0.066692115313 -0.482258834486
3.971533333000 -0.016235399380 -0.495884494324 0.857843748659 -0.067758370474 0.845537377169 -0.062061220298 -0.068381404900 -0.482245486531
3.971955555000 -0.017100518850 -0.496505555063 0.858056400845 -0.069365434872 0.846240572079 -0.062606290614 -0.068626392341 -0.482167070055
3.972377777000 -0.018242560793 -0.496894919268 0.858400511740 -0.071191780116 0.846041473281 -0.064946799160 -0.069745469107 -0.481553482569
3.972800000000 -0.018858793289 -0.496794662004 0.858097778150 -0.072044427083 0.847146046726 -0.066118054719 -0.070368853340 -0.482154622063
3.973222222000 -0.018123155940 -0.495955778948 0.858453293982 -0.073362171076 0.846262398606 -0.065503030855 -0.070873184915 -0.481461717948
3.973644444000 -0.020591147399 -0.496427575367 0.858770541339 -0.074941820428 0.846716075261 -0.068685728015 -0.072262547932 -0.481453821008
3.974066666000 -0.020950234688 -0.496931811045 0.858882830446 -0.076625404616 0.847730038913 -0.068941560015 -0.072252824151 -0.481024084517
3.974488888000 -0.021909089421 -0.495863932944 0.858743713241 -0.078142587589 0.846738955407 -0.071096631799 -0.073967023791 -0.480881447206
3.974911111000 -0.023156742726 -0.496010902707 0.858544095919 -0.079840170240 0.847058231466 -0.072311341568 -0.074134671921 -0.480639862097
3.975333333000 -0.022928935737 -0.497149609314 0.859385800782 -0.080894119404 0.847484464684 -0.072743934467 -0.074784226973 -0.479725788254
3.975755555000 -0.024153127807 -0.496318444864 0.859380778950 -0.082568393697 0.847466931643 -0.073027399387 -0.074651271341 -0.479979637337
3.976177777000 -0.024761439074 -0.496448567184 0.858924112329 -0.084188420430 0.848553937743 -0.075679682149 -0.076531559362 -0.480146350773
3.976600000000 -0.027454745835 -0.498118097374 0.859425834668 -0.085046337072 0.848978621425 -0.077035163910 -0.076004194444 -0.479008955784
3.977022222000 -0.026906958036 -0.496664876038 0.859397127496 -0.086849101111 0.848154512881 -0.078704572040 -0.078062983736 -0.479242703875
3.977444444000 -0.027511917031 -0.496823638657 0.859479451239 -0.088257797222 0.848983374606 -0.079066885382 -0.078223747115 -0.479729465519
3.977866666000 -0.027561291205 -0.497279814453 0.859668701935 -0.089684164115 0.849742491078 -0.081022093523 -0.079969287874 -0.479401988073
3.978288888000 -0.028192610612 -0.496250593250 0.859766184828 -0.090753393962 0.848628345169 -0.081877463978 -0.080335526251 -0.478675299957
3.978711111000 -0.029989586994 -0.496873031965 0.859720655951 -0.092119544474 0.848792714326 -0.084245009175 -0.081579645150 -0.478292781185
3.979133333000 -0.030510957000 -0.497309094624 0.859936875111 -0.093334577583 0.849340900955 -0.085299506037 -0.081829708467 -0.477879915942
3.979555555000 -0.030514301530 -0.496710225538 0.859750507624 -0.095048256002 0.850160777399 -0.086324566907 -0.083095125334 -0.478827318458
3.979977777000 -0.032056694628 -0.496998131838 0.859537239236 -0.096810094664 0.851212077211 -0.088347437042 -0.083764937531 -0.479254924014
3.980400000000 -0.032609279359 -0.496560902229 0.859912761859 -0.097842154457 0.850131869654 -0.089871461635 -0.084988338025 -0.478111354487
3.980822222000 -0.033894124157 -0.496636786480 0.859587962624 -0.099457551798 0.849573375062 -0.090134845384 -0.084805810372 -0.476677209931
3.981244444000 -0.033501009846 -0.496859725566 0.860781379380 -0.100779051370 0.851380698711 -0.090446933788 -0.085562073214 -0.477858564994
3.981666666000 -0.036600703585 -0.496683275918 0.859639465466 -0.101703541360 0.849895350745 -0.094327661545 -0.086655018315 -0.475941563263
3.982088888000 -0.036626521412 -0.495899008107 0.860154480408 -0.104029350166 0.849497428962 -0.095484739519 -0.087815208921 -0.476179579414
3.982511111000 -0.037278945145 -0.495867412981 0.860161941767 -0.106150199769 0.850595933142 -0.095488438971 -0.088227401866 -0.476697876100
3.982933333000 -0.037202861098 -0.497018258531 0.860533788390 -0.105624361689 0.851514367877 -0.096646295071 -0.088171055346 -0.475972419308
3.983355555000 -0.038729926624 -0.495638664963 0.860184782433 -0.107742840911 0.849859130006 -0.097765538062 -0.088675028106 -0.475575257482
3.983777777000 -0.039434230901 -0.497044059029 0.860809545296 -0.109980137391 0.852858954814 -0.098589396864 -0.089419985645 -0.476591744483
3.984200000000 -0.039814710619 -0.494698766076 0.860608538112 -0.111389121936 0.851519817899 -0.101141120679 -0.090593105768 -0.477748200546
3.984622222000 -0.041490811010 -0.496032037792 0.861150051848 -0.112141261497 0.851108475218 -0.102516376321 -0.091367529065 -0.475368223216
3.985044444000 -0.041902704250 -0.495102689334 0.859733642533 -0.112779696584 0.850597253711 -0.102848753882 -0.091228454877 -0.474539028702
3.985466666000 -0.042696954021 -0.496451963289 0.861993838863 -0.114398164831 0.852210781433 -0.104203740545 -0.091991076552 -0.475315940627
3.985888888000 -0.043588209080 -0.495582142893 0.860333087545 -0.115993227318 0.850463242187 -0.106938998508 -0.093946067158 -0.473777695122
3.986311111000 -0.044193894053 -0.495994497078 0.860637456613 -0.117601688468 0.852176149579 -0.106278844803 -0.093452632273 -0.473975951996
3.986733333000 -0.045688079079 -0.495166262377 0.861495231095 -0.119751531920 0.852604879819 -0.108739527156 -0.094107910368 -0.474769912680
3.987155555000 -0.046041310180 -0.496514515728 0.861169939438 -0.120607025829 0.853465034220 -0.109052323378 -0.094675552681 -0.474170545175
3.987577777000 -0.047135154250 -0.495667371505 0.861740494007 -0.122784490783 0.851944997494 -0.111461000141 -0.096555591756 -0.473583656247
3.988000000000 -0.047658349035 -0.495489839824 0.860812756100 -0.123781480979 0.852595100626 -0.112298150319 -0.096564448479 -0.473363221891
3.988422222000 -0.048684426750 -0.496093752201 0.861205614204 -0.125792040120 0.854290386009 -0.114048022879 -0.097764283015 -0.473693498302
3.988844444000 -0.049551298218 -0.495850263838 0.861219975363 -0.127001901516 0.853389112818 -0.115135755062 -0.098418925186 -0.473014292279
3.989266666000 -0.050285276696 -0.496375504017 0.861489796119 -0.128862379960 0.855522421668 -0.116110498412 -0.099513069105 -0.473085729201
3.989688888000 -0.050309131509 -0.495245389519 0.860752548186 -0.129044703825 0.852822835678 -0.116819869412 -0.099693502037 -0.472037808626
3.990111111000 -0.052631316231 -0.495608427633 0.860898464748 -0.131188211939 0.854602282552 -0.120533450200 -0.101309157636 -0.472720899077
3.990533333000 -0.052661883449 -0.495153281353 0.861067267839 -0.131414393053 0.852840074035 -0.119372421397 -0.099925423974 -0.471074676099
3.990955555000 -0.054065652011 -0.495789593419 0.861981405861 -0.133688010399 0.854861828202 -0.121746629086 -0.101271416524 -0.472070237493
3.991377777000 -0.054975341408 -0.495130743987 0.861477249576 -0.134735133705 0.855126759080 -0.123619962101 -0.102102052557 -0.472146774470
3.991800000000 -0.055259255791 -0.494450094009 0.860979883276 -0.135963394393 0.853537161089 -0.124822679610 -0.103268619121 -0.471318558550
3.992222222000 -0.056119384021 -0.495334084385 0.862042679529 -0.137734597190 0.855983498254 -0.125295362504 -0.103675865032 -0.471862080091
3.992644444000 -0.057607580074 -0.495139528888 0.860721836729 -0.139149348816 0.855345443907 -0.127306200256 -0.104089033831 -0.470358319560
3.993066666000 -0.058556552245 -0.495510499680 0.861031105038 -0.141070163847 0.856201104933 -0.129302378499 -0.105513024218 -0.470245615796
3.993488888000 -0.059400685624 -0.493870727693 0.860586963009 -0.142709203579 0.854423028030 -0.129621849106 -0.105261596450 -0.469817980568
3.993911111000 -0.060734954667 -0.494269624814 0.861254364839 -0.143848049586 0.855113761072 -0.132444086928 -0.106758246165 -0.469737386576
3.994333333000 -0.060364439377 -0.493194490325 0.862095753537 -0.144969700155 0.853683893134 -0.131217127856 -0.105958133935 -0.469795711914
3.994755555000 -0.062491570655 -0.495479962569 0.862615974521 -0.147389473635 0.857451015255 -0.133104586783 -0.106936862194 -0.470166362415
3.995177777000 -0.063201683234 -0.495067569438 0.862774577179 -0.148842428391 0.856650709206 -0.134998949440 -0.108152081050 -0.469744125896
3.995600000000 -0.063961370413 -0.494741880844 0.860975949949 -0.149265006458 0.856323515414 -0.138338769915 -0.109982854283 -0.468460031567
3.996022222000 -0.065486244421 -0.493989634343 0.860877560960 -0.150784722820 0.856071025660 -0.139540547325 -0.109349088862 -0.467895843303
3.996444444000 -0.066324004213 -0.493934750617 0.862068821037 -0.152319092460 0.857150477205 -0.140494452017 -0.110533934116 -0.468863860577
3.996866666000 -0.066604971232 -0.494140736624 0.862424650212 -0.154873529109 0.858350987421 -0.141039170124 -0.111343321162 -0.469620442058
3.997288888000 -0.069133057072 -0.493892238912 0.860672576128 -0.156761076907 0.857904591269 -0.143889479620 -0.112104175770 -0.467801465153
3.997711111000 -0.069981944343 -0.494481563789 0.860520923216 -0.157529278734 0.859273801128 -0.145647749454 -0.112599185335 -0.467759591080
3.998133333000 -0.071264161567 -0.493343723415 0.861076463696 -0.159578249666 0.857667504477 -0.145219424598 -0.112277762642 -0.466884736326
3.998555555000 -0.070428075524 -0.493372646875 0.862238643925 -0.159977704478 0.856557451266 -0.145748501736 -0.112625218080 -0.466736597905
3.998977777000 -0.072354745101 -0.493576660751 0.861298571565 -0.161589532724 0.856853552344 -0.148160248163 -0.113879868032 -0.465764886256
3.999400000000 -0.073683454119 -0.494530981043 0.861610163358 -0.164263263677 0.857735357866 -0.153190761600 -0.117654615767 -0.464949842604
3.999822222000 -0.074180015736 -0.492671635223 0.861884295854 -0.165277472811 0.856907617621 -0.151730427018 -0.115999750435 -0.465821911209
4.000244444000 -0.075656154537 -0.493341421389 0.861611616334 -0.166300319322 0.858549234033 -0.150964273720 -0.114206302041 -0.465790977935
4.000666666000 -0.077376260354 -0.493210202078 0.861670413803 -0.168275131539 0.858945676971 -0.157491382194 -0.118573145775 -0.465402957392
4.001088888000 -0.076941870874 -0.492847252210 0.862241185487 -0.169478702003 0.858698460682 -0.155827723353 -0.117640191418 -0.465688136903
4.001511111000 -0.077450227185 -0.492200846869 0.860215026744 -0.171312819787 0.858312228976 -0.156183622937 -0.117719426646 -0.463991243389
4.001933333000 -0.079916686317 -0.491515588633 0.860332717055 -0.175302378164 0.856355354569 -0.160479562858 -0.120470512413 -0.462260827718
4.002355555000 -0.080093598920 -0.491654069164 0.859880767109 -0.173183856935 0.858991575004 -0.160327592552 -0.118674437286 -0.464112888993
4.002777777000 -0.080601151998 -0.491289733793 0.858887549017 -0.174013373094 0.859308737993 -0.160904641446 -0.118985146191 -0.463787367231
4.003200000000 -0.081447997171 -0.492041702530 0.860721160057 -0.175870549683 0.859710030201 -0.162193535938 -0.120284453764 -0.463443348196
4.003622222000 -0.083741969168 -0.491203440366 0.859763561783 -0.177686120565 0.859569167341 -0.166751191810 -0.121387015803 -0.462635624643
4.004044444000 -0.085467951971 -0.491253762803 0.860573777302 -0.181247704993 0.858893470976 -0.167972911618 -0.123163746958 -0.462084200166
4.004466666000 -0.086027967904 -0.491240136045 0.861451142561 -0.183582276569 0.860441706053 -0.170763300790 -0.124949467447 -0.462985750863
4.004888888000 -0.086653953108 -0.489676871975 0.860218683514 -0.183639438243 0.856551126202 -0.169453319806 -0.122852333679 -0.460614710102
4.005311111000 -0.087844996034 -0.490291680559 0.858481127973 -0.185455882629 0.859181446444 -0.171737616967 -0.124105621443 -0.460119105054
4.005733333000 -0.089300184682 -0.490180641471 0.860743433826 -0.186469694176 0.859518872351 -0.176078806565 -0.126792705116 -0.460703282768
4.006155555000 -0.090098991916 -0.490053150883 0.861140953598 -0.188356049982 0.859280616777 -0.176317965272 -0.127113651769 -0.460439697380
4.006577777000 -0.091515987547 -0.489458873449 0.859866363952 -0.189463688118 0.859847661265 -0.177305812238 -0.126396458085 -0.460289866945
4.007000000000 -0.088254297422 -0.487994379152 0.857246734834 -0.189671316972 0.857812950089 -0.175481875518 -0.126702646688 -0.457376435709
4.007422222000 -0.093324781333 -0.489331605750 0.859433094634 -0.190812444784 0.859811157677 -0.182759017892 -0.128853373842 -0.459500916335
4.007844444000 -0.093707005886 -0.488337393342 0.858311975594 -0.194385079706 0.860262331475 -0.181637589628 -0.128851047283 -0.459209555838
4.008266666000 -0.092639007161 -0.487929047168 0.857023973977 -0.192164675564 0.859448770618 -0.182808293362 -0.127658106141 -0.458792462455
4.008688888000 -0.095748522675 -0.486814685154 0.857231483673 -0.196783252837 0.858729454686 -0.185138288365 -0.128638798759 -0.457335201299
