# GHZ S RI R 50.000000000000
3.950000000000 -0.032991022712 0.003894315997 0.387026520186 0.900408203244 0.375430240650 0.900005842998 -0.030661461794 0.023685280463
3.950422222000 -0.033935372927 0.003967399108 0.386789674271 0.899242224620 0.375248768430 0.901092828889 -0.031738072862 0.023501115047
3.950844444000 -0.035602541124 0.002824561791 0.383672872964 0.899392844986 0.376766863506 0.899960888919 -0.032861266019 0.023822662156
3.951266666000 -0.035734310290 0.003383402742 0.385288186872 0.901328645107 0.378948719338 0.902614445856 -0.032891790587 0.024925216466
3.951688888000 -0.036344877185 0.003774992580 0.383899771610 0.902069055518 0.379531293863 0.898782880930 -0.031674123929 0.025167489352
3.952111111000 -0.035856515840 0.004505769392 0.388905262064 0.900797725308 0.380990664224 0.899762885832 -0.031659617089 0.025550626970
3.952533333000 -0.037151622227 0.003253605992 0.387484782999 0.900062089338 0.380517556969 0.900360220535 -0.033226907006 0.025433552456
3.952955555000 -0.036942675145 0.003572407527 0.388848120555 0.899736541257 0.381491192680 0.898445110028 -0.031775019957 0.024995347385
3.953377777000 -0.036772833523 0.004336585108 0.389519951312 0.898346044681 0.382615037121 0.899636942086 -0.032678648517 0.024891043485
3.953800000000 -0.037745315436 0.004720233050 0.390821507643 0.901995452442 0.384398311450 0.894263609052 -0.031592444694 0.026329512284
3.954222222000 -0.037363941154 0.004722387598 0.391769258116 0.899377999469 0.385651125878 0.897094488535 -0.031577107728 0.025954034392
3.954644444000 -0.037040984184 0.004775470607 0.394632133841 0.898031685459 0.387918102374 0.899196789665 -0.032059631650 0.025839037880
3.955066666000 -0.036708459584 0.005483473813 0.397027303143 0.898438780871 0.389227942329 0.896842246396 -0.029963565753 0.026293654307
3.955488888000 -0.037775859389 0.005846768543 0.395059683166 0.898994314544 0.389602113413 0.897674303842 -0.031735948229 0.027278076416
3.955911111000 -0.037109038851 0.005974901499 0.396886220807 0.898492102209 0.390611990197 0.898641723184 -0.031053271824 0.026831848252
3.956333333000 -0.036544771207 0.006776540679 0.401380589180 0.899509074725 0.392157836826 0.898342636648 -0.030364592158 0.026484768588
3.956755555000 -0.037472334885 0.007054287083 0.401293644172 0.898777222216 0.393690846374 0.895039440795 -0.029840562392 0.027499622184
3.957177777000 -0.036904383432 0.006731733429 0.405380648191 0.898022925923 0.394102228335 0.897168277981 -0.029324347581 0.026668510509
3.957600000000 -0.037952072906 0.007010376348 0.402075287587 0.896116122497 0.396197489440 0.896995247129 -0.030612696616 0.027192557084
3.958022222000 -0.037109827518 0.008120026417 0.407149905295 0.896794233367 0.396876032517 0.896917030722 -0.028993820126 0.027600817547
3.958444444000 -0.036260624048 0.008908189686 0.407364293243 0.897091631810 0.400426012242 0.897706634978 -0.028885674598 0.028366143835
3.958866666000 -0.037275891919 0.009293402067 0.409220301568 0.897520225345 0.398371939923 0.896536035961 -0.029804751313 0.028416191464
3.959288888000 -0.037075523438 0.009373863838 0.411140440060 0.896839970867 0.402768307965 0.895399229577 -0.028158880932 0.028667197964
3.959711111000 -0.036866770254 0.009979074593 0.411310383128 0.898463301827 0.403571461666 0.896834112409 -0.028834244650 0.028220311522
3.960133333000 -0.036144535830 0.010038245781 0.414048882593 0.896546199000 0.405789338615 0.894792269799 -0.028596705682 0.027958288109
3.960555555000 -0.037849325180 0.010704853711 0.413209208752 0.897458318783 0.404522819640 0.894807982923 -0.028284890541 0.028801115688
3.960977777000 -0.036563907754 0.010824156232 0.416267445839 0.894218090175 0.407737235235 0.894959234828 -0.027328632371 0.028857055158
3.961400000000 -0.035368391252 0.010858222865 0.417525837732 0.893462160399 0.408758729572 0.894479409003 -0.027835705663 0.028472410249
3.961822222000 -0.035978228781 0.010760228977 0.418839359286 0.896383112132 0.411563265696 0.894886404583 -0.027591137805 0.029014088253
3.962244444000 -0.035643000014 0.011570496357 0.420532367346 0.896282112712 0.411780791530 0.893912917116 -0.027059233896 0.028269704681
3.962666666000 -0.036436222433 0.012384092567 0.422271007772 0.894268959501 0.413259238575 0.893705697042 -0.026535987482 0.029191010428
3.963088888000 -0.035761964811 0.012698675666 0.424839914859 0.894064300270 0.415431925210 0.894492268987 -0.026533617672 0.029548076487
3.963511111000 -0.035721446147 0.012307056796 0.424479595425 0.895149706943 0.417454763501 0.893246255088 -0.026281219938 0.028862383172
3.963933333000 -0.035483952605 0.011669274448 0.426898294239 0.893067854638 0.418308352632 0.894118585861 -0.027073398529 0.028659837178
3.964355555000 -0.035661808410 0.012765063155 0.429073342052 0.892870525609 0.419067567904 0.892640858699 -0.026561616987 0.029225076713
3.964777777000 -0.034214726103 0.012907534294 0.430381355524 0.891901269881 0.422800949919 0.895112872199 -0.025704515653 0.028720388561
3.965200000000 -0.035028127971 0.013522925181 0.432691001794 0.892164851775 0.422477534324 0.891706324276 -0.025369265378 0.028665988084
3.965622222000 -0.035259837132 0.014245498699 0.432642187127 0.893633774240 0.424806372088 0.892422654860 -0.024966826092 0.030487233865
3.966044444000 -0.033995483607 0.014007368144 0.435152995993 0.892089435769 0.426242046412 0.893037940666 -0.024931150156 0.028709430029
3.966466666000 -0.034270807107 0.014787553625 0.436893528850 0.890554425489 0.428751776849 0.890569780700 -0.023735941037 0.029966045364
3.966888888000 -0.033707775175 0.013821568691 0.438249241573 0.890115242375 0.428526610094 0.889886527526 -0.024556276348 0.028179052209
3.967311111000 -0.034166120610 0.015223534589 0.440783564652 0.890942704621 0.430105885049 0.891690133525 -0.024177982915 0.029330950694
3.967733333000 -0.034464341636 0.015104790660 0.442009061409 0.889883573599 0.431672429799 0.892163115959 -0.024387670301 0.029327418297
3.968155555000 -0.033182917491 0.015149441946 0.442694643714 0.889225017248 0.431821161809 0.892150950178 -0.023859628140 0.028251250397
3.968577777000 -0.033092536344 0.015591089438 0.444584229113 0.888471737313 0.434092922470 0.889555827926 -0.023666577038 0.029437146543
3.969000000000 -0.034127236982 0.017095348404 0.448546457466 0.894796852506 0.435358387843 0.893287737152 -0.024525775323 0.030794630638
3.969422222000 -0.032728346250 0.015305860489 0.448122467505 0.887507136429 0.438119478303 0.888223356467 -0.023046028030 0.029309896960
3.969844444000 -0.032911148279 0.016229815860 0.449371076172 0.888836122857 0.438789958123 0.889936948626 -0.023411635028 0.029248004905
3.970266666000 -0.032244693919 0.016943903710 0.451138522943 0.887613756413 0.441808329806 0.889406043228 -0.022278868727 0.029325890631
3.970688888000 -0.032143389749 0.016886354330 0.453470123931 0.887797127370 0.443758061611 0.888047636977 -0.022629212382 0.028870110427
3.971111111000 -0.032268654847 0.017119916725 0.454215906405 0.887086178356 0.444036414864 0.887930704796 -0.021949129731 0.028847651319
3.971533333000 -0.031823752951 0.016766303651 0.455014287535 0.885482772051 0.446286979160 0.886255112763 -0.020985741298 0.028344379183
3.971955555000 -0.031003292770 0.016816299838 0.458054704369 0.884134924411 0.447531517872 0.887337679003 -0.021667790880 0.028603080484
3.972377777000 -0.031206977788 0.016649520665 0.460260297799 0.883830836105 0.449485663763 0.885351977791 -0.021490037699 0.028205959883
3.972800000000 -0.030763737398 0.018017292136 0.460459574650 0.884402133970 0.450975897956 0.887008015341 -0.021047778193 0.028236037910
3.973222222000 -0.030342367013 0.018239580375 0.462568398714 0.883304665351 0.450526520024 0.886027644035 -0.020301311815 0.027399013380
3.973644444000 -0.029718478221 0.017554030899 0.465831584907 0.882176897016 0.454342914803 0.885908036510 -0.020742681338 0.027684710798
3.974066666000 -0.029443017131 0.018408386294 0.467966820529 0.882885686654 0.456162998622 0.885997730302 -0.019624411495 0.027965496569
3.974488888000 -0.029822496109 0.017795992396 0.467882540292 0.880509285900 0.457326466972 0.884107315682 -0.020410527771 0.027514385703
3.974911111000 -0.029857442150 0.018391639003 0.469235703198 0.880741371227 0.459150559017 0.883386720382 -0.020114850102 0.028671340373
3.975333333000 -0.028814687134 0.018027060322 0.471369402671 0.879258688799 0.461008140751 0.883326896554 -0.020286286901 0.027728684846
3.975755555000 -0.028921100266 0.018474118224 0.473191716118 0.880070631507 0.461664383119 0.882907257152 -0.019803116022 0.027651328603
3.976177777000 -0.028328032968 0.019027443993 0.475031069803 0.878957246764 0.464564414246 0.882875036777 -0.019569448817 0.028092820383
3.976600000000 -0.027379707353 0.017275136766 0.477783214101 0.875131959055 0.467535075958 0.883555827757 -0.021145305990 0.026977236468
3.977022222000 -0.028315804014 0.018752839173 0.477821542748 0.877096389401 0.467842295737 0.881271459521 -0.019913745956 0.027697457810
3.977444444000 -0.028210536840 0.018323595819 0.478199232748 0.875192269783 0.469129855835 0.881375668969 -0.020354232621 0.027184726993
3.977866666000 -0.027438833274 0.018423483972 0.480864608872 0.874816814145 0.470877963012 0.880290100518 -0.019475321001 0.026535110656
3.978288888000 -0.026710469853 0.018486520775 0.483264980735 0.873820655845 0.472943794398 0.879250072088 -0.018795153060 0.026220178799
3.978711111000 -0.026644408669 0.018603472716 0.483966660293 0.873529370693 0.474572886738 0.879206929613 -0.018739097726 0.026805348971
3.979133333000 -0.026574968235 0.018705621198 0.485859291037 0.872751851754 0.476332844783 0.878232808503 -0.018698344976 0.026359499288
3.979555555000 -0.026165085664 0.019266222603 0.487264103068 0.872888913170 0.476908601334 0.878006415142 -0.017603677568 0.026686407993
3.979977777000 -0.025359041648 0.018755275380 0.489484352434 0.871017113821 0.479159086396 0.877574183236 -0.018362912251 0.025470639907
3.980400000000 -0.025452614919 0.019232556577 0.491231064318 0.871056297148 0.480830330963 0.877177425619 -0.018372297576 0.025699969438
3.980822222000 -0.025393712855 0.018883656364 0.492712541303 0.869988975942 0.482341117694 0.876392585251 -0.018017543267 0.025859554709
3.981244444000 -0.024821179603 0.018862194976 0.494215553634 0.868851557262 0.484253493764 0.875484124531 -0.017889742496 0.025305280671
3.981666666000 -0.024169118139 0.017563915482 0.497122207309 0.865293954540 0.486996732329 0.875157467988 -0.018903536211 0.023995375965
3.982088888000 -0.024662088953 0.018123471558 0.497338780012 0.866323175077 0.487760149127 0.872456030861 -0.017813669267 0.024872228469
3.982511111000 -0.024451425792 0.019037973192 0.499273982075 0.866703179184 0.488410668261 0.872623842916 -0.017616430132 0.025141274482
3.982933333000 -0.023737954234 0.018413229943 0.499906508814 0.865058376654 0.491173549418 0.873527994918 -0.018034515351 0.023895283438
3.983355555000 -0.023793779305 0.019012947498 0.502956598160 0.865026221175 0.491944785428 0.870843811464 -0.017418736941 0.024246136067
3.983777777000 -0.023088257862 0.018108081316 0.503930277357 0.862400954503 0.493954578915 0.871426807146 -0.017181784762 0.023436702264
3.984200000000 -0.024027345790 0.018554482450 0.501703115698 0.863794344482 0.493478195210 0.869174087375 -0.017399140069 0.023990729468
3.984622222000 -0.022691665410 0.018606739443 0.506558327327 0.861888350283 0.497277897799 0.869012298486 -0.016501240915 0.023645800014
3.985044444000 -0.022758039987 0.018306474269 0.508255373363 0.860651773479 0.498599148459 0.867263902854 -0.016471023434 0.024172834791
3.985466666000 -0.022006983681 0.018137902712 0.510554475098 0.859609463512 0.500990905881 0.867448246519 -0.016595493180 0.022327189119
3.985888888000 -0.021960308083 0.018110205177 0.511803163862 0.858433055608 0.501584189726 0.866330810132 -0.017076734849 0.022801018407
3.986311111000 -0.021681208587 0.018193977968 0.513224443355 0.857500210077 0.502907827517 0.866717149770 -0.016591896703 0.022887552210
3.986733333000 -0.021640762681 0.017963567988 0.513959911531 0.856522898933 0.504895694217 0.863529149741 -0.016078608961 0.022901735712
3.987155555000 -0.021808893163 0.017640602609 0.515178614161 0.856463376023 0.507363880630 0.864065255436 -0.017222690447 0.022810484975
3.987577777000 -0.021697793808 0.017976325410 0.517143858013 0.855742149367 0.507540665861 0.862611032907 -0.016475408338 0.022179525611
3.988000000000 -0.020377471508 0.017961126288 0.519119858782 0.853926426951 0.509361654161 0.862720948911 -0.016318275326 0.022304077581
3.988422222000 -0.020838171538 0.018281162245 0.520097799678 0.854430890413 0.511135456287 0.861884344139 -0.016685771291 0.021997218737
3.988844444000 -0.020885632451 0.017728183838 0.521182147829 0.853284578874 0.512370414608 0.861130740195 -0.016269371513 0.021885348234
3.989266666000 -0.019729923050 0.016939764241 0.524405854318 0.850938348868 0.515383015102 0.860510226527 -0.016694429409 0.020972304876
3.989688888000 -0.019799289417 0.017980796443 0.524844276535 0.850113000675 0.514931754996 0.860757117472 -0.017181586423 0.021590746215
3.990111111000 -0.019544091263 0.016550326144 0.527270951994 0.849533352537 0.518632318141 0.859524693624 -0.017351910862 0.020557727784
3.990533333000 -0.019383250740 0.017399161661 0.528175149325 0.848697148778 0.519261771622 0.857470177778 -0.017061273998 0.021514352485
3.990955555000 -0.019275395533 0.016861015902 0.529409096075 0.847230482371 0.520902273080 0.856614758880 -0.017172121026 0.021182499204
3.991377777000 -0.019143545703 0.016454832876 0.530345891195 0.846229068138 0.522633528882 0.855780385929 -0.017201130127 0.020503200924
3.991800000000 -0.019043842001 0.016946973632 0.532260729733 0.844444856078 0.522074012778 0.855364382657 -0.018054470176 0.020275217066
3.992222222000 -0.018974630627 0.016601450690 0.533297760598 0.845330750444 0.526445091797 0.855240659669 -0.016702358344 0.019907218488
3.992644444000 -0.018849883289 0.016432796471 0.535463610308 0.843500658411 0.527526159383 0.853434810853 -0.017323035550 0.019456450620
3.993066666000 -0.018127471647 0.016115251570 0.536847277445 0.842253893350 0.529371971308 0.852738256110 -0.017078983013 0.019718212951
3.993488888000 -0.019060371254 0.016575591407 0.537542765574 0.841438585179 0.529867170375 0.850065485383 -0.017568628225 0.019926549513
3.993911111000 -0.018211893644 0.015774445220 0.539621676453 0.840003445328 0.531595243122 0.850687955426 -0.017241084920 0.019277706644
3.994333333000 -0.018192037034 0.016593744784 0.540807185046 0.839376627363 0.530761372050 0.847971806733 -0.017374090810 0.020123079851
3.994755555000 -0.018362884675 0.015454622095 0.541432617945 0.838063558304 0.535099415155 0.849239309601 -0.017647424898 0.018933890211
3.995177777000 -0.018198179080 0.015553570196 0.544313995451 0.836933277366 0.535223152877 0.845988235612 -0.018003914559 0.018780791856
3.995600000000 -0.017383639124 0.015522820482 0.545477398296 0.835792402866 0.537507320713 0.846774382010 -0.017890940106 0.018088479250
3.996022222000 -0.017955021658 0.015438870368 0.546089407585 0.835228931655 0.538900746872 0.843309619761 -0.017690462964 0.018621880837
3.996444444000 -0.017769214136 0.015162247565 0.547548147537 0.834556939511 0.541250340177 0.844034053556 -0.017611821314 0.018343975322
3.996866666000 -0.017792446974 0.015126554391 0.548206206456 0.833491038122 0.540981343217 0.844698818479 -0.018005217399 0.018128745662
3.997288888000 -0.017584641759 0.014713345649 0.550809846523 0.832076825310 0.544153868730 0.841638964642 -0.018298490204 0.018057486746
3.997711111000 -0.017425469024 0.014380997608 0.551429520736 0.829835757584 0.545629330141 0.842141082255 -0.018700150227 0.017578113263
3.998133333000 -0.017275250887 0.014291586152 0.553553243680 0.829279130767 0.546867824275 0.839218294906 -0.018136505032 0.017991704652
3.998555555000 -0.017571716263 0.014911106056 0.553556693182 0.829067330717 0.546196022697 0.838392499090 -0.018432200671 0.017983741937
3.998977777000 -0.017110460622 0.014274781246 0.556171342662 0.827273255506 0.550418591691 0.838216559807 -0.018819566939 0.017604459030
3.999400000000 -0.016803219901 0.014532750617 0.557158085596 0.825908860036 0.552048656324 0.838951638902 -0.019605468440 0.017962056764
3.999822222000 -0.017521372967 0.014223375584 0.559637118047 0.824872109742 0.551594778063 0.835472824596 -0.019284412096 0.017059327244
4.000244444000 -0.016499487056 0.013411794489 0.559625942230 0.824204545856 0.553213105972 0.835761206687 -0.018376445009 0.017064894357
4.000666666000 -0.017269916553 0.012909571560 0.561470090246 0.823942291154 0.557379521406 0.833039376545 -0.019434275789 0.016845973295
4.001088888000 -0.017088947403 0.013789814808 0.562251401724 0.824237527804 0.556244231687 0.833565178473 -0.018538230961 0.016609200819
4.001511111000 -0.017088741822 0.013387980892 0.562933606253 0.820870960259 0.555730209151 0.831803585853 -0.018405996847 0.017344595529
4.001933333000 -0.017596721631 0.013946320552 0.565418459902 0.818263794677 0.558105578002 0.828674379734 -0.021011102385 0.017099042118
4.002355555000 -0.017284780850 0.012691213686 0.564690546826 0.819176536836 0.562110890414 0.829294966342 -0.019803834071 0.016824371437
4.002777777000 -0.017053153185 0.013256900968 0.566581416478 0.816884088741 0.560688419479 0.828267337335 -0.019723538168 0.017143385354
4.003200000000 -0.016594828889 0.012553271302 0.568134349035 0.816378307048 0.563549638171 0.827961058479 -0.019186793654 0.016927163301
4.003622222000 -0.017527774647 0.012733821113 0.568157085889 0.815539270478 0.565665198491 0.825564188272 -0.020127908173 0.016578016725
4.004044444000 -0.017013548087 0.012762460227 0.571367814682 0.814306327783 0.565940060181 0.824941789702 -0.020402719982 0.017254714398
4.004466666000 -0.017976746499 0.012893146120 0.572576935173 0.814604504881 0.567405815675 0.824792662802 -0.021113226063 0.015605003929
4.004888888000 -0.017282361206 0.012630194040 0.574200541552 0.812534626689 0.567915435770 0.822169671604 -0.020044569117 0.016110830079
4.005311111000 -0.018017687399 0.011861946114 0.574871050235 0.809766462776 0.570148803907 0.819566611383 -0.021408738226 0.016124808564
4.005733333000 -0.017609799746 0.011737447908 0.574933848292 0.810689580855 0.574146989023 0.820434750450 -0.020724277918 0.016197713089
4.006155555000 -0.017308744168 0.011934896341 0.577801759323 0.808955260430 0.573314786248 0.819541152148 -0.020873007801 0.015859425889
4.006577777000 -0.017481256788 0.011941218718 0.578384071593 0.807402707626 0.574553684976 0.818275758091 -0.021057445486 0.016236103455
4.007000000000 -0.017128363258 0.011648503275 0.576735691182 0.804145654989 0.569235187962 0.818944173430 -0.017952336417 0.016768905921
4.007422222000 -0.017794683497 0.011999094256 0.579529160497 0.806164039781 0.576792050405 0.816179405939 -0.021182323320 0.016455063213
4.007844444000 -0.017404566783 0.011682428635 0.581476501668 0.804219042791 0.578829307069 0.814694783827 -0.021143722067 0.016525077033
4.008266666000 -0.016732018190 0.012451275045 0.578291362520 0.806112878947 0.579158857623 0.814569728847 -0.021190495272 0.016920929885
4.008688888000 -0.016662330703 0.012081643215 0.580275486309 0.803625471628 0.580899043232 0.812157029963 -0.021712635227 0.017414913591
4.009111111000 -0.017494284487 0.012770398099 0.581226920500 0.802693592716 0.579038277472 0.810303658172 -0.021969734030 0.017555755020
4.009533333000 -0.017102017586 0.012169557782 0.581996649817 0.803219335435 0.584439415536 0.812314863237 -0.021682616527 0.016009782937
4.009955555000 -0.017062377355 0.011254890052 0.583410727358 0.802745056276 0.584006616784 0.809472835215 -0.020613325935 0.015988976862
4.010377777000 -0.017796245958 0.012175327477 0.583911917324 0.801884238762 0.585140557164 0.809441451830 -0.021611658712 0.015580442619
