# GHZ S RI R 50.000000000000
3.950000000000 0.215242806632 -0.254688204149 0.715056972318 0.586348913546 0.715415348978 0.575698438939 0.182483635333 -0.258075207121
3.950422222000 0.214686337489 -0.254911492569 0.716998453134 0.586150177961 0.715652952169 0.574605420165 0.180363360444 -0.258976446135
3.950844444000 0.213451663477 -0.253909558814 0.716899306004 0.586250459102 0.716744906564 0.573765997451 0.180059915203 -0.259717128203
3.951266666000 0.213019732020 -0.254949285351 0.717365804342 0.584151891248 0.715328432816 0.572767100611 0.177966972193 -0.261205691191
3.951688888000 0.212459894681 -0.254831753640 0.717820840675 0.583434646133 0.716166639748 0.572351897539 0.177321532879 -0.261525947660
3.952111111000 0.210837211444 -0.254952560127 0.717618846529 0.582307913137 0.718048054394 0.570282952021 0.178745843025 -0.261622818119
3.952533333000 0.211410873933 -0.254338740396 0.717887054068 0.583550628339 0.717780157519 0.570272052049 0.176309670872 -0.261502524921
3.952955555000 0.212187166431 -0.255070517235 0.720314533185 0.581291331830 0.718008239966 0.569330540590 0.175988655814 -0.262272244976
3.953377777000 0.211554274244 -0.254550884322 0.721257889343 0.581652208293 0.719138118411 0.569032549447 0.175530738222 -0.262342111228
3.953800000000 0.211553199157 -0.255465659581 0.719542176142 0.578484482468 0.719328401309 0.567874272469 0.176352610857 -0.262052408958
3.954222222000 0.211012182636 -0.254748018658 0.723081284611 0.578510955910 0.720962629311 0.567850716288 0.175382875299 -0.263668335935
3.954644444000 0.210680477050 -0.255336480729 0.726079891799 0.579044457870 0.721947816611 0.568092000173 0.175534957826 -0.263569292488
3.955066666000 0.210495395455 -0.255533590365 0.726735556243 0.576965493061 0.721435327703 0.565705273023 0.175541749047 -0.264105905813
3.955488888000 0.210832084815 -0.255237579424 0.725728016237 0.577313849336 0.723499109703 0.564834997412 0.175172503839 -0.263558367231
3.955911111000 0.209935616716 -0.256180468254 0.726534795819 0.576865694903 0.724399579062 0.562776244943 0.174662687818 -0.263419908191
3.956333333000 0.210820231849 -0.255247015357 0.729443289329 0.579240397650 0.725895102718 0.564483695097 0.175109064492 -0.264647388868
3.956755555000 0.209951900543 -0.254838617467 0.729703695259 0.575011874841 0.726264638260 0.562155275511 0.174924113715 -0.264989273536
3.957177777000 0.209645394745 -0.256834554160 0.731102652315 0.573603248975 0.727472686976 0.562537790305 0.174425345142 -0.264475207084
3.957600000000 0.208931814162 -0.255660954772 0.732901037140 0.571634419343 0.726745948899 0.561807896820 0.173310415195 -0.266219960330
3.958022222000 0.208893037671 -0.256731789487 0.734576386433 0.569755040850 0.729090402633 0.559872870042 0.174237815384 -0.265770770569
3.958444444000 0.209586339954 -0.256178354545 0.734655960178 0.570233732248 0.729813916723 0.559782286621 0.173287734932 -0.266277446846
3.958866666000 0.209662074388 -0.257293842140 0.737160622722 0.569052226699 0.731346266418 0.557751817515 0.173147810380 -0.266646371833
3.959288888000 0.209021497058 -0.257654550550 0.738728849032 0.568632254957 0.733173004495 0.556885703770 0.173895254790 -0.266435395585
3.959711111000 0.208072158095 -0.258354752069 0.738314501748 0.567555233338 0.734070660369 0.555861723362 0.173813147881 -0.266660576634
3.960133333000 0.208856888527 -0.257410543378 0.739599490108 0.567337065222 0.734566598478 0.556239590614 0.172829798970 -0.267262617911
3.960555555000 0.209461683869 -0.257485200519 0.741556034513 0.565646518043 0.735198274940 0.555422593604 0.172618973946 -0.268482433229
3.960977777000 0.209010698805 -0.258313571300 0.743193011208 0.564559774619 0.736378991963 0.554449572349 0.172031158095 -0.268610524687
3.961400000000 0.209323279632 -0.257390910928 0.743604786881 0.562874650439 0.737027870228 0.553116293640 0.172448390010 -0.269168700506
3.961822222000 0.208054254009 -0.258436083110 0.745533534331 0.562385888189 0.738346818517 0.552152283708 0.172303092695 -0.269226006408
3.962244444000 0.208650911063 -0.259064447287 0.746654042409 0.562533362698 0.739585606727 0.552276724930 0.171837690914 -0.269068591916
3.962666666000 0.207632226344 -0.258857583303 0.747695420952 0.559956153217 0.739957671550 0.550330858589 0.170954172758 -0.270041685487
3.963088888000 0.207985149089 -0.258599860623 0.747316319625 0.560317199526 0.741122239510 0.550108697591 0.170909169955 -0.270100453098
3.963511111000 0.207962204573 -0.260016248699 0.750496579276 0.558803398643 0.742775182648 0.549915421886 0.171109090421 -0.270060113583
3.963933333000 0.207177867122 -0.259975694802 0.750924392116 0.557847143753 0.744034941077 0.547890698554 0.170831138375 -0.270477187668
3.964355555000 0.207136160921 -0.259900810855 0.751614065869 0.556886487517 0.743584515718 0.547280365631 0.170487998200 -0.271658454321
3.964777777000 0.207564848984 -0.260466366016 0.752772337269 0.558172292239 0.744752827213 0.547176703355 0.169496133866 -0.271718804076
3.965200000000 0.207355022856 -0.260780282412 0.754374581654 0.555505688589 0.747051783924 0.545839667461 0.169692870803 -0.271869776694
3.965622222000 0.206626116521 -0.261407041072 0.754485170108 0.552191203525 0.747595069042 0.544680325891 0.169007236201 -0.272572561712
3.966044444000 0.207208235811 -0.261710018953 0.756290031540 0.553750352397 0.748756533410 0.544136986209 0.168818173522 -0.272593570148
3.966466666000 0.206816101333 -0.261695992840 0.760071887651 0.551132416856 0.748347046901 0.542233956857 0.167938337903 -0.272843049507
3.966888888000 0.206422283066 -0.261795586332 0.759631893501 0.550218752817 0.750335892112 0.542039865833 0.168791802492 -0.273874469420
3.967311111000 0.206317954584 -0.262508016403 0.760159793404 0.549030927943 0.751816862598 0.540897392920 0.167220230609 -0.274032892538
3.967733333000 0.206644541545 -0.262194816943 0.760750832332 0.549042627322 0.752375646351 0.539518166407 0.167466242158 -0.274597270053
3.968155555000 0.206126555699 -0.262746748921 0.762375277895 0.546780386187 0.752916566401 0.539149344340 0.168055366608 -0.274834706129
3.968577777000 0.206020554193 -0.263098778618 0.763318262724 0.545683542623 0.753987831783 0.538330126597 0.167889712734 -0.275437117548
3.969000000000 0.207402576560 -0.264840493980 0.768266510507 0.544630173484 0.754498182815 0.539228254539 0.166962621171 -0.275925992698
3.969422222000 0.205558919758 -0.263788095777 0.765906316023 0.544565090335 0.757264602271 0.536892184326 0.167121743597 -0.276024071760
3.969844444000 0.205082550695 -0.264561920913 0.767302286519 0.542463529354 0.756829436121 0.535040326688 0.166504103909 -0.276188281700
3.970266666000 0.205528584332 -0.265044417946 0.768739690757 0.541020350277 0.758447894059 0.534145972619 0.166208213533 -0.277085634989
3.970688888000 0.204486970339 -0.265292568445 0.769129509396 0.540020231682 0.759479581962 0.532894304202 0.164850002268 -0.277397577437
3.971111111000 0.205503227454 -0.265547076087 0.770251450875 0.538255288178 0.760631159890 0.532792864211 0.165403014463 -0.277793789409
3.971533333000 0.205278668941 -0.265672405063 0.771643497969 0.537986444442 0.760984855375 0.530639777188 0.164678111845 -0.278454895161
3.971955555000 0.204243216624 -0.265898337633 0.772269439290 0.535968973358 0.761734786456 0.530488051494 0.164260183094 -0.279003990525
3.972377777000 0.204011218059 -0.266821768599 0.772985957289 0.535088424708 0.763558778684 0.529184270009 0.163460875612 -0.278518418461
3.972800000000 0.204254168604 -0.267086199412 0.774557963169 0.533035323435 0.763688145236 0.527836262559 0.163439810046 -0.279241036904
3.973222222000 0.204461995100 -0.267885381553 0.776327928252 0.532021002112 0.764146602121 0.527183898023 0.162035047539 -0.280411090224
3.973644444000 0.203966112835 -0.268957796077 0.777349940816 0.531394941524 0.766633471417 0.526280944924 0.162310543353 -0.280576677887
3.974066666000 0.203335967076 -0.268337463952 0.777322643718 0.530438017649 0.766907899141 0.525097391342 0.162206779142 -0.280632489110
3.974488888000 0.202848741164 -0.269057346576 0.778817630859 0.529235187091 0.767575999647 0.523750057541 0.160924332173 -0.281089040733
3.974911111000 0.202738467012 -0.269330940997 0.779612488204 0.527203885435 0.768752670160 0.522578150737 0.160778621159 -0.281746808039
3.975333333000 0.202224301192 -0.269544783545 0.780628316285 0.525917560029 0.769778895282 0.521827464301 0.161456121844 -0.281457353963
3.975755555000 0.202563025121 -0.270773669687 0.781485487139 0.524789966411 0.770936374287 0.522065528873 0.160178275523 -0.281865246646
3.976177777000 0.202199916277 -0.270348863854 0.782479365334 0.524211556973 0.771693603248 0.519354496269 0.160498582931 -0.282860283269
3.976600000000 0.202004772416 -0.272087672200 0.784241718976 0.522051698710 0.773580906489 0.518804796626 0.159789390248 -0.282549659080
3.977022222000 0.202333919646 -0.272175737775 0.784336602438 0.520898712810 0.773485192509 0.518179835882 0.159122771363 -0.283561473407
3.977444444000 0.201582343091 -0.272235706294 0.784531134227 0.520628154451 0.775987461166 0.515595172417 0.158809124700 -0.284507062448
3.977866666000 0.201562300005 -0.272714506779 0.785808624992 0.518800485385 0.775656054215 0.515595888580 0.158311845948 -0.283431289839
3.978288888000 0.201183572999 -0.271682500645 0.786891596262 0.518187194370 0.775945022742 0.514962296651 0.158492820635 -0.285361040960
3.978711111000 0.200979210577 -0.272975991051 0.787947263485 0.516819673038 0.777541255640 0.513858858632 0.156642881306 -0.285297198845
3.979133333000 0.201467560374 -0.274287263446 0.789214890676 0.515060283031 0.777901000826 0.513855093097 0.156040639397 -0.285610746135
3.979555555000 0.200286255391 -0.274817380030 0.789535988114 0.514270284111 0.780224489127 0.511115966697 0.155445842466 -0.286021718082
3.979977777000 0.200794112019 -0.275374819422 0.790863428146 0.512901022258 0.780450444714 0.510695159251 0.154688464990 -0.286303883568
3.980400000000 0.199976248955 -0.275483515122 0.792421272182 0.511585251503 0.780728336958 0.509278813734 0.154594417177 -0.286936502944
3.980822222000 0.199420909828 -0.275762491110 0.792725254041 0.510410423861 0.781208834630 0.507971793157 0.154870683198 -0.286659080522
3.981244444000 0.198402694875 -0.276210273247 0.793414504452 0.508633419555 0.783833366337 0.506180656147 0.154348652084 -0.287223311051
3.981666666000 0.199660527074 -0.277584387851 0.795209591598 0.507431241383 0.784284692696 0.506072335911 0.151745463270 -0.287951174513
3.982088888000 0.198561517171 -0.276877070811 0.795480750113 0.505632570851 0.784282552184 0.504616342942 0.152946885769 -0.287680072899
3.982511111000 0.198320795190 -0.277439309212 0.796014181269 0.505102736910 0.785120784614 0.502931796957 0.152157218207 -0.288360783742
3.982933333000 0.198290057779 -0.278218013875 0.796903430808 0.503408419937 0.786212246580 0.503238899857 0.152645169007 -0.288496122453
3.983355555000 0.196984618233 -0.277949357153 0.797214816466 0.502411996140 0.787211397531 0.502031257912 0.152443412297 -0.288396580787
3.983777777000 0.197702654616 -0.279472470617 0.798820651085 0.501082098823 0.788349219579 0.500695476115 0.151790422630 -0.290064782971
3.984200000000 0.196898969833 -0.278966250395 0.799527139186 0.500646697620 0.789235377668 0.499409019652 0.152141630888 -0.290719411688
3.984622222000 0.196070971985 -0.280184443701 0.800382709463 0.498773151855 0.790122306560 0.497388692703 0.150413008121 -0.290210027737
3.985044444000 0.195227196425 -0.280939252246 0.801687475982 0.497429028148 0.791089516045 0.495177946944 0.149085228454 -0.290389510458
3.985466666000 0.195792137287 -0.280375770493 0.801875021006 0.495996322693 0.791638996411 0.495263696653 0.150126510528 -0.291216144643
3.985888888000 0.195552772869 -0.280859114026 0.802423889868 0.494672104947 0.791811613012 0.494193789112 0.149001042284 -0.291236056362
3.986311111000 0.195214127080 -0.282697517189 0.803961205323 0.492908198546 0.794793082138 0.493625483127 0.147964875022 -0.292149457726
3.986733333000 0.193950918850 -0.282888479466 0.804325575835 0.491309053304 0.795523156448 0.489346681975 0.147550218551 -0.290445015810
3.987155555000 0.195106034528 -0.284301790539 0.805724900374 0.490024171413 0.797171123162 0.491459639374 0.146134102439 -0.292279020488
3.987577777000 0.194622298762 -0.284189354243 0.807034422873 0.489045817951 0.797214626768 0.489465978101 0.146476247834 -0.292029588613
3.988000000000 0.193514253566 -0.284298742445 0.807650959511 0.488082937516 0.797147545402 0.488393279563 0.145187479860 -0.293044120484
3.988422222000 0.193498384365 -0.284054884973 0.808594183079 0.486240378783 0.796248293551 0.487826319573 0.145168189337 -0.291889955601
3.988844444000 0.192945875849 -0.285698969326 0.809337640465 0.485258450819 0.798445208028 0.486451385007 0.144135682091 -0.292364412567
3.989266666000 0.193327068806 -0.286594079814 0.810663416589 0.483244508439 0.800537484298 0.486627058965 0.143483228823 -0.294111072447
3.989688888000 0.191726314194 -0.285812687919 0.811138838519 0.483149099929 0.799865426084 0.483656646265 0.143113285086 -0.293838728056
3.990111111000 0.193011963207 -0.286069545374 0.812123819979 0.481334471181 0.801221823414 0.486273461013 0.144494003268 -0.295235410514
3.990533333000 0.191269101357 -0.287051490639 0.812100953882 0.480184277540 0.801548647909 0.482268116203 0.142936258968 -0.294713636074
3.990955555000 0.190201798518 -0.287582331644 0.813084217862 0.478329321556 0.802456580479 0.480306243506 0.142417504367 -0.294927874454
3.991377777000 0.190045897926 -0.288986675206 0.814194611088 0.477059970672 0.804605270632 0.478943838873 0.140073321497 -0.295190466904
3.991800000000 0.192145888246 -0.289286503955 0.815790855346 0.475696068983 0.806869110087 0.480605836460 0.140739284866 -0.296832396512
3.992222222000 0.189129282383 -0.289573398536 0.815799808096 0.473661203200 0.805869549960 0.477234612407 0.141117670511 -0.295855686445
3.992644444000 0.188677035503 -0.290125774160 0.815819106682 0.472787989540 0.807143536897 0.475665666784 0.139574500449 -0.295168435463
3.993066666000 0.187724810247 -0.290455670747 0.815817300007 0.471547793421 0.807243125820 0.473543588166 0.139383274902 -0.294918269555
3.993488888000 0.187746796604 -0.291121040806 0.817558759645 0.470472308508 0.808468678198 0.473479101629 0.139289918898 -0.296606577012
3.993911111000 0.186573946141 -0.291600369724 0.818217849494 0.469259228507 0.808371308286 0.470749443733 0.137373075382 -0.295919035435
3.994333333000 0.186322925632 -0.293249546430 0.820004677573 0.466172924095 0.812078818172 0.471024907700 0.137132139057 -0.297579918157
3.994755555000 0.185980333502 -0.292579647732 0.820499277393 0.466364969418 0.810237592416 0.469327989953 0.136434833106 -0.296693664067
3.995177777000 0.185684786734 -0.293421470132 0.820569728885 0.463946752715 0.813062641596 0.468787302646 0.135575316548 -0.296483037349
3.995600000000 0.184741136849 -0.293166056497 0.820683619404 0.464121964140 0.811332259896 0.466315474236 0.135535642349 -0.296181209691
3.996022222000 0.185679014102 -0.294056368359 0.821966302328 0.462252463164 0.812667299615 0.467343570706 0.134722465466 -0.297120122176
3.996444444000 0.183651639389 -0.294362900318 0.822520112664 0.460892173910 0.813755383922 0.462752291986 0.134620589674 -0.297480332781
3.996866666000 0.183684881553 -0.293880753749 0.823432284490 0.460246395629 0.813803026573 0.463149250272 0.134727563148 -0.297819943477
3.997288888000 0.183025326068 -0.295428622984 0.824285636532 0.458187969497 0.816522542363 0.462360714367 0.133231627375 -0.297098776466
3.997711111000 0.183183478655 -0.295449145680 0.824821175554 0.457266243991 0.815912646626 0.460626850130 0.132263132070 -0.297681914666
3.998133333000 0.181850299471 -0.295771822021 0.825764718342 0.455179412576 0.816468781975 0.458569720028 0.131974331914 -0.298007400792
3.998555555000 0.181467452049 -0.297043191841 0.826184248224 0.454614431304 0.817905504681 0.457910542085 0.132227283266 -0.298027223593
3.998977777000 0.180843037209 -0.296978484113 0.826781634958 0.452864725520 0.818654536469 0.456207181681 0.131058574833 -0.298492610984
3.999400000000 0.181462713263 -0.297871071520 0.828432753717 0.451305117075 0.821005057144 0.454766390798 0.129155739270 -0.298568369919
3.999822222000 0.179984436345 -0.298603433678 0.828572513364 0.450399510813 0.822426398113 0.454347982592 0.129141106395 -0.299523410307
4.000244444000 0.181084225342 -0.297716856156 0.830696514854 0.448826312768 0.820844404554 0.456689094601 0.130267597322 -0.300079825539
4.000666666000 0.178595273994 -0.299143414406 0.829890782525 0.448216383499 0.822630684159 0.452434305947 0.129180870115 -0.299344125600
4.001088888000 0.177479489753 -0.298503729035 0.830525694248 0.445517519052 0.822344589672 0.449385488970 0.127156341756 -0.298850423891
4.001511111000 0.176571040111 -0.299360866955 0.831725815383 0.445057782607 0.822760724215 0.448794194548 0.127705885505 -0.299707853979
4.001933333000 0.176179028445 -0.300019507327 0.833069085755 0.444079556216 0.824261570713 0.445427106332 0.126651978915 -0.299440170478
4.002355555000 0.177081493175 -0.300385839136 0.833316022603 0.443308699505 0.826067732339 0.447756410445 0.127160453998 -0.299822330167
4.002777777000 0.175477354709 -0.300287883626 0.834450979702 0.440461715309 0.822023120016 0.445572765762 0.126729318575 -0.298762930337
4.003200000000 0.174891628047 -0.301542894334 0.834099832490 0.439689161435 0.827563943516 0.444426758064 0.126218755949 -0.300167449303
4.003622222000 0.174778815742 -0.302367921742 0.835982293318 0.438765668152 0.828870434967 0.442214763810 0.124681401091 -0.300878085576
4.004044444000 0.173918148995 -0.300758060012 0.836834986343 0.435958505757 0.826341364418 0.442987233507 0.124989270551 -0.299465642671
4.004466666000 0.173800391597 -0.300585547319 0.834549565931 0.433839978623 0.825115169562 0.442476255835 0.125254311919 -0.298591839230
4.004888888000 0.171560063364 -0.303006423186 0.836797499978 0.433523031823 0.829141767476 0.438074858716 0.123037291140 -0.300143396262
4.005311111000 0.171377028221 -0.303327802526 0.838978404827 0.432698754930 0.831033332721 0.437106253429 0.122144475904 -0.300707939940
4.005733333000 0.172718034795 -0.303929459022 0.838074122158 0.430659348308 0.833113065098 0.439371324450 0.122441084159 -0.301496001854
4.006155555000 0.171616753934 -0.303947725372 0.838730677673 0.430862197510 0.832790718876 0.437185485778 0.122591854709 -0.301399688332
4.006577777000 0.169738242193 -0.303556613109 0.839237202556 0.429056268583 0.832434988325 0.433873329951 0.122232550878 -0.300727576056
4.007000000000 0.170541057954 -0.303204573046 0.838388449034 0.426947572640 0.831535889018 0.435473390456 0.121413182071 -0.300955446655
4.007422222000 0.167843998208 -0.304359070035 0.840565366890 0.425079114957 0.834559026211 0.430242684718 0.120160145042 -0.300838882091
4.007844444000 0.167583197403 -0.305755301743 0.842512309747 0.424167017419 0.835288804584 0.428848906205 0.119668214403 -0.301435250059
4.008266666000 0.166874371377 -0.306075671390 0.841165505941 0.422567745644 0.836951499549 0.429424835724 0.119170045773 -0.300453282298
4.008688888000 0.167172351102 -0.305623581572 0.843698013943 0.422483409422 0.835847042947 0.427089947790 0.118549983582 -0.300566170863
4.009111111000 0.165578238877 -0.306658571387 0.844017499560 0.422167816258 0.838783406179 0.424938002829 0.118617309204 -0.301697931638
4.009533333000 0.165387999217 -0.304555372677 0.844076785602 0.420417659628 0.833659390625 0.425446150545 0.119314913709 -0.299994275960
4.009955555000 0.164545332395 -0.305935563353 0.845087278037 0.417171106635 0.837347311511 0.423953608713 0.118386721658 -0.301577232486
4.010377777000 0.163414324788 -0.306425453881 0.845969342541 0.417172853475 0.838407191959 0.420001188625 0.116167261003 -0.301902475073
