# GHZ S RI R 50.000000000000
3.950000000000 -0.034359292648 0.009547861962 0.377677459821 0.912256263728 0.365039706974 0.912723759814 -0.042670796740 0.014201062423
3.950422222000 -0.035706590111 0.009846247876 0.376980884141 0.913307934943 0.365654966179 0.911469312032 -0.042930965312 0.014136878483
3.950844444000 -0.036755022469 0.009721571222 0.374581506361 0.913368491243 0.366843788191 0.907879173805 -0.041941657824 0.013886050532
3.951266666000 -0.036624811766 0.010329306210 0.375338989641 0.914154644952 0.367389697474 0.910056529527 -0.042970674892 0.013258359972
3.951688888000 -0.037148390630 0.011000368691 0.372372082704 0.914845429876 0.371012423418 0.909428290130 -0.042680443094 0.014342811044
3.952111111000 -0.038030082668 0.011053189765 0.370788249804 0.914850325982 0.371375915479 0.908254004873 -0.042487637172 0.014551929851
3.952533333000 -0.038089764930 0.010149679145 0.372645191327 0.913090017208 0.372541742440 0.905964348559 -0.042708101396 0.013795899275
3.952955555000 -0.038104227434 0.011359100799 0.373420869164 0.912194671974 0.372769495304 0.908129156936 -0.043246692981 0.013773315716
3.953377777000 -0.038003349949 0.011510043627 0.374610897091 0.912622011984 0.375204160549 0.907025170551 -0.042819516726 0.014215535924
3.953800000000 -0.036409522466 0.012739170267 0.379314126368 0.912031905408 0.375611889683 0.909580172375 -0.041573968254 0.014645857606
3.954222222000 -0.038013233778 0.012024138796 0.377909809536 0.911526387879 0.377270547159 0.906438695732 -0.041664984304 0.014025437771
3.954644444000 -0.038375644860 0.012715471048 0.379399217345 0.913082185340 0.378599220526 0.906723533442 -0.041811012022 0.014324470176
3.955066666000 -0.038921042139 0.012940233995 0.378763513500 0.914321215202 0.376033716022 0.906107207170 -0.042390182865 0.014408384119
3.955488888000 -0.037847720495 0.014367260321 0.381588475616 0.914097302326 0.381429722873 0.908508265082 -0.041851347836 0.015650002411
3.955911111000 -0.038169831269 0.012988825502 0.382293606725 0.912160286006 0.381989264965 0.905267665882 -0.042242804149 0.014979705631
3.956333333000 -0.038881926093 0.013793470036 0.381637580995 0.914975442214 0.382726599439 0.907374413749 -0.042370900177 0.015622687837
3.956755555000 -0.038596373710 0.015419830513 0.386577463285 0.914611061154 0.383511937496 0.906291712116 -0.040849242665 0.015748841962
3.957177777000 -0.037996239294 0.013517193590 0.385675574884 0.909316997962 0.385286158391 0.903874132482 -0.040801685524 0.014022637247
3.957600000000 -0.037558968446 0.014894035385 0.391433454874 0.910476348424 0.388050191009 0.904791113674 -0.040048431166 0.015298381774
3.958022222000 -0.037443405335 0.016083184797 0.392291895000 0.911627065562 0.389641654743 0.906472762561 -0.040642530845 0.016586406549
3.958444444000 -0.037093324391 0.016380551640 0.393046707094 0.911045132372 0.390265807203 0.905915151721 -0.040197708805 0.015908496826
3.958866666000 -0.037897181736 0.016683209449 0.393717682058 0.913218054734 0.390746295448 0.905346688973 -0.040248500190 0.016360533091
3.959288888000 -0.038098299104 0.017023325901 0.394367389091 0.913602009626 0.392094041889 0.905155574316 -0.040018539206 0.016383423117
3.959711111000 -0.037785578791 0.016365025457 0.395364137737 0.912224080732 0.393089168220 0.905213696001 -0.040603130511 0.015748403547
3.960133333000 -0.036966436979 0.017295982776 0.398832876261 0.910800694169 0.396959547092 0.905235153993 -0.039595599590 0.017014521865
3.960555555000 -0.036549429199 0.018065953578 0.400142555089 0.911108853788 0.396377808860 0.904531712113 -0.038654016900 0.015378508735
3.960977777000 -0.036656321691 0.017940669540 0.401197727178 0.909845283485 0.399270954032 0.905110217911 -0.039498934674 0.016424521635
3.961400000000 -0.036422328441 0.018876617287 0.402558694378 0.910976867052 0.399164136953 0.903335982773 -0.037868554988 0.016416787812
3.961822222000 -0.036302535988 0.019077754485 0.405452034870 0.909673524153 0.402633213359 0.903968620032 -0.038390211974 0.016839553080
3.962244444000 -0.036615401603 0.018317429367 0.405047798471 0.910518618883 0.401895653583 0.902580264453 -0.038206721073 0.016116865684
3.962666666000 -0.035981260142 0.019318550825 0.409205312135 0.908725043656 0.404744437101 0.903648877113 -0.038561183377 0.016435155465
3.963088888000 -0.036368790293 0.020011117354 0.408432515115 0.910355652053 0.405407832835 0.903537130598 -0.038132204034 0.016707089075
3.963511111000 -0.035476594925 0.019922327772 0.411513564722 0.908443445296 0.408050952222 0.903963419625 -0.037820393840 0.017318471556
3.963933333000 -0.036071160130 0.020177598169 0.412938936668 0.908973148459 0.409369412810 0.903362952670 -0.037719708951 0.017269239938
3.964355555000 -0.035710111756 0.020555727989 0.412958620543 0.908687604364 0.409928542299 0.901932010189 -0.037103757761 0.016656266688
3.964777777000 -0.035592117697 0.020031940514 0.413363825321 0.909176895716 0.410897079285 0.901953693930 -0.039055773092 0.015948695766
3.965200000000 -0.034882338351 0.020494371350 0.417215618528 0.905768420048 0.414793859340 0.902671331244 -0.037374015472 0.017120065958
3.965622222000 -0.034755918222 0.020882718585 0.417707964659 0.905769951492 0.415372317941 0.902016393437 -0.036875293490 0.016528417591
3.966044444000 -0.034188842742 0.020946203279 0.421254160549 0.906014367659 0.417295137465 0.901825921558 -0.037110426715 0.016512586983
3.966466666000 -0.034785061703 0.022028343313 0.421918925213 0.906399016040 0.417659481595 0.899681154628 -0.036253797171 0.017422346289
3.966888888000 -0.034417844817 0.022322981567 0.423678548166 0.906784285432 0.419466545956 0.901868185926 -0.036081911379 0.017187606222
3.967311111000 -0.034528970364 0.021828930031 0.424128722181 0.905092174837 0.421011853982 0.900676948549 -0.036845848249 0.016345538721
3.967733333000 -0.033355558168 0.022358409888 0.428412785888 0.904683386807 0.422605487947 0.900076627903 -0.035866003850 0.016429648185
3.968155555000 -0.033532875253 0.023246246930 0.428294298418 0.904159337927 0.422945650326 0.899957361586 -0.034900982069 0.016324259406
3.968577777000 -0.032736449604 0.023388449059 0.430823712586 0.903336777479 0.425650589925 0.900292351951 -0.034731551164 0.016951709983
3.969000000000 -0.030658363148 0.020978218803 0.432704488070 0.894336008879 0.429194659417 0.898517248016 -0.033898386354 0.015605050079
3.969422222000 -0.032594981724 0.023578121438 0.434254437910 0.902955466847 0.429275656692 0.900726253272 -0.035331504146 0.016819384345
3.969844444000 -0.032316917806 0.023747425956 0.435496038117 0.902407470301 0.430559172120 0.898266315630 -0.034361351514 0.016808906138
3.970266666000 -0.031621936798 0.023819795036 0.437356184637 0.901382278334 0.432047524134 0.898418757208 -0.033548149437 0.016559921862
3.970688888000 -0.031628783343 0.023990156584 0.439774031665 0.902452076335 0.433864054238 0.898099779459 -0.034738682217 0.016060886195
3.971111111000 -0.030662628898 0.024794821497 0.441067682988 0.900599653819 0.435199818523 0.898652862889 -0.033448061481 0.016433699732
3.971533333000 -0.030300179131 0.025419197136 0.443292579905 0.901875530196 0.436694185040 0.898136456132 -0.033342336516 0.016797750502
3.971955555000 -0.030526714082 0.024778529001 0.444414920540 0.899629991848 0.437855955814 0.896565839398 -0.033306970294 0.015486625616
3.972377777000 -0.030759914688 0.024563619457 0.445001406094 0.899134023384 0.439338460891 0.896355553576 -0.034306290819 0.015824477096
3.972800000000 -0.030031863363 0.025351575223 0.446902304992 0.899157534343 0.440816526862 0.895910816385 -0.032908280985 0.016065666173
3.973222222000 -0.030021562333 0.025423426392 0.447250485723 0.900010960320 0.441828487205 0.894951367039 -0.032566711370 0.014148353943
3.973644444000 -0.029261658868 0.024935375013 0.450965852980 0.897478917834 0.444812231585 0.895312191721 -0.032871652893 0.014615661049
3.974066666000 -0.029872237212 0.025028346721 0.450748811426 0.896179227738 0.445127412488 0.893885236583 -0.032795677250 0.015250879728
3.974488888000 -0.029676053357 0.025357101729 0.453030873708 0.896403794726 0.446898664035 0.893700703784 -0.033498069033 0.014935972675
3.974911111000 -0.028697538115 0.025555398983 0.454889791318 0.895755212464 0.449575584592 0.893374303734 -0.032323555524 0.014717293597
3.975333333000 -0.028216750855 0.026277255541 0.457900032187 0.896319354856 0.450642442233 0.892876607610 -0.032151324572 0.015690811732
3.975755555000 -0.027693294929 0.025801746158 0.458802053144 0.894741055180 0.452015828603 0.893895162781 -0.032852213840 0.014381959951
3.976177777000 -0.026891012787 0.026246759472 0.462422413717 0.893354803394 0.453916578977 0.892327151381 -0.031139116853 0.014613749047
3.976600000000 -0.026906572673 0.025572843001 0.463652315688 0.891276972745 0.456652559655 0.893428011271 -0.031671288717 0.016232453133
3.977022222000 -0.025999637646 0.025619222530 0.464811947625 0.890808374795 0.457426394663 0.891439214879 -0.030725083501 0.013667630909
3.977444444000 -0.025944628506 0.026253033394 0.466723795559 0.891324307277 0.460438118063 0.890497454162 -0.030830934940 0.014085563342
3.977866666000 -0.026035339496 0.026323525025 0.466903956288 0.891305306962 0.460845942663 0.890519566430 -0.031093094944 0.014599525363
3.978288888000 -0.025864615409 0.026584547450 0.468650859660 0.889587152930 0.461105696614 0.889794902837 -0.030581996521 0.013585320378
3.978711111000 -0.025659253638 0.026014066468 0.470083078854 0.888900712870 0.463397506936 0.889239638171 -0.031835807129 0.012834056842
3.979133333000 -0.023732082561 0.026221763208 0.474366878093 0.888360363941 0.465504413156 0.889327396527 -0.030424178285 0.011758585163
3.979555555000 -0.024405898771 0.025817521097 0.473718318350 0.887931886248 0.467991969569 0.888263930031 -0.031514261286 0.012678184706
3.979977777000 -0.023962544864 0.026379923402 0.475930835033 0.887426200147 0.468862190625 0.888158961369 -0.030625542573 0.011935772194
3.980400000000 -0.023670890245 0.025800866504 0.477737931111 0.885370254415 0.470262508895 0.887099395714 -0.030802667264 0.012322599863
3.980822222000 -0.023596089185 0.026304168351 0.478531769895 0.886128118894 0.472007944179 0.885630836266 -0.030261982309 0.012360099339
3.981244444000 -0.023480523835 0.025755857921 0.480421018254 0.883224771025 0.474700013017 0.884818808046 -0.030972978136 0.012710140878
3.981666666000 -0.022974719304 0.025203813773 0.482278281637 0.882873922847 0.476045166726 0.885751968654 -0.030894174358 0.011397202892
3.982088888000 -0.022391140638 0.026591189026 0.483771865580 0.882392015909 0.477371775437 0.884493892609 -0.029941206934 0.012277979437
3.982511111000 -0.022284681756 0.026486470642 0.485040258335 0.882409855992 0.478720853840 0.883212037908 -0.029771486581 0.011495960510
3.982933333000 -0.021578623370 0.026526716921 0.486618135929 0.881053447651 0.479562939690 0.883288365740 -0.029769697809 0.011173106350
3.983355555000 -0.022030892251 0.025791321080 0.487607062557 0.878673209431 0.481133334986 0.882150154500 -0.030340294203 0.011554091834
3.983777777000 -0.021198622494 0.025887840726 0.489324665098 0.879428164736 0.483116716721 0.882032285084 -0.028957801823 0.010508673602
3.984200000000 -0.021140440157 0.026521296447 0.489847724487 0.879749700762 0.483512417538 0.881895427753 -0.029469836598 0.011532726476
3.984622222000 -0.020603123723 0.025429896558 0.492755247280 0.876254992810 0.486774436550 0.879545856187 -0.030058833992 0.010244765639
3.985044444000 -0.020588106845 0.025535866276 0.494830801275 0.877147993871 0.489292328255 0.878203165428 -0.030265084469 0.010942106556
3.985466666000 -0.019702079196 0.025983941789 0.495596910039 0.875434497067 0.489814912691 0.878023728511 -0.028770133777 0.010461510649
3.985888888000 -0.019747712202 0.026291451513 0.496570971058 0.875652990323 0.491641197410 0.877710011443 -0.028262360201 0.010222696058
3.986311111000 -0.018650376614 0.024754122735 0.500021028212 0.872740969512 0.494475421861 0.877424084618 -0.029563235178 0.009341414050
3.986733333000 -0.018817476922 0.025475261705 0.501454833286 0.870851741891 0.496333577343 0.874570793840 -0.029622271669 0.011494914979
3.987155555000 -0.018460508586 0.025173399269 0.502845955721 0.871628662164 0.497172602464 0.876733514492 -0.030163111156 0.008978039142
3.987577777000 -0.018022798508 0.026094855558 0.504732815269 0.871861985322 0.498699153311 0.875667408253 -0.029642171579 0.010478884802
3.988000000000 -0.017951680308 0.024811605139 0.506029380863 0.869644507350 0.499940349989 0.874310177083 -0.029920903326 0.008590320524
3.988422222000 -0.017748031236 0.025169982161 0.507659270931 0.868358351109 0.500512432448 0.872951087160 -0.029507694822 0.009517680050
3.988844444000 -0.017210091084 0.024837427757 0.510070769644 0.868531774433 0.503577556217 0.872569477993 -0.029656190522 0.008818880604
3.989266666000 -0.016459036322 0.024216840182 0.512306216116 0.866142179405 0.504006505242 0.873216591607 -0.030398890438 0.007858312994
3.989688888000 -0.017187860016 0.023828920598 0.512313717855 0.865758146110 0.506325107305 0.869795180001 -0.029950738389 0.007482603103
3.990111111000 -0.016089721207 0.024395320376 0.513350907170 0.866279064764 0.507176526038 0.872909774045 -0.028638669575 0.007927533893
3.990533333000 -0.016141654804 0.024573220172 0.515420357369 0.864991478198 0.508551063218 0.870098769070 -0.028746606922 0.007534865727
3.990955555000 -0.015771019794 0.023645126851 0.517293057122 0.862435799042 0.510301870632 0.867500981347 -0.029306661718 0.007380087349
3.991377777000 -0.016236796159 0.023073157969 0.518177748917 0.862135566874 0.513432100198 0.868086402761 -0.030443046253 0.007214749025
3.991800000000 -0.015164780029 0.023912724577 0.520169757224 0.862944915258 0.514199281213 0.869767677946 -0.029511825906 0.007453510117
3.992222222000 -0.015024540550 0.023249911155 0.522451219685 0.859769542214 0.515234874110 0.865428987305 -0.029118236817 0.007295687246
3.992644444000 -0.015000669570 0.023046112725 0.522348720158 0.858822270361 0.518603855775 0.864315780964 -0.030297555489 0.007181563364
3.993066666000 -0.014568885914 0.023110054425 0.523741734746 0.857202983823 0.519315206628 0.863582464829 -0.029704850690 0.007681635711
3.993488888000 -0.014170641755 0.022656498560 0.526343498826 0.857041760818 0.520086907180 0.862884937566 -0.029298612734 0.006275830544
3.993911111000 -0.014704273187 0.022138442755 0.527072730370 0.856275954141 0.523002242269 0.861137022659 -0.030027527295 0.006327175529
3.994333333000 -0.013701120497 0.021356521431 0.529609878644 0.853176173538 0.524607786972 0.862521921665 -0.030474938968 0.006137046374
3.994755555000 -0.014390975359 0.022394076762 0.531160397345 0.853976386199 0.524682830605 0.860030477466 -0.030341942059 0.005630196732
3.995177777000 -0.014128579199 0.021596401753 0.531607316547 0.851565952123 0.528005059727 0.859336298593 -0.031171970290 0.006291709207
3.995600000000 -0.014406074250 0.021625240491 0.532330438937 0.851768222825 0.527676233392 0.856843889722 -0.030494745253 0.006141485359
3.996022222000 -0.012989015914 0.021171679371 0.534561101368 0.850257340439 0.529892088184 0.859030748979 -0.030140516946 0.005380123166
3.996444444000 -0.013462655665 0.021705093584 0.536085810798 0.849747822877 0.530472772139 0.854524225692 -0.030089794910 0.006097715797
3.996866666000 -0.014114020984 0.021585786226 0.536546480983 0.849712368222 0.531342989792 0.854039992300 -0.029955724042 0.005584862289
3.997288888000 -0.013663737973 0.020528737583 0.538005959920 0.846899526142 0.536037467189 0.853640102772 -0.031389361544 0.005699496453
3.997711111000 -0.012994883110 0.020998355097 0.540249177504 0.846931514683 0.535862265227 0.853267280181 -0.030859830005 0.005531651970
3.998133333000 -0.012887063580 0.020327819450 0.541782002421 0.845196305664 0.537667294960 0.850550265199 -0.030693928829 0.005440348136
3.998555555000 -0.012224046616 0.019881127382 0.542897042924 0.844333552829 0.539180779324 0.851077552187 -0.030409474784 0.005391059360
3.998977777000 -0.012755360226 0.020146963738 0.543607653250 0.843440526268 0.540232165008 0.849354186115 -0.030889521779 0.005485180878
3.999400000000 -0.011821680708 0.020318071851 0.545338922225 0.841403521967 0.543034461281 0.850463081685 -0.032035888345 0.005801697065
3.999822222000 -0.012751968033 0.019135812633 0.546428146913 0.841251201540 0.544753052843 0.848704655345 -0.031854729801 0.004410671759
4.000244444000 -0.011691479377 0.019905399321 0.549928671405 0.841206390336 0.543675442823 0.849122213751 -0.031101114039 0.004753706279
4.000666666000 -0.012238991988 0.018577695576 0.549338153112 0.839582617263 0.547336340796 0.845620217571 -0.031450689301 0.004473542554
4.001088888000 -0.012722119495 0.019460859586 0.551971459756 0.837095458496 0.546915826112 0.843363391126 -0.032484655897 0.004883850104
4.001511111000 -0.012644032713 0.018413141639 0.552364691543 0.836806663118 0.548859192216 0.843481235080 -0.031716690185 0.004046958847
4.001933333000 -0.012734418832 0.018416726354 0.554286130551 0.836468445596 0.550798356646 0.839636859617 -0.031850732702 0.005115284553
4.002355555000 -0.012149558842 0.019143523895 0.554283693300 0.835684199187 0.551694573324 0.842469463931 -0.032518035335 0.004698724842
4.002777777000 -0.011932587276 0.018049069584 0.556483981299 0.833461149044 0.551401356816 0.839376961169 -0.031377526314 0.004585828779
4.003200000000 -0.011954088466 0.017550698257 0.556978759188 0.832582816447 0.555817531241 0.839659722164 -0.031826961341 0.004799934234
4.003622222000 -0.011799171689 0.017788974917 0.560034109823 0.832532578825 0.558039412735 0.838362542460 -0.032262546537 0.004488368268
4.004044444000 -0.012206316465 0.018728840602 0.561755083986 0.830211603130 0.556045179925 0.835848328170 -0.033058796188 0.004815897284
4.004466666000 -0.011654984197 0.017783005718 0.560998693512 0.826396004515 0.555453961787 0.836268297836 -0.031711093547 0.005484787359
4.004888888000 -0.012168767911 0.016330725866 0.562888145490 0.827402418175 0.561653430549 0.833880952640 -0.032539056209 0.004270312006
4.005311111000 -0.013057576164 0.016791446925 0.564860000870 0.826525453369 0.562449025475 0.832352341802 -0.033592056775 0.003958993719
4.005733333000 -0.011507016957 0.017143669029 0.565650092115 0.825021652186 0.562842583438 0.835208069552 -0.033257237461 0.003979025708
4.006155555000 -0.011906420580 0.016362815998 0.565886373349 0.825490279337 0.564984384754 0.833036045217 -0.032435569454 0.003764462959
4.006577777000 -0.011914795896 0.016271650402 0.567114855037 0.822937433603 0.565673602795 0.829669860450 -0.032855476819 0.004504425897
4.007000000000 -0.013636440134 0.015650948877 0.566530991904 0.822116803965 0.564099103587 0.829974896531 -0.032258154799 0.004230597558
4.007422222000 -0.012507461712 0.016451527516 0.570449290950 0.819512093191 0.567112032628 0.827247342476 -0.034043094093 0.004604751892
4.007844444000 -0.011920591580 0.015800118843 0.572208963782 0.819585060312 0.569829455690 0.827361554001 -0.033389361955 0.004289058552
4.008266666000 -0.012922904607 0.015373007037 0.571965999532 0.818378705451 0.573377387001 0.825065885181 -0.034312916092 0.004396635296
4.008688888000 -0.012328622233 0.016639563902 0.574068747185 0.818127902162 0.572168015594 0.825083952865 -0.034050603198 0.005016231626
4.009111111000 -0.012816405707 0.015668178624 0.573444869580 0.819367549303 0.576173145568 0.824930097038 -0.034146516791 0.004740928238
4.009533333000 -0.012952521259 0.015305128074 0.574378120485 0.816699658431 0.573715558885 0.820061830939 -0.033227695256 0.005328454949
4.009955555000 -0.012413625017 0.015279343753 0.577007902214 0.814408506346 0.575024664192 0.821061938506 -0.033422925091 0.004943679747
4.010377777000 -0.012696893577 0.014412045659 0.578853840004 0.814305204714 0.579057412033 0.819998079947 -0.033938040603 0.004740012416
