# GHZ S RI R 50.000000000000
3.950000000000 0.103327480685 -0.101205653750 0.529117424840 0.815814882725 0.568244665648 0.780682481558 0.112827600172 -0.077244360378
3.950422222000 0.105588690504 -0.100018508986 0.539070356635 0.812399607780 0.567357752061 0.781259747125 0.112177787150 -0.077284675801
3.950844444000 0.106383508393 -0.098966275463 0.545344298033 0.807498857527 0.568895016022 0.781335644107 0.112957246014 -0.077489484647
3.951266666000 0.108359965639 -0.099826867642 0.552803340431 0.803246661829 0.568021665626 0.780704336155 0.112422395067 -0.079336223237
3.951688888000 0.108515588110 -0.098871683524 0.553751016329 0.801600866730 0.568799112449 0.781214084299 0.112056058041 -0.079050574483
3.952111111000 0.107976863099 -0.098329479748 0.555569236749 0.801420786134 0.568726890767 0.782336106666 0.112370739317 -0.078194884080
3.952533333000 0.108265544181 -0.099192249282 0.559064716823 0.797490865841 0.570388137036 0.779860636732 0.111759480544 -0.079326405214
3.952955555000 0.109000392688 -0.098767866999 0.561137667469 0.795143751880 0.571164894256 0.780288309991 0.111623065129 -0.079677958702
3.953377777000 0.109103002856 -0.098558793594 0.564091874759 0.796749350313 0.571578999337 0.779669472347 0.111992593256 -0.079603844463
3.953800000000 0.110470731123 -0.098903065671 0.566314896384 0.793598447628 0.573171803654 0.780265744647 0.112882941505 -0.079531128146
3.954222222000 0.109233819015 -0.097846031347 0.566803386133 0.795528253940 0.574436138170 0.780166702526 0.112308379404 -0.079696704909
3.954644444000 0.109198553703 -0.097817124125 0.569382916639 0.795862751057 0.576370432553 0.779776339416 0.112638269178 -0.079345768669
3.955066666000 0.108917921065 -0.097827267193 0.569339511153 0.792790329818 0.576359955313 0.778974369592 0.112304504590 -0.079785023021
3.955488888000 0.109857174335 -0.097857199095 0.572876316670 0.793412149321 0.578290039240 0.778682326850 0.112958803348 -0.079682308452
3.955911111000 0.108726743091 -0.098241325193 0.571182681724 0.792207623409 0.578962878820 0.777805589840 0.111298525544 -0.079532974460
3.956333333000 0.109031135906 -0.098125094117 0.574510013008 0.793334255661 0.581049106690 0.777514493729 0.113073240414 -0.080092738028
3.956755555000 0.108909551199 -0.096941204069 0.576467013472 0.791269197390 0.581590145409 0.776816227962 0.113101110830 -0.080242558787
3.957177777000 0.109108344778 -0.098003630908 0.576171018987 0.791021675951 0.583151948500 0.776581775755 0.112633679073 -0.079877737569
3.957600000000 0.108930797494 -0.096960447551 0.577591405582 0.792459376219 0.584075197626 0.774474917457 0.113032245698 -0.079967453758
3.958022222000 0.108954907585 -0.097198445059 0.580412951717 0.788808402269 0.585333697676 0.775422197382 0.112874144616 -0.080124725767
3.958444444000 0.109390312846 -0.097252668392 0.582168671187 0.788935885457 0.585296985160 0.773999305599 0.113384706756 -0.081271616947
3.958866666000 0.109570691608 -0.097438999339 0.583586610896 0.787690367783 0.588656200987 0.773231291141 0.113180814465 -0.080761978929
3.959288888000 0.108715964814 -0.097347223118 0.584078564365 0.787177831493 0.588441444944 0.773197301071 0.113123155179 -0.081262822755
3.959711111000 0.108764386524 -0.097882026308 0.584426299438 0.788195961446 0.590288286031 0.772324726093 0.113099073440 -0.080969915167
3.960133333000 0.109203742184 -0.097150731066 0.587388953340 0.787255729986 0.591704881801 0.772404038894 0.113419206129 -0.081055887818
3.960555555000 0.109872814242 -0.096557383832 0.587948639331 0.786264939439 0.592282362673 0.771599867046 0.113681187520 -0.082235120922
3.960977777000 0.109881375565 -0.097123530026 0.590953517454 0.786369493948 0.594180018381 0.770992869612 0.113752172889 -0.081887539924
3.961400000000 0.110356255195 -0.096523160063 0.592586113547 0.783300909100 0.595493646341 0.770475893755 0.114304183213 -0.082640380787
3.961822222000 0.109483431733 -0.096749266451 0.593624121341 0.784549610956 0.596579399793 0.769536076982 0.113983585647 -0.082030446207
3.962244444000 0.110002598154 -0.097295028982 0.595646969311 0.785121714000 0.597396072671 0.769703408096 0.114105407754 -0.082393626728
3.962666666000 0.109771091970 -0.096809326072 0.597464142292 0.783775875070 0.598912683536 0.768204234665 0.113713242039 -0.082716798519
3.963088888000 0.109898665127 -0.096747968218 0.597269846600 0.782685488040 0.600645933290 0.768002716381 0.113939079185 -0.082614816052
3.963511111000 0.110153113724 -0.097194203975 0.599835156348 0.782266160629 0.602218898210 0.768041845758 0.114283545819 -0.082291765085
3.963933333000 0.109462860516 -0.097170095305 0.601069172230 0.781306895181 0.603513048443 0.767048599757 0.114104978007 -0.082826963583
3.964355555000 0.109957850908 -0.096913287059 0.601516835802 0.780740837143 0.604436460025 0.766090227265 0.114208696151 -0.083205355896
3.964777777000 0.110215433821 -0.097940301113 0.604102157101 0.779789007631 0.605828422026 0.765979179902 0.112839804564 -0.083828276125
3.965200000000 0.110367320772 -0.097298709339 0.606156125384 0.779427040296 0.607863817632 0.766006822383 0.114021643382 -0.083539865808
3.965622222000 0.110469336433 -0.097446648819 0.606662081936 0.778498533240 0.608517998347 0.764851381372 0.114199971884 -0.084362305306
3.966044444000 0.110191006326 -0.097666914592 0.607414654248 0.777935127333 0.609417533056 0.764212084460 0.113382627594 -0.084501214076
3.966466666000 0.110032521294 -0.096819550979 0.609329886190 0.777028536435 0.610010563864 0.762157812939 0.114019051473 -0.084032542144
3.966888888000 0.110689421426 -0.097022236020 0.612161380810 0.776927587676 0.612609989797 0.763463139628 0.114630742309 -0.084540239158
3.967311111000 0.110671454356 -0.097687907956 0.613292272072 0.775171039560 0.614398480927 0.762247457705 0.113347837168 -0.085350257763
3.967733333000 0.111029497598 -0.097505236925 0.614875023116 0.774684942793 0.615322165508 0.760764127801 0.113834008115 -0.085355149785
3.968155555000 0.111386325321 -0.097219037916 0.616774797449 0.773244034902 0.616231314089 0.761094139543 0.114867331636 -0.085806194869
3.968577777000 0.111270607054 -0.097492526180 0.617659896357 0.771993457352 0.617698265679 0.760271055593 0.114942217469 -0.085664283881
3.969000000000 0.111793333967 -0.098442244139 0.618508094912 0.768299893606 0.618746510232 0.760517193920 0.114668172696 -0.086478657768
3.969422222000 0.110716791655 -0.097927538869 0.619833994337 0.770057915212 0.621087632366 0.759481302806 0.113970349586 -0.086435251897
3.969844444000 0.111331299958 -0.098181520233 0.623194836162 0.769935596004 0.621718823657 0.757607361226 0.114624531764 -0.086649495261
3.970266666000 0.111811327813 -0.098022498341 0.623825594918 0.769094085075 0.623705663728 0.757561572470 0.114889989702 -0.087182373831
3.970688888000 0.111081545625 -0.098650019501 0.624597125789 0.768122171099 0.624634647058 0.755703066898 0.113587176393 -0.087799562899
3.971111111000 0.112230416860 -0.097928586242 0.625901941161 0.767468456831 0.626048966301 0.756594288126 0.114572533381 -0.087762553822
3.971533333000 0.112176812727 -0.098400178170 0.627777142149 0.765611693616 0.627206677183 0.754729663449 0.114490330499 -0.088369290351
3.971955555000 0.112004452043 -0.098161090294 0.629952946001 0.766206384899 0.628118649436 0.754653503715 0.114154569143 -0.088988800747
3.972377777000 0.111817055845 -0.099012524279 0.630939646584 0.764013581716 0.630278024686 0.754023011607 0.113029242675 -0.088649778407
3.972800000000 0.112487290123 -0.098894123115 0.633015002026 0.762813755458 0.631150220137 0.752389241345 0.114325489516 -0.089340551337
3.973222222000 0.112856355781 -0.099659959847 0.634143410127 0.760797500110 0.632739518749 0.751663723909 0.113877036264 -0.090831606578
3.973644444000 0.112490746757 -0.099895422916 0.635568658575 0.761499912049 0.634488504841 0.751682818489 0.113224617852 -0.090500650909
3.974066666000 0.112231609760 -0.099364678202 0.637366157582 0.760837606801 0.634818054557 0.750567744156 0.113757258724 -0.090248606404
3.974488888000 0.111783685586 -0.099756291921 0.637615105942 0.759647426903 0.636120184032 0.749457662155 0.113004274428 -0.090462528032
3.974911111000 0.112655274730 -0.100090098278 0.640531556975 0.758066381047 0.638120693961 0.748594897867 0.113308735794 -0.091728793468
3.975333333000 0.112433259036 -0.099964319686 0.641601296189 0.757474215357 0.639014095057 0.747771695618 0.113498002228 -0.090907620215
3.975755555000 0.113264630141 -0.100839588215 0.643712626542 0.756318489654 0.640537582461 0.748310428974 0.112673998070 -0.092189691979
3.976177777000 0.112794580020 -0.100381183229 0.644604618454 0.754986718906 0.641831453646 0.746246125266 0.113897068012 -0.092276374108
3.976600000000 0.112713102436 -0.101201455813 0.645983859658 0.753672191756 0.643960521146 0.746589229989 0.113717490442 -0.091151215180
3.977022222000 0.113564572165 -0.100998208917 0.646832325206 0.753628724841 0.644211187930 0.745563815869 0.113436222431 -0.093215808919
3.977444444000 0.113286318336 -0.101551802090 0.649471277483 0.751718035536 0.646662114524 0.743501399309 0.112911416343 -0.093754921210
3.977866666000 0.113461430844 -0.101631205264 0.650025052985 0.751010482951 0.647147655460 0.743129813284 0.112686169279 -0.093387170071
3.978288888000 0.113087267461 -0.101048980680 0.651588495499 0.749751630148 0.647215890299 0.742488774324 0.113168554221 -0.094703651658
3.978711111000 0.113295869474 -0.101738457236 0.652730652173 0.749471844785 0.649139508822 0.741845715314 0.111947358132 -0.095045229336
3.979133333000 0.114387591054 -0.102420794375 0.654832645055 0.748873177337 0.650253995875 0.741430486380 0.112268565453 -0.096276202385
3.979555555000 0.113658047318 -0.103207669115 0.656226217582 0.747003063393 0.652573604112 0.739686780892 0.111337870898 -0.095802066215
3.979977777000 0.114136973886 -0.102891869632 0.657386840324 0.747112451235 0.653482166700 0.739185703745 0.111487052372 -0.096691062566
3.980400000000 0.113664229854 -0.103124147044 0.658739534168 0.745137969249 0.653939919383 0.738467903453 0.111581806241 -0.096633645614
3.980822222000 0.113419209990 -0.103269717703 0.659679997843 0.744815373085 0.654575505320 0.736490837954 0.111648134442 -0.096561924404
3.981244444000 0.112852179623 -0.103829795407 0.661278808079 0.742307100844 0.657314242462 0.735170314832 0.111145838480 -0.096581522248
3.981666666000 0.113851867935 -0.104751645496 0.662941844114 0.741268100088 0.658745769500 0.735598554078 0.110057318251 -0.097963245600
3.982088888000 0.113518308290 -0.103993933983 0.663294746385 0.740054232725 0.659339004276 0.733829333188 0.111267722090 -0.097290713763
3.982511111000 0.113435340289 -0.104345158874 0.664623684979 0.739139669408 0.660070471481 0.732638364795 0.110779393859 -0.097952600051
3.982933333000 0.114021973509 -0.104728336747 0.666517659750 0.738142354763 0.661136652747 0.732447633921 0.110876091899 -0.098341111731
3.983355555000 0.112737402570 -0.104821600992 0.666642507085 0.736987523751 0.662267727559 0.731053153478 0.110511182889 -0.097879007985
3.983777777000 0.113709717390 -0.105713356205 0.668159262480 0.735982402891 0.664217298117 0.730385668595 0.111253443052 -0.099377394176
3.984200000000 0.113589263506 -0.104983838273 0.669676852394 0.736179792856 0.665049804355 0.730136094286 0.111510731355 -0.099182927434
3.984622222000 0.113215281817 -0.106382452249 0.670960751019 0.733220999741 0.666923862258 0.727556710043 0.110050139308 -0.099509872798
3.985044444000 0.112951434682 -0.106945838485 0.672799434242 0.732373716927 0.668794523293 0.725457142301 0.109254564897 -0.099849535311
3.985466666000 0.113679855139 -0.106381017018 0.673530388118 0.731310610145 0.669317664234 0.725159856444 0.110520041327 -0.100431685031
3.985888888000 0.113770998743 -0.106757145817 0.674638919835 0.729823729147 0.670403734762 0.724529446856 0.110228335669 -0.100712957112
3.986311111000 0.113680774594 -0.108196003563 0.676709393661 0.728556228877 0.673465080953 0.723531748462 0.109035819229 -0.101669995618
3.986733333000 0.112926349592 -0.107894613656 0.676946525062 0.726552600519 0.675041303039 0.720529437792 0.109035015660 -0.099469176565
3.987155555000 0.113857715458 -0.108807826767 0.679060299355 0.726456610403 0.675782778495 0.722435695939 0.107747003730 -0.101735486208
3.987577777000 0.114212279312 -0.108495746903 0.681443094667 0.725198301882 0.676845218356 0.720654425945 0.108242019805 -0.101124554842
3.988000000000 0.113425311853 -0.108970833068 0.682153969943 0.724543435144 0.677433176575 0.719667203268 0.107904973155 -0.102562188661
3.988422222000 0.113463745647 -0.108836669603 0.683028207792 0.722175333487 0.677647039396 0.718276164906 0.107806465069 -0.102062643544
3.988844444000 0.113642143732 -0.110197763773 0.684442221194 0.721419137769 0.680629741227 0.717316967327 0.107210833820 -0.102818995969
3.989266666000 0.114053516324 -0.110582178135 0.686773284013 0.719437182383 0.681001310202 0.717884065309 0.106443546588 -0.103582235744
3.989688888000 0.112732168159 -0.110608315368 0.687112350210 0.719187597817 0.682389721305 0.713614825780 0.106203295457 -0.104313067723
3.990111111000 0.114269768799 -0.110496523566 0.688556119644 0.718053658402 0.683302361621 0.716412154939 0.107663503257 -0.104705978216
3.990533333000 0.113347097874 -0.111225282142 0.688781852347 0.716374597461 0.684468011377 0.713653113440 0.107010400844 -0.104633478176
3.990955555000 0.112664654389 -0.111617512819 0.690472836575 0.714746171845 0.685419307523 0.711095642481 0.106343264498 -0.104762767389
3.991377777000 0.112836920731 -0.112546571239 0.692143885730 0.713610712519 0.688145445956 0.711289931962 0.104909314629 -0.105138809360
3.991800000000 0.114402094929 -0.112114106640 0.694243066739 0.712783078996 0.688324705756 0.712480961358 0.105264967138 -0.105558301542
3.992222222000 0.112693469883 -0.112734611601 0.694845469315 0.710947058054 0.689323747041 0.708664170980 0.105930290693 -0.105250182044
3.992644444000 0.112558425903 -0.113432183929 0.694316254213 0.709623067013 0.692403983913 0.707201537364 0.104533059509 -0.105355898240
3.993066666000 0.112281373918 -0.113451754941 0.695540806171 0.708382744378 0.692556261832 0.705911447145 0.104794283442 -0.104806940606
3.993488888000 0.112421984482 -0.114249808852 0.697204427649 0.707296826311 0.693480227485 0.705857979778 0.104953556770 -0.106387976406
3.993911111000 0.111847798358 -0.114853312443 0.698303702473 0.706110477163 0.695677441414 0.703313382402 0.103690853427 -0.106611771668
3.994333333000 0.112176128091 -0.115815265914 0.700739896469 0.703242535402 0.697757283096 0.704162896289 0.103519688825 -0.107095335453
3.994755555000 0.111392232947 -0.114962267369 0.701391269401 0.703569070797 0.696154524820 0.701604735764 0.102605261446 -0.106949305396
3.995177777000 0.111329754384 -0.115953807034 0.701766274700 0.701266176350 0.699798028682 0.700395267457 0.101871906333 -0.106701695263
3.995600000000 0.110958919904 -0.116086907850 0.702407215905 0.700822360090 0.699373566856 0.697896932474 0.102184545389 -0.107070337077
3.996022222000 0.112220233051 -0.116410110882 0.704318803491 0.699172142913 0.700575477694 0.699749975763 0.102050668136 -0.107938394320
3.996444444000 0.110875930490 -0.116540604736 0.705110396313 0.698114043458 0.701178521080 0.695702984979 0.102099585524 -0.107269075059
3.996866666000 0.110677554887 -0.116145613156 0.705796180744 0.697775711347 0.701023830524 0.695711109968 0.102031706382 -0.107644250285
3.997288888000 0.110244140953 -0.117605299013 0.707395032214 0.695267663701 0.705173864296 0.693097899980 0.100032504886 -0.107795155279
3.997711111000 0.111081512579 -0.117450046940 0.708765833981 0.694576370938 0.705166849761 0.693609511273 0.100398147279 -0.108155495661
3.998133333000 0.110130554416 -0.118213707300 0.709852263827 0.692724839537 0.706477579542 0.690733142323 0.100214974567 -0.108496729951
3.998555555000 0.110383967262 -0.119037694897 0.710781037557 0.692034259863 0.708416371191 0.690196323609 0.100409824822 -0.108743035735
3.998977777000 0.110005654909 -0.118695675935 0.711137548668 0.690481793604 0.708980829421 0.689418838978 0.099757227614 -0.108719509611
3.999400000000 0.111005010692 -0.118227852938 0.712791010437 0.688905622443 0.710795311594 0.690942033564 0.098690736279 -0.108244543693
3.999822222000 0.109680333941 -0.119659945375 0.713614353538 0.688310108510 0.713075821730 0.688849565112 0.098430744716 -0.109803831152
4.000244444000 0.110194821863 -0.119240704028 0.716912594934 0.687246795372 0.711125344142 0.687390881282 0.098768090338 -0.110164792914
4.000666666000 0.108977004650 -0.120754315192 0.715795161018 0.686408146170 0.714722250765 0.684871461143 0.098323008524 -0.109922544251
4.001088888000 0.108060768800 -0.120510577926 0.717522788795 0.683347450829 0.714707892320 0.681687342763 0.096701300549 -0.109730884957
4.001511111000 0.108046832003 -0.121349784529 0.718459856191 0.683284828635 0.716768191619 0.681754587686 0.097595250930 -0.110782393185
4.001933333000 0.107515623070 -0.121172347258 0.720029256475 0.682366003377 0.716938526602 0.678091956872 0.096708042070 -0.109829209577
4.002355555000 0.108347835638 -0.121474777166 0.720006236686 0.681370279562 0.719495761591 0.680120124466 0.096509946375 -0.110249994058
4.002777777000 0.107652147907 -0.121838352827 0.721834700752 0.678883568872 0.717112658206 0.678060383668 0.096993232952 -0.110164208765
4.003200000000 0.107162966791 -0.122714009340 0.722028717397 0.677840779296 0.721495176018 0.676669240206 0.096336749297 -0.110535698282
4.003622222000 0.107376299376 -0.123149053873 0.724781831183 0.676967937337 0.722841721255 0.675883046195 0.095575759884 -0.111080671528
4.004044444000 0.106638277541 -0.121948722039 0.725618880851 0.674962315660 0.721513211743 0.673860646602 0.094813157217 -0.110387807981
4.004466666000 0.106888490721 -0.122293616135 0.724250890954 0.671412365331 0.720137658049 0.674358116594 0.095735860411 -0.109770965453
4.004888888000 0.105812956918 -0.124207976425 0.726031307151 0.671942613725 0.726172807601 0.671931843119 0.094629379574 -0.111289192970
4.005311111000 0.105337312114 -0.124223972428 0.728262019119 0.670827177674 0.727160859272 0.669855884923 0.093232562870 -0.111577948793
4.005733333000 0.106272998631 -0.124050957073 0.728510647153 0.669154802419 0.726972052764 0.671910306150 0.093481462169 -0.111710615676
4.006155555000 0.105358892684 -0.124772205479 0.728599932558 0.669468769971 0.728741840388 0.668746976281 0.093836920290 -0.112134147708
4.006577777000 0.104550069828 -0.124278889164 0.729561611542 0.667066493366 0.727758934538 0.666607847840 0.093615672294 -0.111047621309
4.007000000000 0.105502794874 -0.123481312254 0.727815625274 0.666102218532 0.727765241012 0.670788896921 0.094104672498 -0.111395062172
4.007422222000 0.103440657649 -0.124870697560 0.732432938469 0.662926758621 0.730200269634 0.663463190363 0.091909621099 -0.111170517825
4.007844444000 0.103927077345 -0.125274141000 0.733385877912 0.662770558017 0.730855619640 0.664285724244 0.092438034663 -0.111402356609
4.008266666000 0.103358031200 -0.126383463424 0.733263070281 0.661974500045 0.735777269974 0.661644922042 0.091126315938 -0.111761598760
4.008688888000 0.103414157189 -0.125682171496 0.735222312055 0.660646449183 0.734945608719 0.659980192312 0.090957496152 -0.111448164534
4.009111111000 0.102660854792 -0.126639268384 0.735060187315 0.662450398588 0.738384389589 0.658630366601 0.091386006494 -0.112059556798
4.009533333000 0.102279436560 -0.125642409310 0.735012363959 0.659129241724 0.734983570791 0.657402854538 0.091717797927 -0.111390593512
4.009955555000 0.101791810826 -0.125739980671 0.737326590658 0.656827448215 0.733583687335 0.656322062708 0.091330576891 -0.111471119221
4.010377777000 0.101737696056 -0.126822917087 0.739435475733 0.656025944468 0.739086408474 0.655780382446 0.090565693188 -0.112652116440
