# GHZ S RI R 50.000000000000
3.950000000000 -0.041159503732 0.005628340142 0.384031495097 0.900731308747 0.369017914132 0.904362049636 -0.040123524228 0.024535670496
3.950422222000 -0.043924864927 0.006150052041 0.378760932822 0.902296093180 0.367655772141 0.903847707933 -0.041681546200 0.024869770255
3.950844444000 -0.042966417090 0.006179761095 0.379819815662 0.900765114884 0.369009563158 0.903547421481 -0.042240327893 0.024711186200
3.951266666000 -0.044663896583 0.006768460328 0.379905861660 0.901577394831 0.369196680262 0.903232284682 -0.040867570856 0.025210514972
3.951688888000 -0.043954492699 0.007267541487 0.379441057628 0.901573821216 0.368862329413 0.903163638042 -0.042173228271 0.025427111295
3.952111111000 -0.044352545615 0.005894011362 0.381394373634 0.899409938643 0.371952858526 0.902202821943 -0.042601069886 0.025960871784
3.952533333000 -0.044657549701 0.007546363319 0.382431283024 0.899771407427 0.372180550847 0.903068112086 -0.041951298089 0.026637764182
3.952955555000 -0.045361260805 0.007893644571 0.383553465260 0.901597608552 0.372757424086 0.902354045977 -0.041860121151 0.025979101949
3.953377777000 -0.044453542108 0.008440079827 0.383445021123 0.900126552126 0.374419165292 0.900913195539 -0.041437479649 0.026053911873
3.953800000000 -0.045164751231 0.009152885440 0.386435072897 0.899873679787 0.376555775611 0.907082779880 -0.041629277419 0.029767231446
3.954222222000 -0.044895141860 0.009583207137 0.385931874888 0.903086519311 0.378716363727 0.901682669848 -0.041417981913 0.028687581100
3.954644444000 -0.044002251299 0.008790754372 0.389427918059 0.900519587709 0.379687688869 0.900214923860 -0.040840016659 0.027472575655
3.955066666000 -0.045830751543 0.010231730217 0.388348732561 0.900738089284 0.380241030724 0.900457812314 -0.040609100824 0.028391832248
3.955488888000 -0.045328897792 0.009533158944 0.390443543524 0.897660351298 0.380921790154 0.900320885678 -0.041200565306 0.027883504840
3.955911111000 -0.046135164919 0.010694172690 0.392189301096 0.900858396241 0.383649679701 0.901100172209 -0.040527375502 0.028933542648
3.956333333000 -0.043674289060 0.010848089699 0.396376906399 0.897401703557 0.385496037769 0.899489349864 -0.039631402310 0.028508489075
3.956755555000 -0.045320312375 0.010563295929 0.395441414921 0.899810122800 0.385446248864 0.898901308882 -0.039921572441 0.028746274349
3.957177777000 -0.045605121622 0.011970477206 0.395983928876 0.897735726837 0.386295189779 0.900021439106 -0.039906633294 0.028100285138
3.957600000000 -0.046192509931 0.011951287612 0.397212822259 0.897561282316 0.388922359102 0.901478785429 -0.040968205557 0.029805319859
3.958022222000 -0.045607867069 0.012319755764 0.396459064214 0.897445710385 0.389819882452 0.898783125077 -0.040493919844 0.028947292663
3.958444444000 -0.046198672504 0.012950422815 0.400157598298 0.898428730003 0.390158273921 0.900969176529 -0.040535790693 0.030717998504
3.958866666000 -0.046400571349 0.013891899361 0.401332650929 0.898117898118 0.392025162442 0.899797937983 -0.039404608609 0.030035064034
3.959288888000 -0.045667852476 0.012791865876 0.403699449933 0.897035574627 0.392463950854 0.900739687818 -0.040134754790 0.028975529368
3.959711111000 -0.045355583258 0.013126099520 0.406068874988 0.895779907436 0.394137196577 0.900089329861 -0.039536434880 0.029560503153
3.960133333000 -0.045650630195 0.013025858388 0.405853170541 0.896636549469 0.395994874548 0.899287641811 -0.039811914246 0.029888209314
3.960555555000 -0.045169488112 0.015421924548 0.406610329481 0.897337204358 0.396211020093 0.897655655042 -0.038741156783 0.029977334474
3.960977777000 -0.045740433331 0.015454987741 0.409464925150 0.897519868673 0.398264193646 0.898559433239 -0.038493189888 0.030932740647
3.961400000000 -0.046933524162 0.013729956569 0.404539680100 0.897343976708 0.400452528986 0.897349215793 -0.038824968699 0.031873546941
3.961822222000 -0.044535864840 0.016482982219 0.412491657632 0.897018093226 0.402818093785 0.898742539474 -0.037566450841 0.030818970860
3.962244444000 -0.046245910975 0.016070608398 0.412885197844 0.898011242943 0.402346875554 0.899442212970 -0.039210275929 0.031339522671
3.962666666000 -0.045091419524 0.016674608019 0.414830400853 0.896160639557 0.405009498850 0.898328385151 -0.038029447758 0.032011342460
3.963088888000 -0.044660654221 0.016737578794 0.415867085568 0.896308808375 0.405456203650 0.899416500419 -0.037628394846 0.031301113262
3.963511111000 -0.045046094052 0.017664113751 0.418673911283 0.895463002081 0.407463520963 0.897701071611 -0.037118014761 0.031666439351
3.963933333000 -0.045306771455 0.017444918927 0.418324233661 0.895888838816 0.406992972463 0.896994526587 -0.038257438635 0.031203432524
3.964355555000 -0.044397388153 0.017334411878 0.420933204965 0.893370274126 0.409843781738 0.898904584543 -0.037307774993 0.031230510079
3.964777777000 -0.044551154931 0.018459207326 0.423529862036 0.894988027291 0.410699341329 0.895742454776 -0.036505137555 0.031690395865
3.965200000000 -0.044957674520 0.018387223713 0.423974061321 0.894237966889 0.413631172414 0.896171703823 -0.036919962623 0.032124533931
3.965622222000 -0.044698573908 0.018831395235 0.425822400279 0.894812144111 0.413642529759 0.897270610057 -0.036816269502 0.031523761715
3.966044444000 -0.044636651865 0.019325560483 0.426415840582 0.894633003183 0.415959295291 0.897018460786 -0.036711795782 0.032231801968
3.966466666000 -0.043986500644 0.019261302470 0.427615756582 0.892838245657 0.417676020583 0.895722049474 -0.035592001698 0.031570917541
3.966888888000 -0.043832693359 0.019811926892 0.430374011918 0.893195702932 0.419291471446 0.895580051267 -0.035571211086 0.031622681784
3.967311111000 -0.042929159536 0.021494454045 0.433342102530 0.892631554427 0.420754467005 0.897854329386 -0.035499084387 0.032409486234
3.967733333000 -0.044024840769 0.020976036920 0.433705203802 0.893247218738 0.421919247010 0.895042569259 -0.035005802928 0.032645151848
3.968155555000 -0.042561745954 0.020918115304 0.436620269989 0.892014397670 0.425064967743 0.895984676403 -0.034485516665 0.032724134868
3.968577777000 -0.042711016241 0.020678157499 0.437786712926 0.892097928901 0.424542124297 0.894921764117 -0.034523165447 0.031381230744
3.969000000000 -0.041873855438 0.020955341300 0.437518692493 0.888219459985 0.429078947880 0.893300349583 -0.032893010915 0.031614873162
3.969422222000 -0.041871194917 0.021350846021 0.440479309091 0.891336910237 0.428690369750 0.892406817878 -0.033572560020 0.031556074278
3.969844444000 -0.042007033402 0.021139208986 0.443884058134 0.889717180408 0.429764835731 0.893781367134 -0.034341744872 0.030811479501
3.970266666000 -0.041647813721 0.022125057550 0.443272727452 0.888937027639 0.432594234435 0.893644087088 -0.034079890710 0.031808459195
3.970688888000 -0.042194342193 0.022973801838 0.445457396789 0.889685004811 0.432745122675 0.892973133372 -0.033846045919 0.031459532229
3.971111111000 -0.041985906749 0.022348757437 0.446464739470 0.888487001775 0.435618550883 0.892079365407 -0.033581489264 0.031948317539
3.971533333000 -0.040748464873 0.022835034090 0.450152620277 0.888073485696 0.437902637960 0.892958949569 -0.033294785846 0.031301483177
3.971955555000 -0.040352238250 0.023319784260 0.451757485902 0.888875088095 0.438460716352 0.893105923524 -0.032851494833 0.031401869640
3.972377777000 -0.040897547598 0.022937951315 0.452372679710 0.886896522944 0.441572258803 0.892156341338 -0.033723806033 0.031301500353
3.972800000000 -0.040706387810 0.023129456867 0.453494132863 0.885876041126 0.443025820740 0.890320415796 -0.033220966796 0.031471903105
3.973222222000 -0.040240655292 0.024216648511 0.457406872485 0.887691718967 0.444457059082 0.892238650754 -0.033308582029 0.031995216198
3.973644444000 -0.040552632929 0.023935933625 0.456273864692 0.885158039424 0.445099837690 0.889527121716 -0.032661863116 0.031724258611
3.974066666000 -0.039815406541 0.023974785545 0.459061665739 0.884767543433 0.446983532215 0.890473711684 -0.032464127820 0.032174771632
3.974488888000 -0.039258401831 0.024609381003 0.461331281904 0.884057029235 0.448265326731 0.890325577354 -0.032499256338 0.031579094316
3.974911111000 -0.038841606040 0.024826115361 0.462835122557 0.884389713138 0.449464740134 0.889977886447 -0.031802680403 0.031197444517
3.975333333000 -0.038650393092 0.024466186525 0.463116223410 0.882571973638 0.451583709962 0.888721952960 -0.031268569981 0.030650145312
3.975755555000 -0.038692519228 0.024797940351 0.465498263918 0.881625476268 0.452324113760 0.887467568818 -0.031357698604 0.030749898464
3.976177777000 -0.037879388973 0.025198214158 0.466926630553 0.881253169254 0.454640972808 0.888970621480 -0.031291895223 0.030987277481
3.976600000000 -0.038235809334 0.024671127236 0.463644978756 0.878818690640 0.455580887594 0.888686188791 -0.029706075290 0.031511623948
3.977022222000 -0.037560963468 0.025323582233 0.470254786217 0.881289317963 0.456277934387 0.887316815695 -0.030765129151 0.029672902402
3.977444444000 -0.036714035512 0.026672347770 0.473113491410 0.880339985081 0.459447011877 0.886603402638 -0.029930891315 0.030580482186
3.977866666000 -0.037344332386 0.025764347908 0.473051443318 0.877727677905 0.460635305249 0.884389450849 -0.030826429412 0.030260461417
3.978288888000 -0.035764981235 0.025760571401 0.476674510225 0.878457054456 0.464849798263 0.885104913342 -0.029786015215 0.030320314578
3.978711111000 -0.036813864169 0.026211170854 0.476665088353 0.878298744508 0.464907351142 0.883769967092 -0.030046539233 0.030407303562
3.979133333000 -0.035461828018 0.026961772809 0.478736471203 0.876269406041 0.464885967405 0.885038612012 -0.030348931237 0.030607610445
3.979555555000 -0.035723817036 0.025834017959 0.479658660975 0.877179249090 0.468580172516 0.884092009571 -0.030450934780 0.028915155131
3.979977777000 -0.035657261589 0.026009675972 0.481132012777 0.875947851917 0.471235111046 0.881779068467 -0.029958087606 0.029148374926
3.980400000000 -0.035190871054 0.026528464575 0.483157177365 0.874779518778 0.471201853263 0.881679756938 -0.030097859966 0.029380895680
3.980822222000 -0.034454147320 0.026635736889 0.486265479771 0.873612269728 0.473317229024 0.881696215379 -0.029584553946 0.028579830555
3.981244444000 -0.034078845677 0.026836059212 0.487984002130 0.873508647589 0.474883484280 0.882921265491 -0.030043112418 0.028191974520
3.981666666000 -0.033666645827 0.026691676878 0.489469260582 0.871043500494 0.476750147927 0.878594049834 -0.028936979588 0.028053377720
3.982088888000 -0.033595159520 0.025925335714 0.489976461965 0.869978393554 0.478687694300 0.879893940034 -0.029383465171 0.027953837115
3.982511111000 -0.034211254528 0.026680152794 0.490406857994 0.870587199059 0.479420155910 0.878698131060 -0.029899472503 0.027626220557
3.982933333000 -0.033016049155 0.026139918795 0.493242411762 0.868684119283 0.481792698438 0.878521279535 -0.029085259718 0.027478089508
3.983355555000 -0.033340757646 0.027198798209 0.494395574679 0.869377847725 0.481827679012 0.877856070201 -0.029059211331 0.027698814103
3.983777777000 -0.032882397128 0.026401588944 0.495936607110 0.867911013386 0.485162749789 0.875813359061 -0.028616602778 0.027496985839
3.984200000000 -0.029370330780 0.027418918643 0.502129758017 0.867714842049 0.485151323953 0.881714593456 -0.028359594260 0.024743174827
3.984622222000 -0.031778129212 0.026692155481 0.499288280916 0.867043484632 0.488338134455 0.877057753532 -0.028416991633 0.026427968646
3.985044444000 -0.031679479107 0.026740604134 0.500046009282 0.866163218974 0.488645829217 0.876920286356 -0.028404744813 0.026637490075
3.985466666000 -0.031337537763 0.027171605118 0.501785078296 0.865365410084 0.490454288375 0.875465842289 -0.027864174265 0.026793356779
3.985888888000 -0.031249710620 0.026055720598 0.504564619407 0.862851403791 0.494584598233 0.872559993050 -0.029579919044 0.025914536585
3.986311111000 -0.031326824110 0.026342493652 0.505204579109 0.862388997780 0.495677551092 0.872537110522 -0.028825427460 0.026211461362
3.986733333000 -0.030362696831 0.026663298968 0.505612586899 0.862776283993 0.496611424803 0.873743747537 -0.028089378890 0.026096399639
3.987155555000 -0.030233460102 0.026855733440 0.509501255075 0.861530565801 0.496413364930 0.870371763995 -0.028487834833 0.025646056594
3.987577777000 -0.029447803019 0.026354634800 0.511032947172 0.860777323243 0.500403311955 0.871294410762 -0.028543404237 0.024659670210
3.988000000000 -0.028943391939 0.026491150277 0.514306636821 0.858971158358 0.502226269598 0.870488773423 -0.028836199967 0.024529450240
3.988422222000 -0.028779079892 0.026525986825 0.515706459893 0.858111112652 0.503131031638 0.870152856162 -0.028724125279 0.024326023176
3.988844444000 -0.028644211904 0.026828536084 0.514629035008 0.857106076655 0.502805019329 0.869641131459 -0.028033964350 0.024607385314
3.989266666000 -0.028347897868 0.026449160164 0.517045246456 0.855886579856 0.505780697491 0.866810574733 -0.028523738944 0.024068875875
3.989688888000 -0.028170782416 0.026186278047 0.519407994238 0.854802129023 0.506801703184 0.867573590125 -0.028853568180 0.023560966969
3.990111111000 -0.028396045570 0.025667380359 0.519123527443 0.853474976046 0.510332266699 0.865519414839 -0.028955212918 0.024042525262
3.990533333000 -0.028169622915 0.025508987699 0.521989423928 0.853650187876 0.512027683864 0.864620118198 -0.028816660338 0.023104679317
3.990955555000 -0.027342274154 0.026029078958 0.522713122097 0.852388173881 0.512146375539 0.863821251787 -0.027913577296 0.023876332991
3.991377777000 -0.027846586523 0.026477330625 0.522722983619 0.852145124441 0.513150506127 0.863415094271 -0.028196124944 0.023799873853
3.991800000000 -0.027616496062 0.025233764225 0.525450675421 0.849088247426 0.516167549007 0.862217361232 -0.029369055702 0.022695781350
3.992222222000 -0.026751040315 0.025663637175 0.528517512919 0.848922636348 0.518153685902 0.861817433299 -0.029482307789 0.022619245892
3.992644444000 -0.027115671179 0.024960245775 0.527962881951 0.848130772115 0.518440167842 0.859547847288 -0.028738192796 0.022150407894
3.993066666000 -0.026320017005 0.025322068308 0.530487338690 0.847727956302 0.521665968001 0.860069859803 -0.028203502219 0.022962099518
3.993488888000 -0.026622957201 0.024764365769 0.531581767609 0.846051184748 0.523423952714 0.858267444022 -0.029507032660 0.022475541930
3.993911111000 -0.026354624741 0.025006034671 0.532305702224 0.844857205632 0.523227408560 0.857476255607 -0.028999299691 0.022320033207
3.994333333000 -0.026071135416 0.025326942388 0.532899913143 0.846432529054 0.523471910595 0.856717958130 -0.027233307026 0.022434190237
3.994755555000 -0.025047695261 0.024743334468 0.537815025206 0.843714855098 0.527315373290 0.857426596936 -0.028854936342 0.021161263482
3.995177777000 -0.025965659301 0.024476904441 0.537380979404 0.841703018180 0.529368324435 0.855286662586 -0.029846250611 0.021170042058
3.995600000000 -0.025312398145 0.024991695722 0.540023633757 0.842482608134 0.530087752193 0.855359060965 -0.029170027534 0.020254875195
3.996022222000 -0.025024313804 0.024382158845 0.541673501874 0.840071360762 0.531619557506 0.852875543074 -0.029536323537 0.020709305364
3.996444444000 -0.025256392901 0.023956741539 0.541868740324 0.839832693172 0.534936568564 0.852571031129 -0.029320030574 0.020933044446
3.996866666000 -0.024644334006 0.024274011645 0.544357668252 0.838411400577 0.534299576645 0.852942898568 -0.029623786610 0.020376170106
3.997288888000 -0.025252740756 0.023910282659 0.545037781926 0.836969748160 0.537188991289 0.849553859504 -0.029664685966 0.019850645821
3.997711111000 -0.025369683857 0.024218927377 0.545063528583 0.835864639375 0.536604403314 0.847051819919 -0.029848446036 0.020987107714
3.998133333000 -0.024537747168 0.023640222247 0.547680175125 0.835292129658 0.538831423789 0.849027142419 -0.029447422875 0.019882273865
3.998555555000 -0.024456214206 0.023932568585 0.548937362999 0.833739837475 0.539398510334 0.848200812130 -0.030155528159 0.019781980827
3.998977777000 -0.024757312893 0.023749413671 0.548918455770 0.833051265134 0.540958142866 0.846641777850 -0.029324419685 0.019878464887
3.999400000000 -0.024131403521 0.022152473082 0.548684455314 0.832896876530 0.545107056908 0.849124185333 -0.029542313483 0.017637312495
3.999822222000 -0.024912733918 0.023076136433 0.553329508498 0.830213623324 0.545091818355 0.840788397411 -0.030611601509 0.019977754655
4.000244444000 -0.024284593708 0.023037049124 0.552553284844 0.828595899475 0.544763451071 0.843753163544 -0.029801856904 0.019272888346
4.000666666000 -0.024043115915 0.023202253260 0.554389303087 0.828005963088 0.546670474368 0.843649901597 -0.030309457233 0.019396294810
4.001088888000 -0.024268232967 0.023485561517 0.557324675375 0.827534331841 0.547527997092 0.840449819022 -0.029939211768 0.019277265843
4.001511111000 -0.024428173238 0.022541015325 0.557450151041 0.826377304345 0.550381345973 0.838991646646 -0.030352500186 0.019273663641
4.001933333000 -0.024391878823 0.022785676104 0.560585985825 0.823559594511 0.550737179313 0.837207895440 -0.031720550802 0.018545592716
4.002355555000 -0.023948006502 0.023001186751 0.561033335678 0.823860871694 0.552494235664 0.837712176120 -0.031174103878 0.018764658665
4.002777777000 -0.024765444012 0.022546500225 0.561673072452 0.822303730009 0.552742188947 0.835304592408 -0.031393606333 0.019181340598
4.003200000000 -0.024053352092 0.022354444781 0.563191075081 0.822669610667 0.555997098460 0.835940651938 -0.030934184622 0.018294445767
4.003622222000 -0.023738265573 0.021355926640 0.564571064430 0.821074441178 0.560262899062 0.835063695357 -0.031332955021 0.017736168215
4.004044444000 -0.024124974727 0.022056168135 0.566511870304 0.819872976472 0.559034037244 0.831097629248 -0.032136382521 0.018423246057
4.004466666000 -0.024172450983 0.021800340264 0.567700160330 0.817002932345 0.558919404933 0.829791135988 -0.031448752619 0.019192289219
4.004888888000 -0.024317572609 0.021496911749 0.568130269760 0.818244220169 0.563587539747 0.831349860088 -0.032810278409 0.017482053953
4.005311111000 -0.023380578251 0.021516422435 0.569062527262 0.817425585252 0.564741566463 0.830856145004 -0.031019543511 0.017886566300
4.005733333000 -0.023349740698 0.020882412940 0.571715952000 0.815917121623 0.565901711452 0.829063221087 -0.031355620546 0.017745800717
4.006155555000 -0.024149139552 0.021427947102 0.573610880376 0.814009974859 0.565562006391 0.825847496372 -0.031782956735 0.018340534345
4.006577777000 -0.023934327685 0.021225211527 0.574165003678 0.812049128590 0.567973954342 0.824580943866 -0.032910791866 0.018030955217
4.007000000000 -0.026722870594 0.022302719654 0.576078070904 0.812993065887 0.568269946473 0.824117626296 -0.035238447486 0.015777590586
4.007422222000 -0.023554508733 0.020850652801 0.575805279290 0.811982913519 0.572003529835 0.826474472744 -0.032031812897 0.017265001676
4.007844444000 -0.023719675201 0.020801644864 0.576951877870 0.810936824331 0.572995085430 0.823784362541 -0.032143886395 0.017597295830
4.008266666000 -0.024137420825 0.021910155004 0.572823130163 0.810906219264 0.572094087312 0.823468232847 -0.032295963506 0.017635287568
4.008688888000 -0.024342473860 0.021892622405 0.575241241880 0.810703847243 0.573678331381 0.820268904781 -0.032294762506 0.017320707720
4.009111111000 -0.024148489250 0.021043648479 0.576464625471 0.808991694656 0.575668081180 0.820286365790 -0.032512674800 0.017203140823
4.009533333000 -0.024549992600 0.022137944935 0.578293601483 0.808288092227 0.575155579147 0.819422784096 -0.033040977135 0.017996858797
4.009955555000 -0.023814756587 0.021372239359 0.578030592596 0.806730343753 0.576963367276 0.818554101848 -0.032387722349 0.017855499560
4.010377777000 -0.024131354002 0.021425832984 0.578756867617 0.805219229110 0.578384254678 0.815949724987 -0.032522491134 0.018450414344
