# GHZ S RI R 50.000000000000
3.950000000000 0.018712794153 -0.429642343579 0.777066764262 -0.209961877054 0.775097697247 -0.201848210175 -0.160157581819 -0.398420247720
3.950422222000 0.018703175881 -0.428039148278 0.777983821034 -0.208802192037 0.773664078863 -0.201750286922 -0.162732697054 -0.396785636345
3.950844444000 0.017535465749 -0.428054553134 0.776424598821 -0.210145096100 0.774104477906 -0.201620043634 -0.163829649183 -0.396136179336
3.951266666000 0.016878266791 -0.427209222669 0.777173521372 -0.208639840684 0.773976807805 -0.203893228760 -0.165000036431 -0.396442599627
3.951688888000 0.016567352177 -0.426912854438 0.775527346029 -0.210985034829 0.773547187460 -0.202469370365 -0.165550163270 -0.393738959343
3.952111111000 0.015495014479 -0.426723912473 0.775744745920 -0.211022900476 0.772724665426 -0.204053587528 -0.165816891012 -0.392877741604
3.952533333000 0.014275267173 -0.426535034830 0.774977128346 -0.213400208928 0.772748560502 -0.205295182174 -0.167515032842 -0.392402046274
3.952955555000 0.014112374656 -0.425782027728 0.776558557332 -0.213689240157 0.771897506815 -0.206343737846 -0.167387644833 -0.392297283424
3.953377777000 0.013601130206 -0.426044651854 0.774683870327 -0.215518560457 0.771896630045 -0.207680213270 -0.168640843938 -0.390628045750
3.953800000000 0.012427222848 -0.425468705104 0.773636024938 -0.213938121971 0.773448084586 -0.208903204640 -0.168365735492 -0.391378596948
3.954222222000 0.012167362133 -0.425708327046 0.774805992612 -0.217943196776 0.771831551155 -0.210430296059 -0.169769088338 -0.390870001840
3.954644444000 0.011700162943 -0.426147601293 0.774609856605 -0.219662856499 0.772566905437 -0.210947679874 -0.169718845841 -0.390659081079
3.955066666000 0.010799772028 -0.425397619441 0.774723663727 -0.220035923657 0.771592241187 -0.213461836561 -0.170934492513 -0.389851531725
3.955488888000 0.010744577896 -0.424894865446 0.774239668533 -0.221907698813 0.771148353833 -0.213181609683 -0.171092710811 -0.388985596674
3.955911111000 0.010378668337 -0.424986614228 0.775261692605 -0.222668370864 0.771199599175 -0.215398270091 -0.171684962249 -0.388871371051
3.956333333000 0.010571753235 -0.425167881202 0.773628209882 -0.225553349578 0.770871527297 -0.215297871605 -0.172849712486 -0.387398586520
3.956755555000 0.009529403602 -0.424856442831 0.774838055383 -0.225390614009 0.771663161676 -0.217164680873 -0.172159422554 -0.388377306951
3.957177777000 0.009847396949 -0.423938264189 0.774466791395 -0.226793155584 0.771083591827 -0.218980546139 -0.173736575181 -0.387678828769
3.957600000000 0.008133952078 -0.424311242518 0.774348331382 -0.227884088080 0.771082333905 -0.221022857024 -0.174709887940 -0.387425390044
3.958022222000 0.008168233934 -0.423933517058 0.773934529459 -0.230316104316 0.770516120961 -0.221486926654 -0.175404415305 -0.386506151650
3.958444444000 0.007591734949 -0.424224378263 0.773206576363 -0.230749551494 0.770599160460 -0.222544847790 -0.175612579398 -0.385718060813
3.958866666000 0.007422820954 -0.422462287494 0.774108642694 -0.232178662192 0.769236997472 -0.223488820164 -0.176722835606 -0.384589432772
3.959288888000 0.007446348154 -0.423391148533 0.773731660785 -0.233097085279 0.770770376994 -0.224737280420 -0.176126141220 -0.384989730831
3.959711111000 0.007292513134 -0.423845634867 0.773177429933 -0.234350453670 0.769972482621 -0.227102036858 -0.178542176160 -0.383280101638
3.960133333000 0.005961342523 -0.423686804179 0.773187923923 -0.235787265642 0.770064995153 -0.226922842285 -0.177244133785 -0.383197883122
3.960555555000 0.007208623278 -0.422983445755 0.773001520718 -0.238477454479 0.769488392273 -0.227022340582 -0.178896215959 -0.382770909682
3.960977777000 0.005520373530 -0.423178242904 0.772881688693 -0.238906049471 0.769311103881 -0.230513580981 -0.180089473505 -0.382651464705
3.961400000000 0.005289419596 -0.423759550582 0.772520318237 -0.238927842386 0.773021256438 -0.231537594444 -0.179041985047 -0.383841487035
3.961822222000 0.004828985099 -0.422727510095 0.772974741847 -0.241468337892 0.770250042849 -0.233068514655 -0.180820430563 -0.382090412451
3.962244444000 0.004283061152 -0.423103073946 0.773022947024 -0.242517656830 0.769801998947 -0.233543838081 -0.180765199606 -0.381392792628
3.962666666000 0.003690119986 -0.422637340960 0.771937153424 -0.243903969116 0.769056632330 -0.235229954163 -0.182294360706 -0.380607380180
3.963088888000 0.002900229197 -0.422882868837 0.771839198947 -0.244359159627 0.770149014229 -0.236168719839 -0.181933751591 -0.380336157673
3.963511111000 0.002271453181 -0.421936722079 0.772257666589 -0.246361071839 0.768109224424 -0.237588446387 -0.183202902969 -0.379691208697
3.963933333000 0.001709736554 -0.422186386365 0.771732209735 -0.248279812305 0.768401378158 -0.238077397059 -0.182588300482 -0.379433966220
3.964355555000 0.001796097358 -0.422380067377 0.771578022945 -0.248549644242 0.769312351716 -0.238900289155 -0.183417900052 -0.378655679950
3.964777777000 0.000472848770 -0.421282856411 0.771819845359 -0.250397299642 0.766830120258 -0.240235840779 -0.183151870334 -0.377908624170
3.965200000000 0.000301370204 -0.421611846975 0.771835771887 -0.251878964804 0.768445606085 -0.242874056038 -0.184783410359 -0.378483678966
3.965622222000 -0.000129651409 -0.421685848848 0.771638223611 -0.252511719181 0.768540310376 -0.243067400834 -0.184597266191 -0.377723004936
3.966044444000 -0.000318955393 -0.422011426060 0.771156751006 -0.254465866811 0.768769967775 -0.244946417601 -0.185747781484 -0.377166607789
3.966466666000 -0.000622724215 -0.421381042460 0.770905264327 -0.255484135885 0.768336253317 -0.246486260257 -0.186770361957 -0.376924168429
3.966888888000 -0.001004940656 -0.421064012010 0.771342018726 -0.256820539161 0.767220823191 -0.247661645259 -0.187092389763 -0.375875094837
3.967311111000 -0.001358323051 -0.421861596371 0.770261541133 -0.258693443309 0.768955494647 -0.248411946003 -0.188010424306 -0.375920598450
3.967733333000 -0.002819706163 -0.421009086673 0.770356178966 -0.259664192764 0.766451818447 -0.250061084796 -0.188680811887 -0.374694087258
3.968155555000 -0.003773208319 -0.421524108925 0.770136989270 -0.260512082084 0.767426696953 -0.251039534441 -0.187923722154 -0.374418461692
3.968577777000 -0.002616784816 -0.421394399939 0.770537950407 -0.262247943956 0.768015317411 -0.251181405906 -0.188757323425 -0.374285808148
3.969000000000 -0.003506059445 -0.419325710444 0.769864363878 -0.263352665520 0.767587051586 -0.254571654764 -0.191103059734 -0.374684046889
3.969422222000 -0.003995057971 -0.420533148178 0.770202516494 -0.264801553149 0.766053993844 -0.255115339838 -0.190208843315 -0.372745025446
3.969844444000 -0.004472869026 -0.420186284810 0.770210983955 -0.266300685192 0.765917930525 -0.256015879149 -0.191027517223 -0.372717374964
3.970266666000 -0.004860241105 -0.420558471793 0.769744713380 -0.267908018758 0.767398219183 -0.257183078433 -0.191219557732 -0.372747477433
3.970688888000 -0.005941617303 -0.419739654834 0.769614096791 -0.268648551768 0.764786782658 -0.258917188133 -0.191858686369 -0.371227349893
3.971111111000 -0.006593655391 -0.419970906699 0.769309626725 -0.270262498852 0.766389714743 -0.260183236631 -0.192471229899 -0.371639968017
3.971533333000 -0.007191579730 -0.420696266274 0.768813863811 -0.272153275904 0.766632232600 -0.262460427016 -0.193782376486 -0.371032517438
3.971955555000 -0.006903901366 -0.420422992842 0.768936337701 -0.272658028585 0.766454183223 -0.261783161402 -0.193384324187 -0.370443857391
3.972377777000 -0.007915107857 -0.420251086665 0.769132688738 -0.273941519795 0.765282787405 -0.264366679461 -0.194389243174 -0.369383705125
3.972800000000 -0.009464384212 -0.420034258277 0.767979580793 -0.275721526944 0.765479172457 -0.267495089280 -0.195719461602 -0.369487153737
3.973222222000 -0.009789964813 -0.420338339555 0.768047690290 -0.276514324087 0.764749012554 -0.266705636834 -0.195130909807 -0.368120944733
3.973644444000 -0.009718785950 -0.419634424741 0.767765102520 -0.278476294664 0.764368865416 -0.268430476809 -0.195826837823 -0.368098529946
3.974066666000 -0.010019154597 -0.419975575837 0.768112176284 -0.278823072923 0.764782484539 -0.268021680007 -0.195728115233 -0.367633732262
3.974488888000 -0.010960629759 -0.420157101569 0.767145381720 -0.280474878773 0.764751271099 -0.269428572661 -0.195965159561 -0.367365094761
3.974911111000 -0.011244034670 -0.420224446445 0.767551512006 -0.281806513425 0.765880565915 -0.270644511582 -0.196867662933 -0.367686592186
3.975333333000 -0.011860247319 -0.419782069253 0.766737987915 -0.283539080616 0.765884780873 -0.273201662937 -0.198003658506 -0.367118676901
3.975755555000 -0.012072263545 -0.419081017260 0.767437364567 -0.284329654246 0.764735897365 -0.272637485722 -0.197446486531 -0.366965483582
3.976177777000 -0.012521095155 -0.420377322186 0.766637354907 -0.286228159080 0.766396909938 -0.275008779979 -0.198970954980 -0.366829589423
3.976600000000 -0.012216655918 -0.420847072680 0.768308746436 -0.286626329558 0.767335086212 -0.273545173534 -0.198351119094 -0.365913937341
3.977022222000 -0.013051629399 -0.419531380478 0.766696978647 -0.288950805760 0.765134835359 -0.275580479812 -0.198897997666 -0.365358016018
3.977444444000 -0.014349345199 -0.418661622793 0.765191140588 -0.289445275765 0.763165051761 -0.278854003942 -0.200071230754 -0.363863633432
3.977866666000 -0.015328786861 -0.418464259570 0.765038396250 -0.291342545513 0.763292603846 -0.280673464267 -0.200723822793 -0.364114869788
3.978288888000 -0.016289071511 -0.418938079336 0.765478382695 -0.292390903045 0.763532143070 -0.282603043078 -0.201500556127 -0.363049965939
3.978711111000 -0.016751243367 -0.418349451229 0.765240732707 -0.293739449469 0.762791299080 -0.282453965382 -0.201042558953 -0.362991950131
3.979133333000 -0.016076941995 -0.417989600282 0.764812385768 -0.294825575998 0.762360902409 -0.282774178821 -0.202286585421 -0.362558437604
3.979555555000 -0.017141462782 -0.419335202987 0.765999344463 -0.296753915886 0.764030232513 -0.285578124574 -0.202927214556 -0.362513307700
3.979977777000 -0.018686232823 -0.418468824277 0.764498589080 -0.298482917733 0.761886864158 -0.289391293600 -0.204329761678 -0.360856268635
3.980400000000 -0.018478026603 -0.418601313040 0.764382405548 -0.299565691210 0.762556371641 -0.289091809632 -0.204248925951 -0.361016571274
3.980822222000 -0.019306369650 -0.418041288931 0.763837758011 -0.300553021593 0.761767435169 -0.289675018291 -0.204189419057 -0.360041618834
3.981244444000 -0.020178700086 -0.419258249324 0.763269490095 -0.302807850900 0.764682473910 -0.292099614359 -0.205830044439 -0.360862490426
3.981666666000 -0.020933810758 -0.417207068181 0.762959125946 -0.303052017719 0.760003592889 -0.292697849840 -0.204590425377 -0.358753362885
3.982088888000 -0.021473117472 -0.418270638599 0.762852415672 -0.305279878496 0.762679911851 -0.294064757550 -0.206293373624 -0.359252858711
3.982511111000 -0.020735935936 -0.418219681679 0.763077172630 -0.305877314112 0.761511114458 -0.294111528215 -0.205800217552 -0.358410413967
3.982933333000 -0.022203677041 -0.418335421397 0.763612052832 -0.307544248602 0.762111826371 -0.295166366161 -0.206565449394 -0.358357670538
3.983355555000 -0.022513704495 -0.417762636588 0.761925984822 -0.309475725024 0.761369021160 -0.297093231313 -0.207468369780 -0.357946559587
3.983777777000 -0.023760348867 -0.417758422434 0.762228468567 -0.310969722386 0.761293037835 -0.298848289309 -0.207639241259 -0.357152412220
3.984200000000 -0.022831834060 -0.419931779507 0.762320375785 -0.311819265916 0.764259489875 -0.299257705283 -0.208472892919 -0.357601409087
3.984622222000 -0.024313078677 -0.417958038727 0.761837138346 -0.313354781430 0.762378301144 -0.300620895742 -0.208342079141 -0.356599023686
3.985044444000 -0.025069816642 -0.418239326602 0.761856966756 -0.314980918561 0.762517269242 -0.301699974012 -0.209302930929 -0.356777235271
3.985466666000 -0.025068599297 -0.417405670249 0.761244710471 -0.315029664903 0.760990723490 -0.301661886593 -0.208793602515 -0.355670344395
3.985888888000 -0.026918045869 -0.417631672857 0.762277392708 -0.317396326654 0.761092468568 -0.305626587490 -0.209892155587 -0.355112703964
3.986311111000 -0.027685915104 -0.417306106608 0.760617522912 -0.318027954174 0.760211862721 -0.306557810563 -0.210357979134 -0.354152086213
3.986733333000 -0.027337601120 -0.418178562299 0.761656473650 -0.319867276536 0.762106509925 -0.306905680236 -0.210668458377 -0.354792731512
3.987155555000 -0.028018003407 -0.417208642348 0.761030825271 -0.322362430574 0.759429704280 -0.307841933578 -0.211155652107 -0.353794652173
3.987577777000 -0.028934740807 -0.417649821223 0.760194119901 -0.322103808931 0.759812001066 -0.311435965882 -0.212350138454 -0.352807869061
3.988000000000 -0.029430805848 -0.417479941401 0.760471945218 -0.323425147151 0.759500936659 -0.311771216990 -0.212512821059 -0.352699405074
3.988422222000 -0.029863909543 -0.416976623501 0.759948020805 -0.325700246493 0.759799611608 -0.312681672493 -0.213297373891 -0.352302882352
3.988844444000 -0.029899956639 -0.417197951888 0.759049990207 -0.326961306141 0.761228262926 -0.313805592041 -0.213717481349 -0.352405441161
3.989266666000 -0.031630868511 -0.416337612503 0.758290871405 -0.327552527095 0.758197640282 -0.317034049467 -0.213766307096 -0.350521497292
3.989688888000 -0.031832864147 -0.417029103522 0.758650589009 -0.330171194919 0.758774430098 -0.317146353959 -0.214505903540 -0.350616954006
3.990111111000 -0.032611776562 -0.416726863989 0.757805067459 -0.330242937285 0.758439673261 -0.319400016841 -0.214756738198 -0.349513322759
3.990533333000 -0.033545307391 -0.416397514586 0.757687307962 -0.331777445968 0.757773701143 -0.321004322522 -0.215191526339 -0.349172708663
3.990955555000 -0.033888884980 -0.415672184305 0.757742494724 -0.332780147217 0.756650809977 -0.321707925181 -0.215766708714 -0.348591808159
3.991377777000 -0.033746981816 -0.416097907334 0.757422134849 -0.333748125179 0.757577445301 -0.321188621377 -0.215259941712 -0.348739491541
3.991800000000 -0.035476635150 -0.415394714289 0.755908826058 -0.336565173887 0.756846608137 -0.325858457851 -0.217471301264 -0.347566996075
3.992222222000 -0.036637448777 -0.416612151344 0.755333333267 -0.339065441824 0.758918246391 -0.326969718128 -0.218001234027 -0.347621598859
3.992644444000 -0.036679289461 -0.416031674890 0.756048817520 -0.340023302186 0.757508684390 -0.328408860128 -0.217932410506 -0.347143038338
3.993066666000 -0.038106796314 -0.415868124144 0.756733253485 -0.341631757050 0.757063116795 -0.329962707231 -0.219236342164 -0.346349238506
3.993488888000 -0.039035885849 -0.416397668627 0.756492642734 -0.343390685208 0.757220753544 -0.331790530520 -0.219455307322 -0.345807090461
3.993911111000 -0.039292741776 -0.414706243557 0.754154267046 -0.343658334023 0.755792176363 -0.332715133933 -0.219296928749 -0.345354230990
3.994333333000 -0.038798874007 -0.413554271815 0.754409047912 -0.345208655089 0.755751985255 -0.331654177071 -0.219548552302 -0.345956014340
3.994755555000 -0.040670659124 -0.416155505910 0.755045834603 -0.347918173649 0.758259577770 -0.334857780327 -0.220773720320 -0.345181947623
3.995177777000 -0.041280568841 -0.415727333304 0.754448801388 -0.348258450625 0.755977057805 -0.336281579070 -0.220792481252 -0.343698090420
3.995600000000 -0.041564994122 -0.416701677868 0.755157812082 -0.350381379303 0.757869643441 -0.337326939782 -0.221485237745 -0.344421241498
3.996022222000 -0.042753451361 -0.415181307466 0.754486908768 -0.350866187920 0.755338920583 -0.338650676047 -0.221827280692 -0.343039729817
3.996444444000 -0.044172459102 -0.415247170119 0.753384207453 -0.352795355963 0.756281379494 -0.342211997190 -0.222791641827 -0.342517553641
3.996866666000 -0.044663300177 -0.415877442645 0.753953626116 -0.356132464552 0.757714774767 -0.340874036188 -0.222893600156 -0.343112544962
3.997288888000 -0.044764609177 -0.414692989008 0.752808237560 -0.355261864556 0.754545827222 -0.343333040307 -0.222983796201 -0.341145204793
3.997711111000 -0.045812552645 -0.413736151942 0.752435451596 -0.355567484425 0.752990157184 -0.345932049457 -0.223708208372 -0.340467342413
3.998133333000 -0.046505505888 -0.414659031178 0.751912682538 -0.359562653976 0.756320362966 -0.345396041857 -0.224060707649 -0.341244359993
3.998555555000 -0.046972424082 -0.413702747229 0.751148163289 -0.359927283568 0.753008758764 -0.346985021069 -0.224045200506 -0.340013662873
3.998977777000 -0.046794815714 -0.413273631625 0.749962006668 -0.360269368152 0.752904779562 -0.348201388736 -0.224185639295 -0.338973746864
3.999400000000 -0.047355893693 -0.415551826738 0.752266504300 -0.358537728893 0.758033687749 -0.351199042327 -0.224465917829 -0.342042961813
3.999822222000 -0.049754034042 -0.412818176128 0.748723579202 -0.364672352806 0.751121134049 -0.351625670475 -0.225064357279 -0.337528343635
4.000244444000 -0.049049048803 -0.412924424159 0.749270851279 -0.364280236233 0.752775149379 -0.352371255936 -0.225371912505 -0.337635988133
4.000666666000 -0.050234430685 -0.412928590659 0.748211825682 -0.367081952290 0.752856816636 -0.354690744414 -0.226646906705 -0.337015356791
4.001088888000 -0.050968695460 -0.412112400146 0.749606703808 -0.369605201805 0.750952389137 -0.354838544670 -0.227107928224 -0.336629881423
4.001511111000 -0.052405094443 -0.412626096160 0.749159926035 -0.369326440676 0.751368800556 -0.358152547798 -0.227531826501 -0.335992534808
4.001933333000 -0.053280469399 -0.412072721429 0.746990125373 -0.373425778268 0.751055147885 -0.357543653215 -0.227591638047 -0.335941469138
4.002355555000 -0.053871558350 -0.412112940784 0.746942238772 -0.373556871276 0.750188225533 -0.359837026599 -0.227928913521 -0.334896891120
4.002777777000 -0.054853678535 -0.411237214368 0.745006236020 -0.375793693555 0.749035968715 -0.360735122505 -0.227877144510 -0.333963958369
4.003200000000 -0.055026382236 -0.411701715757 0.747024640508 -0.376290060557 0.750665649800 -0.364008325963 -0.229921384523 -0.334428058021
4.003622222000 -0.056266469068 -0.411996237263 0.745478055204 -0.378903876242 0.750421568087 -0.366446948710 -0.230277768752 -0.332905972060
4.004044444000 -0.057585311919 -0.410948349936 0.743848091787 -0.378540105633 0.748577345111 -0.366140571700 -0.229196644594 -0.333308982359
4.004466666000 -0.057838075099 -0.410184711555 0.745655068676 -0.381599246730 0.747381221596 -0.368978605942 -0.232315681060 -0.331149285631
4.004888888000 -0.059425736251 -0.411811663399 0.746398767755 -0.383195233696 0.748275427055 -0.371862804900 -0.232047752526 -0.331804887579
4.005311111000 -0.059261381951 -0.410716116262 0.744863993873 -0.383475256610 0.748567626786 -0.371273882334 -0.231477628670 -0.331424280547
4.005733333000 -0.060251998156 -0.410337014958 0.744074564459 -0.385762074206 0.748694114634 -0.373731215957 -0.233207431578 -0.330786750093
4.006155555000 -0.061383091022 -0.409045955254 0.743052949760 -0.388689594580 0.745100836393 -0.375219150393 -0.233390024119 -0.328785132565
4.006577777000 -0.062553766457 -0.409801653276 0.742359967315 -0.388499092387 0.746019155566 -0.376209333868 -0.232846795337 -0.329146934567
4.007000000000 -0.062221964656 -0.410646811078 0.735407507928 -0.391775065370 0.744984142868 -0.374821642669 -0.229786422761 -0.328827388384
4.007422222000 -0.063590109582 -0.409959296674 0.740989212326 -0.390376910237 0.747377153823 -0.380789699019 -0.234298014877 -0.328713363435
4.007844444000 -0.064784397585 -0.409090763551 0.742973936551 -0.392751340818 0.746274151528 -0.381658645153 -0.235315207020 -0.328381822326
4.008266666000 -0.063550293314 -0.408603566585 0.739039371125 -0.395504813262 0.744829047168 -0.381018317121 -0.234896346000 -0.325842251358
4.008688888000 -0.065033941727 -0.408054040609 0.741130282515 -0.396231244077 0.742608850051 -0.385644518020 -0.237190340974 -0.325132158621
