# GHZ S RI R 50.000000000000
3.950000000000 -0.043980363697 0.006120315921 0.376034270073 0.907801755830 0.367440770314 0.905511914444 -0.042058471322 0.024408930188
3.950422222000 -0.044749101866 0.007097672245 0.378631247419 0.904846316744 0.371542245428 0.905866182592 -0.040933421046 0.025226622380
3.950844444000 -0.044480192457 0.007236172191 0.379714695935 0.905607111808 0.369504896538 0.906360063644 -0.042640996086 0.025007184951
3.951266666000 -0.046834435473 0.007843173322 0.372111192675 0.907241738039 0.370308940393 0.904219984348 -0.042545327692 0.025668574938
3.951688888000 -0.044784184145 0.007711205129 0.378110139446 0.903543299455 0.370680869528 0.902759268431 -0.041774489420 0.025123746408
3.952111111000 -0.045998613350 0.006960763059 0.378720090022 0.904364991330 0.372175700569 0.904111706043 -0.043412911885 0.026263749109
3.952533333000 -0.045643403863 0.008234204049 0.379945594046 0.905143432597 0.373708312772 0.901450759536 -0.041361999373 0.026829674610
3.952955555000 -0.046342014023 0.008692198138 0.381751592134 0.905793459860 0.374105996131 0.902664305742 -0.041740105452 0.026345271737
3.953377777000 -0.045668990047 0.009625670880 0.382478248936 0.903267566975 0.375440168917 0.903696956198 -0.042008695909 0.026481325344
3.953800000000 -0.048005855732 0.009390473033 0.378943414620 0.908095304030 0.371624350270 0.904337784086 -0.043081817602 0.028694885767
3.954222222000 -0.046811766890 0.009869370147 0.384119078300 0.903796270055 0.376998189577 0.903086495696 -0.042258599183 0.027552499587
3.954644444000 -0.045820286904 0.009613116921 0.385011275437 0.903665305618 0.379725511937 0.901625499671 -0.042007351592 0.027446776048
3.955066666000 -0.047294609922 0.011457515737 0.387302105701 0.903652686541 0.380792641772 0.903885034914 -0.041511477083 0.028806081251
3.955488888000 -0.046854401160 0.011076348903 0.388539487111 0.902442512978 0.381496089470 0.903994797599 -0.042415748224 0.028720033285
3.955911111000 -0.048218814215 0.011291883154 0.388292418245 0.903810582755 0.382230902326 0.902264025747 -0.041779413221 0.028353060649
3.956333333000 -0.045281468361 0.011322917795 0.393421513744 0.898431886943 0.385507662443 0.900673922926 -0.040568202404 0.027846969527
3.956755555000 -0.047796358241 0.012251793372 0.390794844983 0.904197857760 0.384901630884 0.904096556240 -0.042424518379 0.029593837503
3.957177777000 -0.047012365335 0.013443522820 0.393470002521 0.903296986227 0.387210649310 0.902476887530 -0.040767814274 0.029116351369
3.957600000000 -0.048087984946 0.012392760959 0.394659780846 0.903070418846 0.386679619463 0.900184689462 -0.040815424778 0.028921131997
3.958022222000 -0.046462608423 0.012996516886 0.397309520552 0.899645213228 0.390276220774 0.900182084874 -0.040290206218 0.028703832995
3.958444444000 -0.047213932227 0.013660395707 0.399086219778 0.900810612796 0.391422841833 0.902459468050 -0.040604196658 0.030990626003
3.958866666000 -0.047093289756 0.014796430270 0.400972533792 0.901863849890 0.393845012253 0.900323690189 -0.038900496017 0.030603671153
3.959288888000 -0.047015503323 0.013511958333 0.399672104086 0.901464141784 0.394364187722 0.900151682919 -0.040043609218 0.029634619218
3.959711111000 -0.046874846075 0.013949246864 0.402294710869 0.899468570194 0.395269756084 0.900614368124 -0.039956367454 0.030015692176
3.960133333000 -0.047452061353 0.014470437261 0.404071715539 0.901315030406 0.395549859420 0.902514225070 -0.040876987190 0.030366523550
3.960555555000 -0.046444323729 0.016876186755 0.407426570055 0.901494220262 0.396136667926 0.900568407148 -0.039001988349 0.030036216004
3.960977777000 -0.047141269882 0.016395644437 0.407594985969 0.899877621172 0.398957563981 0.900785789776 -0.039242048148 0.031205298973
3.961400000000 -0.047572998274 0.015421052886 0.407474440507 0.899737011496 0.401822646869 0.902656396477 -0.039331027500 0.032282883136
3.961822222000 -0.046587840528 0.017632280554 0.410089188849 0.901219123955 0.401414328055 0.901132341299 -0.038527825109 0.030542932636
3.962244444000 -0.047201383489 0.016591350753 0.411875184466 0.898887374628 0.403709242707 0.901090871049 -0.039287284695 0.031227328440
3.962666666000 -0.046570273946 0.017260675848 0.412736285076 0.899040095004 0.404744363901 0.899173428486 -0.038228622813 0.031750180592
3.963088888000 -0.046027401852 0.017083508832 0.413945208005 0.896890203679 0.406008310128 0.900826366234 -0.038105155788 0.030802564696
3.963511111000 -0.046958221446 0.019342956513 0.416496858082 0.902164017170 0.406209442846 0.900490644168 -0.037800339173 0.032427759485
3.963933333000 -0.046451818411 0.019244269043 0.418310024821 0.901973983593 0.407469926461 0.900123874270 -0.038385243828 0.032196855106
3.964355555000 -0.045649626201 0.018390129203 0.419798002522 0.897341069596 0.410414578631 0.900530208602 -0.037469694583 0.031728461424
3.964777777000 -0.044745807442 0.019354985733 0.424166035700 0.897085565412 0.413792143666 0.897665046535 -0.036055054433 0.032343318365
3.965200000000 -0.046639261751 0.019473336515 0.421609139726 0.899013310606 0.413179880815 0.897564055363 -0.037174502829 0.032204377722
3.965622222000 -0.045980094858 0.019473620531 0.423535407285 0.897504304456 0.414570925665 0.897959862784 -0.036771709341 0.031670417418
3.966044444000 -0.046124828454 0.020522828815 0.425020506521 0.898522073663 0.415603511462 0.899165753847 -0.037197296253 0.032147062288
3.966466666000 -0.044587493105 0.020560694280 0.428989041231 0.895733753326 0.418736072478 0.898720234527 -0.035682598535 0.031662469710
3.966888888000 -0.044949988535 0.020916402939 0.429545823113 0.895546996937 0.419826023322 0.898379745367 -0.036277545651 0.031464244432
3.967311111000 -0.044083490746 0.022432509892 0.431622096046 0.896041853252 0.421678107051 0.899523087759 -0.035650856417 0.032736147990
3.967733333000 -0.045234690748 0.021773236436 0.432464331505 0.895328586054 0.422789867706 0.897161889903 -0.035413840802 0.032614099274
3.968155555000 -0.044375549150 0.021350836528 0.433054636968 0.894658033356 0.425254560478 0.896675735541 -0.034785297523 0.032502576509
3.968577777000 -0.043854860955 0.021883326299 0.436217718954 0.894723394796 0.425501686142 0.898290184887 -0.035521145308 0.031889428925
3.969000000000 -0.042865055728 0.020881677390 0.435219381844 0.887662377804 0.430897909758 0.894230870245 -0.033197073244 0.031403662591
3.969422222000 -0.043302616527 0.022595373148 0.439012606327 0.895813811526 0.428550158899 0.894638148369 -0.033872088760 0.031702230661
3.969844444000 -0.044115138957 0.022697429781 0.439607859106 0.895447746771 0.429882121795 0.896373787572 -0.035294790677 0.031771292571
3.970266666000 -0.043790834370 0.023314359640 0.439810400863 0.893891550091 0.431437916379 0.895573889211 -0.034901122107 0.031687038585
3.970688888000 -0.043069501067 0.023791974307 0.444410396410 0.892281797667 0.433975239504 0.894477983230 -0.033846072143 0.031544774874
3.971111111000 -0.042931896539 0.023739300089 0.446145782648 0.892197421545 0.436527805598 0.894482314763 -0.033796809264 0.032137410189
3.971533333000 -0.042831157969 0.023932843219 0.446150013595 0.891970629059 0.437549261487 0.895120453903 -0.034123805966 0.031555600408
3.971955555000 -0.041932010430 0.023718018159 0.448677469039 0.890850783750 0.438927547732 0.894220457413 -0.033192184338 0.031202438843
3.972377777000 -0.042653778302 0.023735060263 0.449442879085 0.890133485294 0.441458243112 0.893230365143 -0.033774370448 0.031201544533
3.972800000000 -0.041777168155 0.024786256301 0.453120457054 0.891023227823 0.443666266632 0.892886769558 -0.033417524032 0.031902598341
3.973222222000 -0.042398217052 0.024511050309 0.452742580641 0.889857123065 0.443760047741 0.893453821003 -0.034092906994 0.031573054867
3.973644444000 -0.041810369552 0.025281994194 0.455848737483 0.889161247878 0.444929311878 0.891903806730 -0.032876305119 0.031445322732
3.974066666000 -0.041611792313 0.025071986427 0.456419321027 0.888458169335 0.446713985470 0.892168533853 -0.032770697978 0.031915168343
3.974488888000 -0.040861496193 0.025673703312 0.458482624042 0.887961588761 0.448553505155 0.892345412872 -0.032909840205 0.032038001854
3.974911111000 -0.039697529334 0.025641484133 0.461785572153 0.886673193988 0.450525880647 0.892094315526 -0.031936932245 0.031525443216
3.975333333000 -0.039395734117 0.025900689920 0.463557488277 0.886412658051 0.452209951002 0.891277330728 -0.031276533813 0.030694658398
3.975755555000 -0.040441687019 0.026353514283 0.462622354784 0.886756546525 0.452323938033 0.890030971587 -0.031809041725 0.031067705770
3.976177777000 -0.039172533730 0.026896223696 0.465894283042 0.886241213051 0.454915444135 0.891778334600 -0.031517658914 0.031420601882
3.976600000000 -0.038251805481 0.028118155272 0.468293220311 0.887261837390 0.455713658718 0.893026842225 -0.029325444941 0.031457141728
3.977022222000 -0.038844451589 0.026339336426 0.468289890770 0.883901693149 0.456463716801 0.889775880744 -0.031335353193 0.030091605304
3.977444444000 -0.038093717617 0.027150457246 0.470264052653 0.882520338401 0.459937218647 0.888333687778 -0.030179117434 0.030808303401
3.977866666000 -0.038207015618 0.027293692824 0.472621442006 0.882146301267 0.461507565524 0.886906907772 -0.030644273256 0.030536438612
3.978288888000 -0.037963751955 0.026273047566 0.472040552945 0.881597151013 0.464184941905 0.886784185198 -0.030320973646 0.030290961693
3.978711111000 -0.038187329000 0.027220059166 0.474403314001 0.881760167594 0.464978934663 0.886045653620 -0.030413073696 0.030623989389
3.979133333000 -0.037144022974 0.028155628375 0.476417057307 0.880604801616 0.464548918297 0.887064314126 -0.030379752112 0.030744186036
3.979555555000 -0.036897464095 0.026762957988 0.478051727708 0.879923301113 0.468449764678 0.886596283609 -0.031074429935 0.029062874384
3.979977777000 -0.036319601169 0.027144490424 0.481330434470 0.879040961663 0.471755811382 0.884054403339 -0.029906392888 0.029153645239
3.980400000000 -0.036998622551 0.027695049152 0.480494387289 0.879034150437 0.470601378634 0.883930453215 -0.030375225061 0.029431585480
3.980822222000 -0.035889177000 0.027484302174 0.483942974620 0.877198343697 0.473355804059 0.883622234099 -0.029595445131 0.029059909261
3.981244444000 -0.035567273604 0.027767760891 0.485585850822 0.877499544484 0.475035949723 0.884787064116 -0.030148953282 0.028645470695
3.981666666000 -0.035958062809 0.027080459162 0.484713231609 0.874183873983 0.476321455599 0.880423117971 -0.029157995287 0.028479926052
3.982088888000 -0.034688635998 0.027658732605 0.489128756980 0.875171330140 0.479108726632 0.882205964492 -0.029283327636 0.028175895333
3.982511111000 -0.035056563837 0.027486888455 0.489342010126 0.873540648163 0.479741979296 0.880745382264 -0.029894255981 0.027857645513
3.982933333000 -0.033949540358 0.027358990576 0.492341925219 0.872464365835 0.482088138906 0.880889182825 -0.029273895698 0.027901361304
3.983355555000 -0.034677862522 0.028064260256 0.492044655468 0.872764656814 0.481884938435 0.880077368498 -0.029323924126 0.028179164051
3.983777777000 -0.033833798623 0.027285768488 0.494946338170 0.870906846361 0.485299707991 0.877965630618 -0.028681865989 0.027662560147
3.984200000000 -0.032317772513 0.027935768798 0.495573304816 0.872297033809 0.484953504454 0.883650536677 -0.028443543837 0.025680188102
3.984622222000 -0.032939861494 0.027156642132 0.496777346772 0.869663768105 0.488845859356 0.878855436676 -0.028992779670 0.026966695407
3.985044444000 -0.032524755853 0.027382107242 0.499181533923 0.868320364777 0.488864648382 0.878824553510 -0.028575097054 0.026629006806
3.985466666000 -0.032068395808 0.027884878625 0.501077662419 0.867865333433 0.490453492575 0.877527027695 -0.028189133361 0.027106080723
3.985888888000 -0.032694058460 0.027359095544 0.502988803523 0.867576817324 0.494706656124 0.874755414800 -0.029363367239 0.026233066141
3.986311111000 -0.032217244666 0.027755027894 0.504751738482 0.866791078395 0.496047606360 0.874449451436 -0.028643852946 0.026574216736
3.986733333000 -0.031084884396 0.027256900255 0.504600503251 0.864858697060 0.496718365807 0.875497086741 -0.028366831935 0.026156821658
3.987155555000 -0.031997852572 0.027840460391 0.506422693806 0.865983257711 0.496647995428 0.873075457115 -0.028525546775 0.026217707524
3.987577777000 -0.030276576852 0.027119813246 0.510063255609 0.864049974025 0.500662687930 0.873408380163 -0.028632649245 0.025110561504
3.988000000000 -0.030719456536 0.027130639168 0.510828638806 0.862699686435 0.502064243733 0.872867555927 -0.029103082300 0.025297476138
3.988422222000 -0.030189211867 0.026985471393 0.512893551939 0.860775064902 0.502836921626 0.872481108141 -0.029032832376 0.024529232941
3.988844444000 -0.029742251525 0.027595584650 0.513060591309 0.860308532997 0.502526289027 0.872097711987 -0.028239566994 0.025205702309
3.989266666000 -0.030159143841 0.027520774252 0.514151969785 0.860592742208 0.506038772687 0.869255199491 -0.028407164260 0.024833821533
3.989688888000 -0.029816399147 0.026902001878 0.516879185072 0.859115650874 0.507339903342 0.869874399122 -0.028750078448 0.023926212903
3.990111111000 -0.029433613726 0.026970275302 0.518426136473 0.858089234044 0.510524960915 0.867476765164 -0.028907145251 0.024261478008
3.990533333000 -0.029107758811 0.026029784939 0.520415734545 0.856463910647 0.511936758832 0.866639173719 -0.028827577511 0.023302637374
3.990955555000 -0.028516192651 0.027007800769 0.521249723223 0.856283948356 0.512121941567 0.866072264168 -0.027791610063 0.024070107955
3.991377777000 -0.028767955689 0.027392087730 0.521802685150 0.855828639921 0.513005184494 0.865681867895 -0.028192001012 0.024034841626
3.991800000000 -0.029057870994 0.027029779911 0.524689511609 0.855092475783 0.516873949785 0.863913543006 -0.028918557752 0.022821111316
3.992222222000 -0.027720417582 0.026544345503 0.526936172401 0.852565788955 0.518519986030 0.864657358831 -0.029296815058 0.023013161176
3.992644444000 -0.028374251674 0.026344762861 0.526694038198 0.852683731828 0.518888015612 0.862177187852 -0.028507205664 0.022564742721
3.993066666000 -0.027239189698 0.025971555389 0.529160680383 0.850637670620 0.521260010409 0.861745527848 -0.028550842715 0.023374689159
3.993488888000 -0.027594266021 0.025901368427 0.530739844849 0.850209082777 0.524010783396 0.860370617259 -0.029278113016 0.022737118983
3.993911111000 -0.027187698421 0.026184437849 0.531791854387 0.848564279397 0.523177689113 0.859664363901 -0.028856747988 0.022519155359
3.994333333000 -0.026988772701 0.026541866525 0.532598694386 0.850299595568 0.523559985281 0.858510824405 -0.027139732650 0.022577982477
3.994755555000 -0.026253254812 0.025196722372 0.535690635805 0.846808168470 0.527633166616 0.859669466270 -0.028882683853 0.021374502115
3.995177777000 -0.026717960607 0.025446008075 0.536788465390 0.845091901511 0.529074285754 0.857045770718 -0.029888615469 0.021214717701
3.995600000000 -0.026393614201 0.025964433332 0.538725993623 0.846394576883 0.529984588903 0.857513943139 -0.029186060048 0.020741253469
3.996022222000 -0.026303179835 0.024951819414 0.540100413315 0.843488102270 0.531964943590 0.855547381321 -0.029500230571 0.021171555904
3.996444444000 -0.025950564447 0.024553920768 0.540739450188 0.842577487622 0.535166869990 0.854711957564 -0.029303009383 0.021015046186
3.996866666000 -0.025617565751 0.025046002909 0.543072388239 0.842294228838 0.535663128678 0.855273727889 -0.029272106854 0.020763881389
3.997288888000 -0.026027757751 0.024532653960 0.543552358201 0.840101079133 0.536923239308 0.852228187183 -0.029759710699 0.020298256934
3.997711111000 -0.026114703213 0.024884330100 0.544052370785 0.838921179070 0.537273714286 0.849659419503 -0.029653786149 0.021235525794
3.998133333000 -0.025138403411 0.024242029142 0.546765565954 0.838170202583 0.538982830373 0.851601413610 -0.029436462394 0.020148752177
3.998555555000 -0.025545576622 0.024697621945 0.547698799114 0.837552566253 0.540159248449 0.850020592127 -0.030124146703 0.020064124289
3.998977777000 -0.025521813616 0.024423272201 0.547851873311 0.836697086764 0.541274508879 0.848362935708 -0.029107222718 0.020250599732
3.999400000000 -0.024431138464 0.024059397664 0.548590798968 0.837299953412 0.545121419484 0.852712767288 -0.029006914422 0.017924132071
3.999822222000 -0.025572782809 0.023900945637 0.552252599716 0.834108690523 0.546201999920 0.842855624039 -0.030300950948 0.020290107013
4.000244444000 -0.025423705644 0.023749848509 0.551617876636 0.832409219078 0.545439383115 0.845054779687 -0.029594588861 0.019504806387
4.000666666000 -0.024426574793 0.023721177077 0.553497046794 0.831319660228 0.548055636874 0.845664581948 -0.030088949361 0.019651429112
4.001088888000 -0.025153243781 0.023739519988 0.555983947003 0.830540704497 0.547488065313 0.842183438823 -0.029986302023 0.019631998606
4.001511111000 -0.025153786538 0.023686918166 0.556989256225 0.829958625997 0.550502626895 0.841541926867 -0.030150433572 0.019599411148
4.001933333000 -0.025388972613 0.023828948847 0.559636520626 0.827325178829 0.550506844894 0.840071963372 -0.031557854672 0.018959286364
4.002355555000 -0.024844884106 0.023345725002 0.559977781725 0.826834836109 0.552947088652 0.839540601290 -0.031131574195 0.019114323407
4.002777777000 -0.024572000806 0.023694206320 0.561659219583 0.825680527456 0.554344826647 0.839038914006 -0.031023722371 0.019335529547
4.003200000000 -0.024626345245 0.022740885272 0.561910003020 0.825990441328 0.556131350145 0.839113807827 -0.030755587574 0.018824082379
4.003622222000 -0.025078881184 0.022198847391 0.563494677490 0.824821026682 0.559961810711 0.837392776738 -0.031099372258 0.018175139890
4.004044444000 -0.024886819301 0.023191671261 0.565634536001 0.823378967318 0.559145414437 0.834688759995 -0.031822449874 0.018877165798
4.004466666000 -0.024596715396 0.023020167057 0.566889811861 0.820095390369 0.558093707766 0.833392076810 -0.031360654013 0.019498731864
4.004888888000 -0.024972564891 0.022435078260 0.567329451602 0.821306488180 0.563484987090 0.833683521583 -0.032644923367 0.017841514720
4.005311111000 -0.024628813845 0.022076794564 0.567936570132 0.820407605873 0.563107309045 0.832374218281 -0.030978393167 0.018436063217
4.005733333000 -0.024272135636 0.021285989684 0.571016693994 0.819278986268 0.566333881420 0.831136141191 -0.031104474320 0.018106572523
4.006155555000 -0.025042948086 0.021531881427 0.572760068725 0.817275680980 0.565228024507 0.826607894005 -0.031610563490 0.018770002339
4.006577777000 -0.024551682155 0.021777398936 0.573765778106 0.815475860216 0.568710089039 0.826869672161 -0.032626978206 0.018353452965
4.007000000000 -0.025630914087 0.021759387834 0.575326309853 0.816374298224 0.572955102061 0.826804537316 -0.035075561951 0.016116981439
4.007422222000 -0.024384976553 0.021080464335 0.575020312702 0.815185103823 0.572013744339 0.827977564982 -0.031851996059 0.017751519551
4.007844444000 -0.024900965025 0.021404183125 0.576475577017 0.814018474480 0.572566571595 0.825913576982 -0.031956110544 0.018006440426
4.008266666000 -0.025179537513 0.022213228661 0.572507678643 0.814364829504 0.571312000897 0.824576842321 -0.031949176937 0.018139774130
4.008688888000 -0.025325326412 0.022017472894 0.574705052629 0.813994633799 0.573935518811 0.822735276102 -0.032040918166 0.017742459302
4.009111111000 -0.025213973140 0.021504882189 0.575736079588 0.812359034160 0.576421938496 0.821236978417 -0.032375209998 0.017629285310
4.009533333000 -0.024938510053 0.022063047755 0.577977164355 0.811837020940 0.576850814266 0.820550003032 -0.032750441355 0.018358724123
4.009955555000 -0.024984655907 0.021832599323 0.577713078779 0.809202809274 0.575279604916 0.820338943764 -0.032271131664 0.018151605656
4.010377777000 -0.024715306204 0.021785222563 0.578457505414 0.808729468668 0.578580596622 0.818065123684 -0.032245204707 0.018829295316
