# GHZ S RI R 50.000000000000
3.950000000000 0.701554171835 -0.324833321399 -0.274133498058 -0.502072044095 -0.278525258037 -0.500922716607 0.645798152776 -0.412781630073
3.950422222000 0.700155665606 -0.324070290633 -0.272960711228 -0.502420233437 -0.277951508844 -0.501475117484 0.645545771832 -0.413461474022
3.950844444000 0.699278061001 -0.324048068784 -0.272671239586 -0.501796420109 -0.279269427018 -0.498964944565 0.643868558024 -0.416980539123
3.951266666000 0.697829833731 -0.326276709450 -0.273138219937 -0.500441365748 -0.279395178902 -0.498878609930 0.643048990542 -0.416302512758
3.951688888000 0.697353511481 -0.325806535710 -0.272631768125 -0.500812118793 -0.279005550686 -0.496397913858 0.640720050490 -0.418752306634
3.952111111000 0.697436255848 -0.328371219682 -0.274284719136 -0.500016119602 -0.280551898104 -0.497172275969 0.640135270837 -0.419429929061
3.952533333000 0.698464155372 -0.327861530850 -0.273826505032 -0.499958641116 -0.280584729639 -0.495777311259 0.637786466943 -0.421662606228
3.952955555000 0.696423798461 -0.328120529314 -0.274517420660 -0.499393348853 -0.281693101034 -0.495817476068 0.638615489011 -0.422935407581
3.953377777000 0.695121886019 -0.332271053744 -0.276372993098 -0.498565572724 -0.282909598032 -0.494001615103 0.638208147342 -0.423426775000
3.953800000000 0.693285896591 -0.330582279477 -0.277597941028 -0.497239070614 -0.282565704040 -0.494010848338 0.639990875189 -0.425269429287
3.954222222000 0.695481597601 -0.332531608726 -0.276795429355 -0.498906711822 -0.283982806597 -0.493347639841 0.637430196167 -0.424418541938
3.954644444000 0.696090779896 -0.334201247966 -0.278210918073 -0.499750894404 -0.283884326496 -0.494548261499 0.637567511651 -0.424801428727
3.955066666000 0.696009556920 -0.335546453704 -0.278817487725 -0.498754142846 -0.284654609175 -0.494556329346 0.636697634245 -0.425422671473
3.955488888000 0.697144086702 -0.335129802855 -0.279091273018 -0.499171763520 -0.285505877571 -0.492934400728 0.635969396804 -0.427732211763
3.955911111000 0.695502916253 -0.336230933204 -0.279808299439 -0.499079928538 -0.286482132990 -0.493267477631 0.636433558811 -0.427737306587
3.956333333000 0.695781086407 -0.338092616052 -0.280101317539 -0.498582522877 -0.286261044916 -0.493119518374 0.634919395941 -0.426677231503
3.956755555000 0.695806485263 -0.338317547509 -0.280326462642 -0.498274650510 -0.287188626393 -0.492968460056 0.634530599555 -0.427794820478
3.957177777000 0.694169119819 -0.339422595351 -0.282309125535 -0.497651452100 -0.287468223093 -0.492009222612 0.636180000910 -0.428915127112
3.957600000000 0.694474351729 -0.339564246898 -0.282641177117 -0.498197143302 -0.287997248444 -0.492553543460 0.635977844437 -0.430770753668
3.958022222000 0.695231167406 -0.341635296951 -0.283941076845 -0.497958388018 -0.288915389097 -0.492013362313 0.634856928852 -0.430556782763
3.958444444000 0.695147323001 -0.344286837294 -0.285794862670 -0.496309325118 -0.290231362514 -0.491202035459 0.632356824178 -0.432637284730
3.958866666000 0.695483764341 -0.344893387087 -0.286688812427 -0.496498956638 -0.289852745729 -0.491166781791 0.631715629035 -0.433848059692
3.959288888000 0.693405547718 -0.347171516561 -0.288478211400 -0.495545290930 -0.291347868535 -0.490106403462 0.633116568514 -0.435448732156
3.959711111000 0.694802554845 -0.348112607911 -0.288350259135 -0.497010487453 -0.290983490043 -0.491672852648 0.633177515275 -0.433099070599
3.960133333000 0.696763164717 -0.348282004628 -0.289167050278 -0.497173102767 -0.293175709722 -0.488670047481 0.631656710488 -0.436000354955
3.960555555000 0.693432326713 -0.349330504061 -0.289546559447 -0.495085849502 -0.291299323001 -0.489203557772 0.631396228055 -0.436836005642
3.960977777000 0.695949532725 -0.350498773626 -0.290397322711 -0.496811290768 -0.292652288933 -0.489359206996 0.631055801592 -0.436220440784
3.961400000000 0.692478658877 -0.350952805892 -0.290887863122 -0.493268483913 -0.293879783372 -0.488305468295 0.630970791359 -0.437322359279
3.961822222000 0.693928639775 -0.352545576188 -0.293106611335 -0.494788044152 -0.294756328622 -0.489765155605 0.631546167284 -0.438827235712
3.962244444000 0.693427287639 -0.351902662289 -0.291818078763 -0.494467599978 -0.295063982403 -0.488917814932 0.630666508343 -0.438840997717
3.962666666000 0.695116492093 -0.351268798343 -0.292782108025 -0.494215752194 -0.295486733400 -0.488383966394 0.629341140937 -0.442226064531
3.963088888000 0.695717001360 -0.357908868835 -0.296137717721 -0.495749198068 -0.297346460623 -0.488523180464 0.630565663133 -0.441675819678
3.963511111000 0.696277828454 -0.358179223618 -0.296218153317 -0.495332991151 -0.297130820101 -0.486807627385 0.628773100558 -0.441584233478
3.963933333000 0.697483535891 -0.357979118528 -0.295773514855 -0.496021732247 -0.298302938889 -0.486835268999 0.629657775848 -0.442799668442
3.964355555000 0.695326164490 -0.359433575655 -0.297325860559 -0.494287393519 -0.299165076267 -0.487052843628 0.629652272135 -0.443515326159
3.964777777000 0.698195295812 -0.359461551589 -0.297579959715 -0.495136302258 -0.298045963108 -0.487184729609 0.629003639040 -0.444289871109
3.965200000000 0.696192986907 -0.360536043183 -0.298317583955 -0.494297877242 -0.300874263475 -0.485687258033 0.628137856502 -0.445901228671
3.965622222000 0.696590114750 -0.362102380012 -0.299333166808 -0.494804650385 -0.298813086493 -0.485203125930 0.628186537924 -0.445835466468
3.966044444000 0.696531250725 -0.363383004389 -0.300238612699 -0.493932631169 -0.300030838477 -0.486187610056 0.626872469835 -0.447913708915
3.966466666000 0.699624828979 -0.366072759052 -0.301508844058 -0.495412283118 -0.301881568001 -0.486043990816 0.626290202877 -0.448065835848
3.966888888000 0.696508768580 -0.366470699134 -0.302338746311 -0.493475512329 -0.302223922744 -0.485038305899 0.627145196703 -0.448148000803
3.967311111000 0.696004481880 -0.370147041423 -0.304308751823 -0.493325357693 -0.303877695902 -0.485610281523 0.627989814654 -0.448718588873
3.967733333000 0.693875927410 -0.365819950752 -0.302106156012 -0.491865091601 -0.304475832591 -0.484554241615 0.627020220973 -0.450184345280
3.968155555000 0.693465877018 -0.370527258220 -0.305125053678 -0.491583486018 -0.304017288374 -0.483395534443 0.626683403211 -0.451282665871
3.968577777000 0.697076947068 -0.371604700624 -0.306137785277 -0.492906099067 -0.305157993107 -0.482057758450 0.626751048437 -0.453182941207
3.969000000000 0.688777289365 -0.365998737305 -0.306218594710 -0.488744093432 -0.304311449315 -0.482322141482 0.631079376697 -0.454800318939
3.969422222000 0.696060417674 -0.373657296796 -0.308260309242 -0.492232095258 -0.307348296171 -0.483043597914 0.626492453655 -0.455063430371
3.969844444000 0.697879976476 -0.377219175520 -0.308786391889 -0.492527051191 -0.307555435752 -0.481017713808 0.625848526472 -0.455047785822
3.970266666000 0.697010238722 -0.376521666746 -0.309172364897 -0.491175854799 -0.307873818429 -0.482032133593 0.625894409168 -0.455995095232
3.970688888000 0.695012326764 -0.378292484962 -0.309705048932 -0.490692124227 -0.308373544470 -0.480870183855 0.625441195768 -0.456123104556
3.971111111000 0.694750673381 -0.378724984708 -0.310935249001 -0.489984559775 -0.308814649972 -0.480644707239 0.625422164839 -0.458371310281
3.971533333000 0.696192124970 -0.380739100128 -0.312360881061 -0.489589743192 -0.309918473195 -0.480249435688 0.625001292949 -0.458497979444
3.971955555000 0.694875112620 -0.383230571213 -0.313254783272 -0.489688498000 -0.310786288594 -0.480074093434 0.625052105373 -0.459989930058
3.972377777000 0.695781726386 -0.383317032601 -0.313527759253 -0.489342209703 -0.312231395047 -0.479916996172 0.624649371159 -0.461730378996
3.972800000000 0.696018953662 -0.384589856104 -0.314461749561 -0.488799777821 -0.311506063845 -0.479566410564 0.624160579966 -0.461310038545
3.973222222000 0.695797442191 -0.385184003848 -0.315481196877 -0.488859793534 -0.313073629157 -0.478034270882 0.621898488166 -0.463892713181
3.973644444000 0.696377697155 -0.386360508372 -0.316297308472 -0.488785643922 -0.313436991202 -0.478631621032 0.623413353943 -0.464647942057
3.974066666000 0.696563233076 -0.389542861865 -0.317538280358 -0.488349224730 -0.313704901400 -0.478126809432 0.623000796214 -0.463354290611
3.974488888000 0.696074560861 -0.389922764580 -0.317746595059 -0.487444305505 -0.314997366876 -0.478011761568 0.623074940513 -0.466996900863
3.974911111000 0.695670495546 -0.390518648645 -0.319380389376 -0.487566324490 -0.315233351172 -0.476846366008 0.622848719040 -0.467194668549
3.975333333000 0.695494463001 -0.392518781417 -0.320217574603 -0.486465953818 -0.316116999382 -0.476512922319 0.622266682203 -0.468715323518
3.975755555000 0.696378974727 -0.394253231814 -0.320843034448 -0.486262403938 -0.316808226478 -0.476346628364 0.622432544864 -0.469435359287
3.976177777000 0.696572629570 -0.395849927020 -0.322063470668 -0.486345358257 -0.317592659052 -0.476496090199 0.621348524850 -0.470604774473
3.976600000000 0.696252898664 -0.396536849111 -0.322297159749 -0.484994270622 -0.317919519059 -0.475060101546 0.622579909409 -0.471190381469
3.977022222000 0.695390067099 -0.399018169982 -0.324275816629 -0.485364261111 -0.318722769971 -0.474983154288 0.621715447689 -0.472376598775
3.977444444000 0.694991860634 -0.400902597538 -0.324973373439 -0.484747814225 -0.320263285385 -0.475054411987 0.621165432120 -0.473820677183
3.977866666000 0.694253683970 -0.401505199264 -0.325361866943 -0.484557600529 -0.320310604261 -0.473106904067 0.620920496849 -0.473621278194
3.978288888000 0.694564786638 -0.403243545493 -0.326117698442 -0.484256916543 -0.320956742195 -0.473259492432 0.621476877831 -0.475523372582
3.978711111000 0.695394470562 -0.402957899835 -0.327073350656 -0.484039866980 -0.321319766845 -0.472969777023 0.620370413483 -0.476865384822
3.979133333000 0.695539485334 -0.406661744569 -0.327593525279 -0.482672172596 -0.323000734321 -0.473884968080 0.618885825280 -0.478898343586
3.979555555000 0.694925360327 -0.407945878152 -0.328966639890 -0.482385037457 -0.323300935806 -0.472592607414 0.619884015581 -0.478919458617
3.979977777000 0.694179633055 -0.408557315947 -0.329521107346 -0.481670603089 -0.324218747374 -0.471705899661 0.620046790284 -0.480390658058
3.980400000000 0.694284515103 -0.410589091171 -0.331180732347 -0.481650421401 -0.324345525300 -0.471113507765 0.619328711925 -0.480607420767
3.980822222000 0.694797654551 -0.411569933405 -0.331379341808 -0.481393197844 -0.324555924688 -0.470892632814 0.619210732894 -0.480510247501
3.981244444000 0.695996542149 -0.413007669734 -0.332393135334 -0.480935415066 -0.326079174625 -0.470631498087 0.619489154469 -0.483752304610
3.981666666000 0.692878683937 -0.414613223968 -0.333278056398 -0.479405990872 -0.327020367845 -0.469090316166 0.618565880986 -0.483511631253
3.982088888000 0.693738329952 -0.418267739613 -0.334652160237 -0.479082127915 -0.327034481494 -0.469214232154 0.617515521578 -0.483966477944
3.982511111000 0.694110277512 -0.417849219402 -0.334896633901 -0.479174195245 -0.327570654031 -0.468098376740 0.618443435497 -0.485139739156
3.982933333000 0.695155861805 -0.420318117955 -0.336672442370 -0.478281463782 -0.328691504255 -0.468521081270 0.617463949300 -0.488707161258
3.983355555000 0.694652385121 -0.422534421570 -0.337345445777 -0.477982811278 -0.329704380446 -0.468269178521 0.616408107193 -0.488351063995
3.983777777000 0.692250353312 -0.423556925483 -0.338100112404 -0.476898671441 -0.329878197965 -0.466753222580 0.615893706242 -0.488991452095
3.984200000000 0.692092540048 -0.423353230700 -0.340308279057 -0.476461613711 -0.329755381460 -0.467102451799 0.616961144515 -0.491292452998
3.984622222000 0.694483130757 -0.427095078932 -0.339870233444 -0.476292678733 -0.331856288934 -0.466100547197 0.614862521859 -0.492103135654
3.985044444000 0.693418193573 -0.429060158042 -0.341180697800 -0.475574781525 -0.331887136357 -0.466078602329 0.616739597027 -0.493028856513
3.985466666000 0.694769061536 -0.430705103223 -0.342262263743 -0.475100894028 -0.332517729302 -0.465997927466 0.615651501486 -0.495016821974
3.985888888000 0.692863804709 -0.430440915964 -0.342806046760 -0.474834581998 -0.333126020843 -0.464122313716 0.616784261125 -0.495534225873
3.986311111000 0.693229996494 -0.433519681957 -0.344085595574 -0.473798082821 -0.333635598193 -0.464737528334 0.615819273350 -0.497588924614
3.986733333000 0.694904604058 -0.434784719841 -0.344761240339 -0.473811091421 -0.334443074600 -0.463311560819 0.612928135063 -0.497250913241
3.987155555000 0.693195883808 -0.435931284904 -0.345556702062 -0.473164867006 -0.335029221800 -0.463004750881 0.615661716432 -0.499981105003
3.987577777000 0.691248092700 -0.438140201500 -0.346693291114 -0.472227787100 -0.335400485595 -0.461717027233 0.614350154364 -0.499224602191
3.988000000000 0.690990006192 -0.440043643103 -0.347728887029 -0.471073767047 -0.336508389006 -0.461439814844 0.612928575093 -0.501605057696
3.988422222000 0.691921557493 -0.441742514906 -0.348780730864 -0.471339215832 -0.336963044939 -0.460500632739 0.613765298328 -0.502949056344
3.988844444000 0.692165183026 -0.442702122812 -0.349379149731 -0.470396519830 -0.337712262974 -0.460447786524 0.613557638970 -0.504674117935
3.989266666000 0.691051328249 -0.448236289401 -0.350335863368 -0.469860444630 -0.339693640392 -0.459276726957 0.611318981242 -0.505421412360
3.989688888000 0.690080155544 -0.447511397469 -0.351587770395 -0.468264182507 -0.339850930602 -0.459150574709 0.611838819232 -0.507364952748
3.990111111000 0.689199749409 -0.449589780833 -0.352402868668 -0.467687138894 -0.340696007727 -0.459344203735 0.613853527385 -0.509169572128
3.990533333000 0.690035748237 -0.451801476550 -0.353482581095 -0.467464643028 -0.340366961071 -0.458293476583 0.612314567979 -0.509772114944
3.990955555000 0.690224158077 -0.453716657485 -0.354770091990 -0.466339054400 -0.341186917988 -0.457412747586 0.611185767670 -0.509968524683
3.991377777000 0.689900348969 -0.456443447539 -0.355803163043 -0.465608203501 -0.342620442157 -0.457080346841 0.610643292226 -0.512181153705
3.991800000000 0.687315209449 -0.456050111391 -0.354034250565 -0.464871329823 -0.344634357821 -0.454928235518 0.612338163405 -0.511540948559
3.992222222000 0.686890305961 -0.459217109259 -0.356430965382 -0.464668236708 -0.344300829229 -0.455271138472 0.609670141859 -0.513109661065
3.992644444000 0.687373742937 -0.462228532155 -0.357587871637 -0.463722157584 -0.345146494650 -0.454871496629 0.609395466397 -0.515969349592
3.993066666000 0.688422411742 -0.462809284472 -0.358741093048 -0.462295742618 -0.345692467793 -0.454563784732 0.608609724302 -0.516779168674
3.993488888000 0.687645371247 -0.463801029048 -0.358539095864 -0.462828631581 -0.346210514485 -0.452697990304 0.608185197669 -0.517057022576
3.993911111000 0.686381323274 -0.465932298174 -0.359953815154 -0.461735398256 -0.346644098675 -0.453265687778 0.609428227689 -0.518886440003
3.994333333000 0.687033290188 -0.468990795127 -0.361529404830 -0.461215937780 -0.346410870060 -0.452536779916 0.609432204596 -0.521202299128
3.994755555000 0.686885020863 -0.469263014097 -0.361988560364 -0.460195998877 -0.347668257206 -0.452007487296 0.609023869463 -0.522916587148
3.995177777000 0.686660924138 -0.470280163462 -0.362885876996 -0.459919672061 -0.348459602345 -0.451191329699 0.607717746963 -0.522580207157
3.995600000000 0.685820201302 -0.473545128350 -0.364095152813 -0.458332946526 -0.348882068803 -0.450615529961 0.607151005445 -0.525878666262
3.996022222000 0.685373210304 -0.474824600153 -0.364455935823 -0.457953653883 -0.349472661736 -0.449477272267 0.605885144070 -0.525883467115
3.996444444000 0.684737015861 -0.476264848640 -0.365773891700 -0.456451849386 -0.349993836761 -0.449030323919 0.606242552094 -0.527394705088
3.996866666000 0.683918028790 -0.478774083329 -0.366010755036 -0.455590885357 -0.351897227257 -0.447160033260 0.603583629481 -0.529407754458
3.997288888000 0.681263413019 -0.480480905901 -0.366771252412 -0.454979066746 -0.351472660680 -0.447891031296 0.605913119501 -0.528307518909
3.997711111000 0.683239983263 -0.482097078085 -0.367893323870 -0.454029426565 -0.352698213263 -0.447309171815 0.604598255947 -0.531733494222
3.998133333000 0.682354527534 -0.485131989136 -0.368849380193 -0.453330354179 -0.353236129503 -0.446470346747 0.604327712570 -0.532470793927
3.998555555000 0.680202743901 -0.486057143516 -0.369458514290 -0.452435533721 -0.354604757966 -0.445406378163 0.604585215210 -0.533717679054
3.998977777000 0.678787490658 -0.488864538900 -0.370301913566 -0.450711426865 -0.355189859301 -0.444598239405 0.601919202150 -0.534983318649
3.999400000000 0.676336458274 -0.496069333192 -0.374025363682 -0.448347458772 -0.356525420172 -0.442374609090 0.601409489878 -0.533853825389
3.999822222000 0.678921645149 -0.495183284728 -0.371564755837 -0.449818374441 -0.356750594252 -0.443424031738 0.601688801973 -0.537495241667
4.000244444000 0.676327107983 -0.497810035445 -0.372632078203 -0.447955054789 -0.356968945910 -0.443076343526 0.601868360082 -0.536860588383
4.000666666000 0.676516135430 -0.496314196117 -0.373753361702 -0.447150396248 -0.357363043968 -0.441711927048 0.600507723872 -0.539055111118
4.001088888000 0.676157126473 -0.498580950277 -0.374452373522 -0.446242686142 -0.357410054395 -0.441174027043 0.600125065584 -0.540774819344
4.001511111000 0.675940246230 -0.500176095027 -0.375313489727 -0.445359354856 -0.357764282614 -0.440278901435 0.598808061178 -0.541421030345
4.001933333000 0.674823990922 -0.503702582765 -0.375954728379 -0.444996691782 -0.359582205714 -0.439023367921 0.599596297761 -0.544161815830
4.002355555000 0.674572883358 -0.506673247208 -0.376916827804 -0.444679388015 -0.360515277743 -0.438935845132 0.599940822757 -0.545693476259
4.002777777000 0.673181047241 -0.506334742666 -0.377600188899 -0.442126573174 -0.359725791189 -0.437512196128 0.598233090592 -0.545690312500
4.003200000000 0.672389053953 -0.509871525133 -0.378615486465 -0.441823755947 -0.361344974670 -0.437636085457 0.599221800624 -0.547516386335
4.003622222000 0.671316940091 -0.509977349607 -0.378636496702 -0.439628724270 -0.361749973716 -0.435353140353 0.594329294123 -0.549408340177
4.004044444000 0.671697804639 -0.515285553342 -0.379486231885 -0.439833985214 -0.363234281547 -0.435701489631 0.596097498549 -0.549204816259
4.004466666000 0.669595276817 -0.516367753167 -0.380861163911 -0.438506943767 -0.363208061123 -0.434919150400 0.597082680016 -0.550425894122
4.004888888000 0.669300687712 -0.518301316744 -0.382520805297 -0.437231470795 -0.364023452341 -0.433980717838 0.595717403157 -0.553206944423
4.005311111000 0.667930676863 -0.519577065210 -0.382703614622 -0.435894217159 -0.363787221755 -0.433647108788 0.595754656789 -0.554390653602
4.005733333000 0.667416504907 -0.522645768462 -0.383237095516 -0.435096609900 -0.365473196587 -0.432767416847 0.595689887939 -0.554172744645
4.006155555000 0.666259716471 -0.525928093969 -0.384609236424 -0.434232941663 -0.366651139932 -0.431575898897 0.594733797677 -0.556775088899
4.006577777000 0.665032226410 -0.526803180694 -0.384953626972 -0.433703515736 -0.366796976140 -0.431121558653 0.594983638472 -0.557894566055
4.007000000000 0.662535106538 -0.527808007089 -0.386001208982 -0.432874525889 -0.368931851602 -0.430206119569 0.595172690792 -0.565186667353
4.007422222000 0.663666157786 -0.529894040323 -0.385574490584 -0.430696138598 -0.368092960433 -0.428903324004 0.593372421916 -0.560898515314
4.007844444000 0.662071468057 -0.533910635118 -0.387140870087 -0.428364835763 -0.368232385136 -0.428427770746 0.590756175190 -0.560052950964
4.008266666000 0.661587177405 -0.534036831206 -0.385373584644 -0.430030001861 -0.368377516248 -0.426585225228 0.592973748766 -0.558573442623
4.008688888000 0.661324973017 -0.537591343750 -0.386700208144 -0.428544731939 -0.368597810117 -0.425333933029 0.591146239342 -0.560277617018
