# GHZ S RI R 50.000000000000
3.950000000000 -0.032803174909 0.009325742691 0.383134441004 0.906854363123 0.373266765803 0.907996874089 -0.036684277664 0.017182082612
3.950422222000 -0.033908813099 0.009213718285 0.380664831096 0.908075112487 0.374023302930 0.905614678323 -0.036289224099 0.017113541950
3.950844444000 -0.034806066562 0.009745826879 0.378344044199 0.910190392831 0.374670741623 0.906314737467 -0.036640495245 0.017607565567
3.951266666000 -0.034902137337 0.009639809253 0.379161693147 0.906960881661 0.376414451942 0.907601455458 -0.037042378512 0.017925454389
3.951688888000 -0.035523265768 0.010823979569 0.379474090173 0.909301101747 0.376992117354 0.906503749714 -0.036493272689 0.018069304361
3.952111111000 -0.036114174848 0.010766428753 0.379380369168 0.909361039339 0.375786883918 0.907040900672 -0.037336835081 0.018128144083
3.952533333000 -0.035520484571 0.009959486705 0.380756777879 0.908802898839 0.377917625296 0.904773602097 -0.036591759714 0.017426084622
3.952955555000 -0.036825174449 0.011214021924 0.380366650940 0.909905553563 0.378475867901 0.906472684069 -0.037627118331 0.018492057398
3.953377777000 -0.036260462913 0.010889778928 0.382193111899 0.906836207469 0.382536788096 0.905566145433 -0.036866513000 0.019039000214
3.953800000000 -0.034603516039 0.012314294176 0.383758548925 0.905086522019 0.381603949770 0.904123015078 -0.034878205460 0.017550134023
3.954222222000 -0.036631295180 0.012085709000 0.386078538527 0.907593532053 0.383573279563 0.904481595659 -0.035563079587 0.019324050176
3.954644444000 -0.036736268313 0.011778972559 0.386182937574 0.909815299495 0.384099523285 0.904353516016 -0.036156215297 0.019561658941
3.955066666000 -0.036740490093 0.011830319052 0.389529568976 0.908839679817 0.384184828427 0.905073413813 -0.035887781292 0.019097001478
3.955488888000 -0.036352768235 0.012757776775 0.387892652376 0.909235524391 0.387985876105 0.904627920646 -0.035222672016 0.019719725117
3.955911111000 -0.036847806298 0.012256854842 0.391805535957 0.907223892567 0.386696131973 0.903031887833 -0.035282474349 0.019020392604
3.956333333000 -0.037313631059 0.012744150957 0.391108498574 0.908828453688 0.389164671980 0.903557973861 -0.035471484836 0.020750522901
3.956755555000 -0.037004174545 0.013463937416 0.392154844275 0.909070645287 0.391750576630 0.904531775174 -0.035361981725 0.020978442278
3.957177777000 -0.036660387807 0.014639080865 0.393955435432 0.908160012241 0.391498694827 0.905528153492 -0.034914142346 0.020932583718
3.957600000000 -0.036500246164 0.014447328576 0.395311098245 0.907570186734 0.394540327217 0.905181234335 -0.034970746060 0.020745663153
3.958022222000 -0.036753441851 0.014537904969 0.396143636160 0.908180175714 0.394546124420 0.902855920153 -0.034089624151 0.020772823997
3.958444444000 -0.035976147581 0.013865449158 0.402907547998 0.904222129944 0.398086734480 0.903654985790 -0.034282468319 0.021485971733
3.958866666000 -0.035326180965 0.013565878114 0.404475958372 0.904568187793 0.398511961829 0.902754198719 -0.034616245968 0.021160217289
3.959288888000 -0.035755923812 0.015171815150 0.404722826197 0.907049391557 0.399772162684 0.902527851889 -0.032973282263 0.021449722302
3.959711111000 -0.036202243882 0.014980617568 0.406749163074 0.905496038094 0.399753249245 0.904078648813 -0.033611246296 0.022328328956
3.960133333000 -0.035521124792 0.015809781654 0.408522666767 0.904005069955 0.402772497835 0.903233988754 -0.032822286825 0.021990092309
3.960555555000 -0.035250376605 0.015772348525 0.411066990260 0.904863440437 0.403440271171 0.903395323577 -0.032836591521 0.021707021233
3.960977777000 -0.034972683145 0.015776959776 0.412772445789 0.903440909210 0.405185632937 0.902268557245 -0.032537373815 0.022639869991
3.961400000000 -0.036186301987 0.016581076987 0.413913266294 0.903560041083 0.404782441461 0.903572847713 -0.032001335885 0.022412158050
3.961822222000 -0.035272641436 0.016496169086 0.413913438434 0.902922189160 0.407633596845 0.902525994272 -0.031827022755 0.022687500041
3.962244444000 -0.035129213386 0.017132220234 0.418152441954 0.902207320075 0.409373397564 0.902355464312 -0.031113293185 0.022654846986
3.962666666000 -0.034598089159 0.017146603543 0.417073158823 0.902702258619 0.410713885030 0.902392285454 -0.031496319872 0.022099104395
3.963088888000 -0.035009309634 0.016883767928 0.419634734640 0.903764514217 0.412323751076 0.901771015917 -0.031637678370 0.022520840163
3.963511111000 -0.034959755270 0.017004022272 0.420185403568 0.902097648725 0.413557137966 0.900809491638 -0.031500455185 0.023084170032
3.963933333000 -0.034565255166 0.017590649497 0.422228359478 0.902124283892 0.415270022082 0.901783125418 -0.030198811541 0.023060333578
3.964355555000 -0.034226723043 0.018060587910 0.423323510207 0.902050835420 0.417077672869 0.901238234011 -0.030395249399 0.023467941710
3.964777777000 -0.033411863623 0.017786250530 0.425413352053 0.899833941819 0.417846491455 0.900866671820 -0.029577924716 0.021965688352
3.965200000000 -0.034028691543 0.018842285498 0.428155793736 0.901190922949 0.419738325371 0.900758893094 -0.029718764661 0.023147255870
3.965622222000 -0.033373858117 0.018816202336 0.427643760174 0.901645785230 0.421131228068 0.899091224639 -0.029146899808 0.022891423229
3.966044444000 -0.033473076540 0.018929420626 0.430570085929 0.901034009995 0.423593316987 0.900224861437 -0.029985598218 0.022737110672
3.966466666000 -0.033785284670 0.018407818383 0.432128881010 0.901319697221 0.423996748024 0.900493284914 -0.030219999394 0.023026691476
3.966888888000 -0.033618242912 0.019084781324 0.433293505953 0.899002195327 0.425068343777 0.898802462367 -0.029172635732 0.023247233565
3.967311111000 -0.033454613778 0.019711467728 0.435101925479 0.900399699310 0.426839439185 0.899577164811 -0.028563553432 0.023451311469
3.967733333000 -0.033317989455 0.020075687596 0.437214714332 0.899288511578 0.428214076436 0.898683390463 -0.028228881703 0.023652889855
3.968155555000 -0.033217844065 0.019886986074 0.438191427295 0.898454953650 0.429652091046 0.898179657779 -0.028913817166 0.023657357665
3.968577777000 -0.031987903578 0.020253806063 0.439559579180 0.898420470859 0.432657610664 0.897792815738 -0.027254292955 0.023087588489
3.969000000000 -0.030176682998 0.023532292641 0.446632953916 0.900238438670 0.428630375531 0.900269812365 -0.025488243714 0.023604385311
3.969422222000 -0.032020729487 0.021314174537 0.443913216198 0.897963121454 0.434919422927 0.897893016033 -0.026643557674 0.023457190307
3.969844444000 -0.031951252049 0.020798261953 0.445108227946 0.897864431631 0.437306193972 0.898135409907 -0.027268834898 0.023624687393
3.970266666000 -0.031163678635 0.021247874306 0.446583469799 0.896934496433 0.438628277760 0.898082814650 -0.026095076739 0.023712107744
3.970688888000 -0.031473814596 0.020885013102 0.447790082941 0.895734690719 0.440146585457 0.896058474420 -0.026721267522 0.023440179081
3.971111111000 -0.031117014071 0.021320766053 0.449780025606 0.895351791539 0.442328986584 0.895840594008 -0.025925509812 0.023089605463
3.971533333000 -0.030673385591 0.021908651968 0.450196159576 0.894752226411 0.442573601622 0.895778373121 -0.025474367111 0.023160576740
3.971955555000 -0.030679303074 0.021753496207 0.453941671064 0.895459019742 0.445910563398 0.895440539355 -0.025731148858 0.023530205612
3.972377777000 -0.029933091480 0.021521664664 0.455002582552 0.893908194862 0.447661191878 0.895614657436 -0.025198926000 0.023282868264
3.972800000000 -0.029974416751 0.021706785935 0.456767388651 0.892811648302 0.447504072048 0.895011215737 -0.024729165402 0.023135659124
3.973222222000 -0.030826941421 0.021970732907 0.457413459720 0.894078231636 0.449285045724 0.892711290934 -0.025525322750 0.023145171284
3.973644444000 -0.029466621954 0.022129942009 0.459731750975 0.892230665670 0.451260577746 0.893833340791 -0.024815363286 0.022889186338
3.974066666000 -0.029060655691 0.022848654553 0.463567264477 0.891808591876 0.451956088170 0.893471887238 -0.024104602534 0.022734964434
3.974488888000 -0.028664089475 0.022266890843 0.463678621780 0.891611323414 0.455355925190 0.894158969059 -0.024414431692 0.022111326693
3.974911111000 -0.029079251804 0.022668063348 0.465665078211 0.890237268101 0.455290639449 0.891744169307 -0.023488010844 0.022801215246
3.975333333000 -0.028001121609 0.022589319361 0.467418660086 0.889377206459 0.457676005501 0.892457183442 -0.023506788547 0.022063317668
3.975755555000 -0.027395963483 0.022258301349 0.468494329184 0.888458992696 0.459780361666 0.892594712141 -0.023270194962 0.022255642354
3.976177777000 -0.027784571793 0.022883142217 0.470856327771 0.888486754026 0.461106376418 0.891898422903 -0.023494597111 0.022000272423
3.976600000000 -0.026999075921 0.022520268723 0.470764322290 0.887598673997 0.462368142408 0.892521213283 -0.023090485110 0.022360261409
3.977022222000 -0.027183626007 0.022593589174 0.473650738154 0.886232728624 0.463848591345 0.890150510378 -0.023197816192 0.021557251488
3.977444444000 -0.026857287977 0.022309484255 0.475812914955 0.885546935305 0.467310884445 0.890176667896 -0.022704947921 0.022004218358
3.977866666000 -0.027036585459 0.022405396604 0.475832325338 0.884784253395 0.467918264481 0.887610485843 -0.022422666350 0.022811647008
3.978288888000 -0.026307730086 0.022200969713 0.478748488171 0.883219983343 0.470015381887 0.887846641376 -0.022250566738 0.021163026994
3.978711111000 -0.026026250401 0.023201024329 0.480574018232 0.884508357271 0.470483316931 0.886956490647 -0.021813916866 0.021331737795
3.979133333000 -0.025708911304 0.022333041120 0.482365206617 0.884328201671 0.474612428222 0.888825146003 -0.022975787638 0.020647291071
3.979555555000 -0.025383208364 0.022397140162 0.482911817858 0.882431238070 0.475209272845 0.887119350270 -0.021668517879 0.021178272813
3.979977777000 -0.024836429820 0.022692016948 0.485001176105 0.880704054522 0.477609716837 0.886225945978 -0.021719335294 0.021094574037
3.980400000000 -0.025193374152 0.022959215651 0.485926009834 0.880645391571 0.477782090378 0.885086729271 -0.021706476697 0.021163712128
3.980822222000 -0.024442410892 0.022977113446 0.488276252205 0.880425614159 0.478208620762 0.884817767854 -0.021117989195 0.021331820056
3.981244444000 -0.023837232854 0.022059455145 0.489306998309 0.878487599359 0.481626812459 0.885346273597 -0.020656003757 0.020026699697
3.981666666000 -0.024048633603 0.022254491275 0.490843385669 0.877653335408 0.483627812739 0.882546634490 -0.020792756133 0.021075378538
3.982088888000 -0.023773004451 0.022097533770 0.492749002794 0.877114768217 0.484861377676 0.882467030269 -0.021037477863 0.020452749648
3.982511111000 -0.023026348290 0.022883480313 0.494769869338 0.876838679124 0.485458819278 0.881343759315 -0.019896510386 0.020259612349
3.982933333000 -0.022582654972 0.021846781000 0.495705729304 0.874897277057 0.488295599899 0.882739783282 -0.020446737966 0.019702498320
3.983355555000 -0.022889891349 0.022244358970 0.497600670458 0.874559299663 0.489745331632 0.881799677308 -0.020846206398 0.019508306841
3.983777777000 -0.023027984669 0.022007103809 0.499571778545 0.873380199746 0.491263718653 0.878711335754 -0.020349255020 0.019034686981
3.984200000000 -0.022847622675 0.022498709396 0.499821875636 0.874942990777 0.489790030120 0.880024741534 -0.020227290839 0.019192232043
3.984622222000 -0.022123475844 0.021516949943 0.502903687314 0.871656631124 0.495005434821 0.878623868757 -0.020600432947 0.018836429241
3.985044444000 -0.021138444541 0.021985513989 0.505546813601 0.871715716720 0.495759952510 0.878862610250 -0.019528531151 0.018457355857
3.985466666000 -0.021257523942 0.021277467344 0.505190982030 0.869750910767 0.497334827790 0.878958407973 -0.020097134371 0.017497362768
3.985888888000 -0.021298110846 0.021477851218 0.505948928303 0.869341188004 0.498206750753 0.876105554863 -0.019684178143 0.018864936703
3.986311111000 -0.020616209970 0.021186323304 0.509711026164 0.869084366677 0.500329371261 0.877083724023 -0.019504437141 0.017028474420
3.986733333000 -0.020570318457 0.021600569116 0.510275824066 0.867315944827 0.501559350716 0.874690622653 -0.019740207644 0.018221235440
3.987155555000 -0.020120650492 0.021410945851 0.511181543639 0.867599944312 0.503178567727 0.874464839037 -0.019058638532 0.017186979993
3.987577777000 -0.020513574857 0.021109105322 0.513236783815 0.865329388226 0.504504709400 0.871841841407 -0.019391607669 0.017620566132
3.988000000000 -0.020317332906 0.020747690026 0.513861544752 0.864576546950 0.506996125039 0.871949739143 -0.019538448401 0.017104867345
3.988422222000 -0.019460803456 0.020722303009 0.516874665190 0.863612701290 0.507967699961 0.871350555815 -0.018655235049 0.016968056194
3.988844444000 -0.019383736912 0.020816137584 0.518010698342 0.863588098986 0.509585626892 0.871568084972 -0.018455233495 0.016846588255
3.989266666000 -0.019668863911 0.019965295398 0.520029577798 0.860762241531 0.513438078487 0.869196037542 -0.020311804744 0.016097921297
3.989688888000 -0.018999768444 0.020052654047 0.522162242985 0.860820721449 0.514157392622 0.869344467755 -0.019259781016 0.016389215041
3.990111111000 -0.018501297844 0.019213385868 0.522905961850 0.859742162068 0.516516193476 0.870065254004 -0.019127623302 0.015110701872
3.990533333000 -0.018785959922 0.020370690967 0.524419835191 0.860180358492 0.515640870046 0.868398771119 -0.018830704572 0.015481173733
3.990955555000 -0.018208783762 0.020044872654 0.527106935378 0.858147551098 0.517468337530 0.867330392214 -0.018969165917 0.015775905869
3.991377777000 -0.017942867202 0.019499393096 0.528034187967 0.856704021217 0.520281332384 0.867071465302 -0.019398226478 0.015614474700
3.991800000000 -0.018608904226 0.017939745275 0.526363185222 0.853680533702 0.523418243574 0.863642012249 -0.019474454887 0.016509305965
3.992222222000 -0.018456260367 0.018740072703 0.529894186581 0.854492032215 0.523850480020 0.862619173647 -0.019864571947 0.015603590561
3.992644444000 -0.018222937141 0.018439345043 0.531924531991 0.854454333172 0.526564265857 0.862569181866 -0.019584816580 0.014530826180
3.993066666000 -0.017675765211 0.018359688517 0.533787012986 0.852665923449 0.527213594637 0.862267899421 -0.019680943338 0.014923088203
3.993488888000 -0.017689757316 0.018513636448 0.534863904845 0.852062072939 0.528432662934 0.859397926219 -0.019148076394 0.015145510392
3.993911111000 -0.017341609478 0.018726617042 0.535976886445 0.851887887306 0.529231735548 0.861098874322 -0.019032638657 0.014797623974
3.994333333000 -0.016422863986 0.019038998125 0.538702226274 0.852289408516 0.529493708343 0.860678960293 -0.018299573251 0.014503425321
3.994755555000 -0.016894216446 0.017562537378 0.538663354486 0.849338319057 0.532477420656 0.860205138613 -0.018635407191 0.014380796343
3.995177777000 -0.017105738521 0.018223604237 0.540414227385 0.848323787628 0.532343696816 0.857801852985 -0.019397962475 0.014511677261
3.995600000000 -0.017020073688 0.017367245415 0.542185497771 0.847736482045 0.535624166195 0.857732282449 -0.018779303454 0.013899919873
3.996022222000 -0.016935141201 0.017492571138 0.543146768637 0.846327087508 0.535941398055 0.855673000657 -0.019178647455 0.013919709152
3.996444444000 -0.016291197142 0.017332203491 0.545172041539 0.844896943985 0.537495770356 0.855481690682 -0.018966029226 0.013988764127
3.996866666000 -0.016952040128 0.017080983969 0.546219244261 0.843748184870 0.540761192073 0.851762247983 -0.019451671258 0.014428280145
3.997288888000 -0.017172693628 0.016556816991 0.547117574170 0.842608521718 0.540784898425 0.851647266309 -0.019398311238 0.013370139149
3.997711111000 -0.016303863749 0.016411222838 0.549375422348 0.841560589714 0.542449131662 0.852271011262 -0.019384167363 0.012976416173
3.998133333000 -0.016696087248 0.016566734698 0.549972372524 0.840704015802 0.543795787674 0.850954767250 -0.019593680629 0.013204993106
3.998555555000 -0.016845322293 0.016207796083 0.551176155751 0.840007146131 0.545167238754 0.848707775940 -0.020047113318 0.013600467347
3.998977777000 -0.016820707063 0.015840362583 0.552684325819 0.837247609778 0.548506238836 0.847535363355 -0.020678506229 0.013079424805
3.999400000000 -0.016046600730 0.015980386211 0.556683641658 0.836890479967 0.550631589846 0.843683414541 -0.021052269769 0.015515414478
3.999822222000 -0.016483944369 0.014872425140 0.555226299178 0.836454571735 0.552606146401 0.846347935262 -0.020375355618 0.012335656546
4.000244444000 -0.015872616002 0.014806422906 0.556755466161 0.834265048153 0.554120603474 0.846646302099 -0.020260835375 0.012567535587
4.000666666000 -0.016560201239 0.015403345941 0.558639529982 0.833582556797 0.553465844943 0.842804045671 -0.020324667757 0.013048855899
4.001088888000 -0.016924568081 0.014926601668 0.559182422246 0.832080295146 0.553865867609 0.841837867238 -0.020554922386 0.012550170888
4.001511111000 -0.016249717068 0.014589927818 0.561045265281 0.831086248571 0.555680652858 0.841536244321 -0.019985054569 0.012588747638
4.001933333000 -0.016189297434 0.013750407145 0.562371477634 0.830646563303 0.559988261722 0.840609004235 -0.020230457956 0.012278180533
4.002355555000 -0.017288137057 0.013662023708 0.563823315464 0.830763544697 0.560661184736 0.839357773713 -0.020558134098 0.011498322053
4.002777777000 -0.015740895461 0.015257071958 0.565246205855 0.828317965908 0.558675458606 0.840341963550 -0.019830966863 0.013025920613
4.003200000000 -0.015754632966 0.013387218039 0.566885620857 0.827437226283 0.563120415637 0.838690444832 -0.020147052219 0.011509798293
4.003622222000 -0.016446473369 0.013524650509 0.566815063011 0.824299828401 0.563345189987 0.835765498215 -0.020750478876 0.012987206523
4.004044444000 -0.016741382496 0.013102199997 0.567481772122 0.825388220921 0.566495021838 0.834949602460 -0.021054521739 0.012230409600
4.004466666000 -0.016415685061 0.012487594751 0.570107452965 0.823615688731 0.568106307611 0.834410950664 -0.020556255297 0.012094283222
4.004888888000 -0.016832020750 0.012661017569 0.573122230044 0.822752078625 0.568691008980 0.832097293264 -0.021033898062 0.011739525290
4.005311111000 -0.016191801090 0.012723172872 0.573402416344 0.820975975261 0.569501055179 0.833612174207 -0.020830573790 0.011996132662
4.005733333000 -0.017486961250 0.013174324373 0.573345875837 0.820301847407 0.569678560797 0.831438320095 -0.021740799978 0.012265188188
4.006155555000 -0.016760345121 0.012733168952 0.576175846659 0.820087244877 0.573382853956 0.830272238247 -0.021657483402 0.012408671779
4.006577777000 -0.017059228725 0.012980212530 0.576256958237 0.819192197242 0.572881162117 0.829831099360 -0.021607026237 0.011889153835
4.007000000000 -0.017787131849 0.012022982476 0.578421586904 0.817981642699 0.576658882814 0.827823105859 -0.022824536311 0.010114812512
4.007422222000 -0.017242355286 0.012483035769 0.577087162276 0.816402358138 0.575038746066 0.827972720698 -0.021525755830 0.012402528580
4.007844444000 -0.017823120974 0.011878305857 0.580505634910 0.812373551252 0.576443576412 0.824692305589 -0.022147592263 0.012097081162
4.008266666000 -0.017031529918 0.012623166421 0.576705025020 0.816271686110 0.576553758072 0.824095327807 -0.020788777312 0.012458922463
4.008688888000 -0.016450084415 0.012506399323 0.579312765684 0.815284546444 0.578794815758 0.824044919457 -0.020603710163 0.012329890437
4.009111111000 -0.017043430539 0.012280929325 0.578509144166 0.814552301210 0.580733967065 0.821693960377 -0.021058967325 0.012449253298
4.009533333000 -0.017243815411 0.011456261917 0.579788810587 0.814107667544 0.581983964217 0.820748711450 -0.020622659480 0.011826392502
4.009955555000 -0.017116985044 0.011848447289 0.581285977320 0.811534444098 0.583003052002 0.819885448966 -0.021187312660 0.012404525533
4.010377777000 -0.017724966262 0.012151740621 0.583281132646 0.811104660160 0.584119945910 0.817402727270 -0.022550777777 0.012372966756
