# GHZ S RI R 50.000000000000
3.950000000000 -0.046206386494 0.010937689939 0.364235036078 0.928792107578 0.359475642943 0.923754748485 -0.029132244256 0.016875944186
3.950422222000 -0.047003714249 0.010684983032 0.364490221579 0.931257179136 0.359955443193 0.924607797176 -0.030667721117 0.017545397177
3.950844444000 -0.047362340459 0.010076577756 0.366404221397 0.927977080952 0.362314472411 0.922112616947 -0.030506538946 0.017098495866
3.951266666000 -0.048223081946 0.010010804705 0.360839781657 0.927594879946 0.363226729533 0.921488689933 -0.031734019631 0.017186237121
3.951688888000 -0.048003011250 0.011110274846 0.364858952403 0.926397913997 0.365329477208 0.921095763578 -0.029604006939 0.017951098592
3.952111111000 -0.048236090457 0.012138504409 0.365738771536 0.928082986311 0.363679311123 0.920341971611 -0.028982458131 0.018193159220
3.952533333000 -0.048606778874 0.012623072072 0.366797399146 0.928080047758 0.367134283230 0.923719959471 -0.030436880522 0.018835121085
3.952955555000 -0.047658422500 0.011504331174 0.368504961636 0.926631206356 0.368662802173 0.919149922454 -0.028963099113 0.017297322414
3.953377777000 -0.048276431448 0.012379322626 0.369123590022 0.925742901969 0.368185152808 0.921280551185 -0.029746585232 0.017719622393
3.953800000000 -0.047635818635 0.012498784181 0.370890098511 0.926820990898 0.369762868856 0.922507984032 -0.028508293558 0.017955437068
3.954222222000 -0.047369303965 0.012911225196 0.371993275197 0.926436161478 0.372236962540 0.919766935135 -0.028584922513 0.017795629186
3.954644444000 -0.049093041412 0.013873848414 0.374261641001 0.927958790865 0.372794672940 0.922420965538 -0.028981279679 0.019855738943
3.955066666000 -0.048352281903 0.014348274752 0.374497449689 0.924974041544 0.374531315119 0.921669723796 -0.027763231179 0.019119200113
3.955488888000 -0.047984778220 0.013971244164 0.377462327066 0.927728134048 0.374118729410 0.918945536199 -0.027113712912 0.019033468441
3.955911111000 -0.048330387769 0.013895816566 0.376721484918 0.924422653188 0.376132661993 0.918104022530 -0.028329561541 0.018518518871
3.956333333000 -0.049685734768 0.014845882862 0.379681865636 0.927184586917 0.375601331002 0.920020653562 -0.027769482115 0.019455586467
3.956755555000 -0.049002841363 0.014249086197 0.380876599135 0.927250701674 0.377518274249 0.919011731868 -0.027790028935 0.019507281428
3.957177777000 -0.048099079194 0.014735391262 0.383123932300 0.926380575544 0.378763710675 0.918829835289 -0.027190182379 0.019677649438
3.957600000000 -0.049070893992 0.014858252464 0.382705190729 0.923888812301 0.381428025733 0.918958601394 -0.026922473876 0.020014056850
3.958022222000 -0.047312613306 0.015697547912 0.387789561984 0.926392928845 0.382120133323 0.921113214844 -0.026513054844 0.019498480058
3.958444444000 -0.047452099865 0.015602328360 0.386119697309 0.924392014617 0.385798454623 0.918497037200 -0.025606225705 0.020119623121
3.958866666000 -0.048000856383 0.016876029607 0.389577360848 0.926290214565 0.385879985431 0.919022692870 -0.026120541436 0.020717400274
3.959288888000 -0.048199500716 0.016492304587 0.390220198559 0.923426417307 0.386713600000 0.918682958180 -0.025377440540 0.020604062017
3.959711111000 -0.047709183897 0.016579905998 0.390662346937 0.925065603372 0.389327375973 0.918508673587 -0.024834671657 0.021414866087
3.960133333000 -0.047923539687 0.017466112503 0.393553772044 0.925615120364 0.389618356552 0.919123780517 -0.024933154415 0.021603062626
3.960555555000 -0.048022770378 0.016411203873 0.393390177436 0.923844125005 0.391691224256 0.918042305204 -0.024959277091 0.020644889855
3.960977777000 -0.046568865828 0.017876545540 0.395358842361 0.923672292377 0.393608986089 0.918444393453 -0.023668991102 0.021370501792
3.961400000000 -0.047811207265 0.017307263101 0.395000985997 0.922862738165 0.394625273562 0.919391391805 -0.024793525259 0.020405479674
3.961822222000 -0.046324192755 0.018183812379 0.399135876957 0.924095510042 0.396348309380 0.918600225852 -0.023360404787 0.020791104316
3.962244444000 -0.047087691923 0.017223178658 0.400029258942 0.921599670436 0.395176600156 0.918361663662 -0.024305135781 0.020453909704
3.962666666000 -0.046262192915 0.018910835097 0.402911583983 0.924048145538 0.397889445315 0.918252011214 -0.023189247103 0.020823056654
3.963088888000 -0.045911643267 0.017977109197 0.404435865067 0.922000623673 0.401063661187 0.917020239288 -0.022658819585 0.020600102825
3.963511111000 -0.046349101487 0.018806080250 0.404505571439 0.922495368476 0.399999995260 0.917371411177 -0.022179015654 0.020557905214
3.963933333000 -0.045856069222 0.019295114050 0.407867256308 0.922779933334 0.404498297753 0.917936140872 -0.021838800867 0.021730768441
3.964355555000 -0.046033186851 0.019397352166 0.409339835908 0.921855485662 0.405187151609 0.916929843253 -0.022034308818 0.021411349816
3.964777777000 -0.046334999094 0.019506107818 0.408802914103 0.921352814487 0.406018644351 0.914745069797 -0.022071419245 0.021392825409
3.965200000000 -0.045578358359 0.020387779936 0.412125519251 0.921080811955 0.407663066822 0.916812938228 -0.021189506466 0.021927067161
3.965622222000 -0.046198690598 0.020550143213 0.412716290608 0.922565552449 0.408702481165 0.916015870902 -0.021078186063 0.022073021679
3.966044444000 -0.045057961523 0.020825261905 0.415609595324 0.921134773154 0.411655686125 0.917126750404 -0.020109291539 0.022520655095
3.966466666000 -0.045264256368 0.021064232762 0.416558999577 0.920230800050 0.412234620881 0.914389001271 -0.019393552078 0.022365081720
3.966888888000 -0.044363011604 0.021344046131 0.418470815369 0.919275053577 0.413670935017 0.916044309550 -0.019085237871 0.021602389572
3.967311111000 -0.044040431124 0.021155855930 0.420327083611 0.918881487162 0.415881760559 0.916081363725 -0.018804212184 0.021814357909
3.967733333000 -0.043750062851 0.021694493012 0.421457008099 0.919504718763 0.416944269098 0.915244211737 -0.018927917823 0.020946009482
3.968155555000 -0.044092156241 0.021437981571 0.422620536715 0.918821017261 0.418656805623 0.914780497692 -0.018377805819 0.021396143280
3.968577777000 -0.043869941024 0.021992597608 0.424781412254 0.918992898263 0.420160068245 0.915237866815 -0.019033926440 0.022101622410
3.969000000000 -0.043320419589 0.023912224040 0.430582253960 0.921158182066 0.420079723873 0.914788756692 -0.019871194967 0.022494889629
3.969422222000 -0.043231331643 0.021989658821 0.426808552625 0.918468968671 0.423166391186 0.913720865088 -0.018251941312 0.020826261982
3.969844444000 -0.042320449968 0.021520163487 0.428831201800 0.916518576997 0.425344065087 0.913845669612 -0.017865540506 0.021119003691
3.970266666000 -0.041928487920 0.021986551797 0.433239240596 0.915093504831 0.427139553038 0.912419142295 -0.016987275200 0.020869925994
3.970688888000 -0.041575942755 0.022883696794 0.434713897545 0.915447130093 0.428784706512 0.913278118074 -0.016393171979 0.021185244345
3.971111111000 -0.041159810785 0.022768827769 0.436238961114 0.915219547655 0.430002659338 0.911850897206 -0.015801140009 0.020372516692
3.971533333000 -0.041349155723 0.022580015581 0.435878393918 0.914916853184 0.432333314763 0.911816446174 -0.015845824280 0.019964658837
3.971955555000 -0.041331497084 0.023716168138 0.437416161823 0.914789619572 0.432174118495 0.911811763559 -0.015423915374 0.020871955941
3.972377777000 -0.040926012031 0.023596954051 0.439587257658 0.914718473656 0.434222346090 0.911877000175 -0.015026535897 0.020760230777
3.972800000000 -0.039837327720 0.023400749158 0.442711774744 0.913113138969 0.436075204162 0.911274629274 -0.014739786331 0.020429892097
3.973222222000 -0.039306850443 0.024097091299 0.444223399985 0.914035464292 0.437430153467 0.911000209784 -0.014049379463 0.020123068375
3.973644444000 -0.039601738124 0.022692355654 0.445371546428 0.911017291758 0.440459858934 0.910543037609 -0.014233920478 0.019819453829
3.974066666000 -0.038846734040 0.023588140231 0.448661882548 0.911771325932 0.441409302992 0.910584342368 -0.014385229976 0.019772984001
3.974488888000 -0.038826523898 0.024792988730 0.449518542533 0.912406180122 0.443101626115 0.910440601272 -0.013329843828 0.020580133471
3.974911111000 -0.038450780045 0.024791729908 0.451382637400 0.912459429197 0.444689785718 0.910976885234 -0.013137997858 0.020542066183
3.975333333000 -0.037888076618 0.023594513240 0.453752340010 0.908974478847 0.446747642907 0.909385278728 -0.013741173504 0.019610832937
3.975755555000 -0.038111912151 0.024272289835 0.453156618763 0.909170144577 0.446690819187 0.908436129722 -0.012654239227 0.018994985938
3.976177777000 -0.037102231339 0.023916367491 0.456076206040 0.908605892387 0.449290006840 0.907779219220 -0.012117880121 0.018734363253
3.976600000000 -0.037646879436 0.024667058709 0.456663425688 0.907235651602 0.450012487708 0.908302833908 -0.012077452050 0.021592547088
3.977022222000 -0.036456763636 0.024336481650 0.459962485252 0.907844356695 0.452979276383 0.908393929165 -0.012168116095 0.019342228048
3.977444444000 -0.035839813337 0.023752113315 0.462192601849 0.906131714260 0.456774094333 0.907270398371 -0.011391397373 0.018028680937
3.977866666000 -0.036784528900 0.024063898446 0.461597165834 0.905685007092 0.457187610678 0.904787095104 -0.012597203659 0.019253542736
3.978288888000 -0.035983504053 0.023983113189 0.463824552877 0.905708503660 0.458365659043 0.905273921904 -0.011841086661 0.018914858339
3.978711111000 -0.035339506698 0.023688770424 0.465212299652 0.904554688293 0.459745301014 0.904809280962 -0.011048613028 0.017637017121
3.979133333000 -0.035298551022 0.024449808625 0.468928295323 0.904069973153 0.462851983600 0.902578208685 -0.011659445743 0.018692551207
3.979555555000 -0.035483107976 0.024687116800 0.468831874612 0.904051895095 0.462597859640 0.903142788823 -0.010354501981 0.018919362434
3.979977777000 -0.034111821248 0.023812411947 0.472907823304 0.901722837293 0.466437374226 0.904494586608 -0.010886076434 0.018119469120
3.980400000000 -0.034015577334 0.023628123291 0.473010440178 0.902151248001 0.467244137916 0.903276534699 -0.010698002830 0.016716993018
3.980822222000 -0.033119443655 0.024170455934 0.474878707764 0.900270296618 0.467715126187 0.901844577078 -0.009729511321 0.018009249008
3.981244444000 -0.033736734371 0.023304044620 0.474946193035 0.899250526938 0.471266464247 0.900633599646 -0.010403813634 0.017975824836
3.981666666000 -0.032345558760 0.023416162754 0.477255753339 0.898638657412 0.471886455031 0.902052456129 -0.009073067863 0.017745624575
3.982088888000 -0.031732754021 0.024247635802 0.480787238902 0.898929489908 0.473242735286 0.901787103095 -0.008923240038 0.016597706996
3.982511111000 -0.031651337253 0.023148224410 0.482144295236 0.897322865675 0.475965297444 0.899280082716 -0.009256618826 0.015483590641
3.982933333000 -0.031458132379 0.023650685414 0.482081060841 0.896458966425 0.475806550029 0.899580899087 -0.008885690774 0.015686073634
3.983355555000 -0.031748535695 0.023092591951 0.484413247165 0.893700879718 0.478677281261 0.897342696580 -0.009176030650 0.016188061142
3.983777777000 -0.031181763974 0.024023562569 0.485890987752 0.896426698132 0.479799872025 0.896657085608 -0.008086086780 0.015740073658
3.984200000000 -0.030878668087 0.023967123022 0.489593602903 0.895595027369 0.483494829305 0.895964026686 -0.007571876328 0.015112182052
3.984622222000 -0.030447441226 0.022483061757 0.489706261179 0.892936979049 0.483744421243 0.895914827072 -0.008323179742 0.014960781887
3.985044444000 -0.030460770963 0.022004909817 0.490939009505 0.891242967744 0.485497428304 0.894971459014 -0.008635771273 0.014478539320
3.985466666000 -0.029991873061 0.022938139711 0.492970813243 0.891925175936 0.487812261472 0.893141051437 -0.008091390008 0.014703975285
3.985888888000 -0.029357666732 0.022961942546 0.494181139628 0.890780587273 0.487653201218 0.893400893912 -0.007793924009 0.014783792963
3.986311111000 -0.029516995281 0.021635067664 0.495581360490 0.889041346202 0.490783034726 0.893650824250 -0.008341746060 0.014137132900
3.986733333000 -0.028788513676 0.021984001435 0.497161927255 0.888363707080 0.491311467978 0.893224441020 -0.007889744667 0.014312293553
3.987155555000 -0.028739012012 0.022134762056 0.499046358025 0.887255112809 0.492613795225 0.890424599484 -0.007461153858 0.014757075976
3.987577777000 -0.027991598766 0.021528747415 0.499896001807 0.887688986617 0.496107020011 0.892726165590 -0.006966147989 0.012869043518
3.988000000000 -0.028513275669 0.022122446160 0.501945620473 0.886739178466 0.496806260010 0.889731712777 -0.007427171325 0.012743233215
3.988422222000 -0.028123914147 0.021386838690 0.503376063349 0.884467712536 0.497327521791 0.888602285983 -0.007121214002 0.012299172095
3.988844444000 -0.027198713538 0.021601158147 0.505246516326 0.885118216225 0.499431449921 0.890242465765 -0.006626461006 0.012669635084
3.989266666000 -0.027492356540 0.020469898128 0.507479884743 0.881428709461 0.502496894015 0.886479605440 -0.007840402515 0.012704821567
3.989688888000 -0.026922645818 0.020048796040 0.508945492362 0.881527731930 0.503462697290 0.887794093962 -0.007093287992 0.012005920070
3.990111111000 -0.027265456715 0.020741108503 0.510337451357 0.882705405843 0.506103753730 0.886536872775 -0.007437680768 0.011703404674
3.990533333000 -0.026669139969 0.020353520792 0.513547469347 0.879966883398 0.506988024376 0.884936309250 -0.007885500893 0.012015419837
3.990955555000 -0.026269777040 0.018995559325 0.512824073022 0.878523753502 0.509358934653 0.886228304735 -0.006938204178 0.011336932715
3.991377777000 -0.026047786645 0.019154889046 0.515593410584 0.877815491647 0.510992085767 0.884541742867 -0.007149029371 0.010526170121
3.991800000000 -0.026724711096 0.020009833152 0.516160391427 0.877235525048 0.513605903611 0.880965022275 -0.008053288442 0.013513885349
3.992222222000 -0.025498446500 0.018423711535 0.518407777457 0.875001584508 0.514405164933 0.882028284592 -0.006931955746 0.010489157735
3.992644444000 -0.025522684892 0.018741423712 0.520764950981 0.874411758870 0.515782993309 0.880098556165 -0.007661930486 0.011046952521
3.993066666000 -0.025286292079 0.018381295118 0.522173820822 0.873577387927 0.518495784758 0.880356119697 -0.007451505378 0.010386460733
3.993488888000 -0.025297225627 0.017914633007 0.523326966210 0.871271932226 0.518929519210 0.877893529435 -0.007635991606 0.010404517735
3.993911111000 -0.024139713622 0.018182950540 0.524062017497 0.872021524630 0.518596770109 0.879281801903 -0.006151895386 0.010655895926
3.994333333000 -0.025560308611 0.017131679414 0.527810025573 0.868717468866 0.524543728285 0.873774068218 -0.008995168622 0.009925349226
3.994755555000 -0.025256077280 0.017115507545 0.527111305656 0.869128742269 0.523809621689 0.874831906521 -0.007436260185 0.009772040376
3.995177777000 -0.025148502651 0.017263196010 0.528175113922 0.868864798317 0.525904474786 0.873184484123 -0.007571049804 0.010271919032
3.995600000000 -0.024186905436 0.016999167410 0.529810861058 0.868908105868 0.526983147653 0.875431218029 -0.006301826518 0.009307870720
3.996022222000 -0.023907382989 0.016953084704 0.532400152198 0.867418579035 0.526653981286 0.873853815900 -0.006797265936 0.008836070088
3.996444444000 -0.023897567440 0.016202628448 0.533567582583 0.864927326299 0.528663110578 0.873413768063 -0.007257233772 0.008712702029
3.996866666000 -0.023081702598 0.016289214216 0.534474488411 0.864486278525 0.529759955908 0.873139507599 -0.006797588649 0.009690573011
3.997288888000 -0.024011799102 0.015870751511 0.537152908367 0.864183785127 0.532804748351 0.870216865041 -0.007048418235 0.009225608710
3.997711111000 -0.023588217552 0.015458847387 0.536642328765 0.861988307740 0.533581051583 0.868882822904 -0.006827723879 0.008939783316
3.998133333000 -0.023929614549 0.015294332858 0.538712689280 0.860822604364 0.536432204303 0.867505249239 -0.007482272509 0.009075450010
3.998555555000 -0.022065731991 0.014774918423 0.542692348015 0.861137807943 0.537366921665 0.870379973311 -0.006786074664 0.007596415691
3.998977777000 -0.023782808058 0.013841800940 0.540722869254 0.858346203629 0.541045475936 0.865534128539 -0.007766739164 0.008822241187
3.999400000000 -0.023380159011 0.013362233592 0.541549537360 0.856469996374 0.540042734471 0.863648710671 -0.007633317251 0.009164996913
3.999822222000 -0.023288140061 0.013403664611 0.543873839393 0.856748538507 0.542593349679 0.864450017301 -0.007380979227 0.008299028383
4.000244444000 -0.023018974013 0.014558174439 0.544776360050 0.856506649761 0.542847569436 0.864502660872 -0.007337333289 0.008232592233
4.000666666000 -0.022860835515 0.013676064389 0.547464318904 0.855829160626 0.545672143998 0.861998548046 -0.007404799012 0.008541874412
4.001088888000 -0.022416053612 0.013958144763 0.548971690914 0.852700882829 0.545046575027 0.861606768936 -0.007398294807 0.008997779957
4.001511111000 -0.023959160630 0.013213654208 0.551231406728 0.851640215123 0.546979128868 0.857184222350 -0.008983280017 0.008068978205
4.001933333000 -0.022943731727 0.012892882489 0.550916302716 0.848849499043 0.547678791973 0.859916004390 -0.008606542193 0.008335394582
4.002355555000 -0.022703326257 0.012475946819 0.553036157174 0.850420648161 0.549425067427 0.860109146690 -0.007301101091 0.007072458790
4.002777777000 -0.023709066117 0.011266204293 0.553258763996 0.850177118001 0.552243229174 0.855656279431 -0.007169774681 0.006923024043
4.003200000000 -0.024165416328 0.012143759439 0.555232092703 0.847769707150 0.551710419017 0.854504378394 -0.008366785770 0.007765963597
4.003622222000 -0.022463891504 0.011917878934 0.556865358046 0.847356860749 0.555956589346 0.856080896589 -0.008011144516 0.007860032594
4.004044444000 -0.023575682147 0.011138665520 0.559413693697 0.845887690138 0.555806458342 0.853640249591 -0.008113748948 0.006693991833
4.004466666000 -0.022794837869 0.011690256341 0.557501989412 0.843576033184 0.556538221438 0.853774801493 -0.008075467514 0.007929884058
4.004888888000 -0.023322905516 0.011669646940 0.560579701423 0.844238961833 0.556074420153 0.850866857158 -0.007980921227 0.008141904632
4.005311111000 -0.023270442244 0.011584642735 0.562386934193 0.842696372883 0.558006741623 0.850405533030 -0.007895898714 0.008083236094
4.005733333000 -0.024360735051 0.010178371086 0.562440488816 0.840433319665 0.561523868409 0.848903844896 -0.008980436487 0.006969943168
4.006155555000 -0.023483254065 0.011113584018 0.564209043886 0.839585532357 0.561945339623 0.847867936829 -0.008691926944 0.008212140244
4.006577777000 -0.024570165323 0.009932314480 0.565039418290 0.839441595122 0.564608479668 0.845911119462 -0.009222314102 0.007456629062
4.007000000000 -0.022959920528 0.006849931893 0.561525627361 0.844503640526 0.572391918935 0.848019877338 -0.005485518372 0.007691692467
4.007422222000 -0.023301764491 0.009426335132 0.568262141638 0.838048053961 0.568396411095 0.845916539294 -0.008853458704 0.007281463869
4.007844444000 -0.024655048089 0.009009327676 0.568716542075 0.836844428933 0.569474399211 0.843451189960 -0.009372726994 0.007002577765
4.008266666000 -0.024790645629 0.009219056698 0.568538834559 0.834699269417 0.568979783545 0.842165191369 -0.008544699460 0.007444038833
4.008688888000 -0.022966921296 0.007992145724 0.570892895468 0.832925215330 0.572295843749 0.843991413506 -0.007938695433 0.007376078523
4.009111111000 -0.024329843426 0.008733929640 0.571919602926 0.835339934755 0.572544173427 0.841574417312 -0.008163271665 0.007442931748
4.009533333000 -0.024285074843 0.008611438154 0.572564315687 0.831247570586 0.572197605495 0.838955973144 -0.008341884867 0.008470301983
4.009955555000 -0.024585721626 0.008788259447 0.575231600181 0.830230819969 0.574889237989 0.838583010381 -0.009698393351 0.008198357233
4.010377777000 -0.024516602410 0.008066914463 0.576225145898 0.828719762079 0.577570483832 0.835510225184 -0.009873490754 0.008017925327
