# GHZ S RI R 50.000000000000
3.950000000000 -0.042705500537 0.011236795514 0.365802680371 0.930250731804 0.364359004156 0.925589241219 -0.028110908953 0.020787356374
3.950422222000 -0.043956560564 0.010374582851 0.361624855042 0.929680842484 0.364345395854 0.924470235477 -0.030164673601 0.020498215522
3.950844444000 -0.044291074197 0.010104659204 0.366416815273 0.927858679290 0.365588093576 0.923782597191 -0.030269368076 0.020617870515
3.951266666000 -0.044572635631 0.009889373044 0.364305517201 0.928432114241 0.365625879203 0.922089768501 -0.030369592833 0.020478102118
3.951688888000 -0.045017340720 0.012251620148 0.368038254756 0.930991460027 0.366762763205 0.925135950514 -0.029503235186 0.022571932969
3.952111111000 -0.045406489681 0.011808767875 0.363703702361 0.928178207205 0.364923266235 0.920311117106 -0.029241584205 0.021123557225
3.952533333000 -0.044804447643 0.012326409170 0.371185616311 0.928463104761 0.368453765128 0.923033176304 -0.028704583430 0.021447736532
3.952955555000 -0.044670292266 0.012557399574 0.371648484712 0.930201904903 0.369793509799 0.923343599300 -0.029097028148 0.021645355905
3.953377777000 -0.044356414026 0.012392695015 0.374448416497 0.926486146363 0.369821263991 0.921641237090 -0.027990720487 0.020790227630
3.953800000000 -0.042751744609 0.012624332032 0.374935671907 0.924083966121 0.377155426523 0.923097145870 -0.026218142227 0.021741731835
3.954222222000 -0.043635519866 0.013607946996 0.375391179969 0.927724528350 0.375404764442 0.922104245660 -0.027636262185 0.021772240731
3.954644444000 -0.045639122826 0.013073008006 0.375393882587 0.926956932861 0.374078196048 0.920376705364 -0.027769177300 0.021966519430
3.955066666000 -0.045109082579 0.014788592775 0.376786152540 0.927966592483 0.375581308804 0.922579589888 -0.026967893311 0.022713741829
3.955488888000 -0.044283578227 0.014665607971 0.379793928447 0.927310814401 0.378474663023 0.922200357999 -0.026718802624 0.023218092592
3.955911111000 -0.044658667618 0.014749729836 0.380607352617 0.926691558980 0.378425547272 0.920655370968 -0.027487042443 0.022736260450
3.956333333000 -0.044484672637 0.015317554880 0.384277262638 0.927073838340 0.383546534759 0.920313202975 -0.025047524557 0.024226954980
3.956755555000 -0.045527204788 0.014784022100 0.382703862780 0.927440037576 0.380637580192 0.921460223916 -0.027460759044 0.023405469161
3.957177777000 -0.044872333306 0.015039599369 0.383339348658 0.926714866524 0.381318493703 0.920070136275 -0.026840142198 0.023208856919
3.957600000000 -0.045060294466 0.015944152872 0.388315969752 0.927159215830 0.384248764903 0.921401281188 -0.025305859582 0.024400878664
3.958022222000 -0.044019228287 0.015686920719 0.387734634098 0.926618692053 0.385053749690 0.921459177561 -0.025895760451 0.023146683798
3.958444444000 -0.044302570606 0.016474044286 0.389586550795 0.926869823461 0.385935881174 0.921582096745 -0.025330269205 0.023437255985
3.958866666000 -0.044287374836 0.018049969543 0.393112827704 0.928959047445 0.388881065128 0.922245092967 -0.025317054739 0.025113872319
3.959288888000 -0.044434728448 0.017050021465 0.392074632724 0.926069698605 0.389468225668 0.918914844286 -0.023901465890 0.024570175828
3.959711111000 -0.044136585914 0.016798668694 0.393249007721 0.925130372158 0.391496143286 0.919646158963 -0.023860383107 0.024395613647
3.960133333000 -0.044575540703 0.017817340922 0.395080889945 0.926487934761 0.391675518442 0.920211971913 -0.024092089706 0.024873081092
3.960555555000 -0.044234444317 0.017058513347 0.397076464258 0.924543543833 0.394666653133 0.920724714241 -0.024005791475 0.024328725639
3.960977777000 -0.043302938362 0.018315311109 0.398744045534 0.924808538307 0.394391983538 0.919952796647 -0.022758615425 0.024149951305
3.961400000000 -0.043476024073 0.018700100254 0.401466859095 0.926942661555 0.396948421898 0.921996474046 -0.023010499308 0.024508506961
3.961822222000 -0.042645530040 0.018630538269 0.401814857346 0.924491112019 0.399203029905 0.919929295918 -0.022316550719 0.024124561385
3.962244444000 -0.043251191042 0.018204286851 0.402609033312 0.923230765487 0.399473892570 0.920921355090 -0.023300193173 0.024831157622
3.962666666000 -0.042937846871 0.019219811747 0.404681472907 0.924169543107 0.399815095557 0.919765364035 -0.022469989355 0.024139922934
3.963088888000 -0.042561124384 0.018661487213 0.405971274077 0.924049895868 0.403102602643 0.918512310161 -0.021910630943 0.024179867704
3.963511111000 -0.042222246328 0.019931109236 0.408188012218 0.924190403491 0.403837349504 0.920106112859 -0.021129369166 0.024409729157
3.963933333000 -0.042660707978 0.019443053293 0.408688130121 0.922862502310 0.406374752545 0.918421082678 -0.021078054605 0.024579253901
3.964355555000 -0.042647774155 0.020025899032 0.410997725259 0.923701926464 0.407286690956 0.918090210985 -0.021002731223 0.024624302271
3.964777777000 -0.041622972925 0.020102871804 0.414940273653 0.920989348199 0.409791839707 0.916701750881 -0.020348821177 0.024474595227
3.965200000000 -0.041709535268 0.021236936706 0.415777587552 0.922459409538 0.410973195193 0.918462066399 -0.019803383230 0.025221679958
3.965622222000 -0.041957758352 0.021284536791 0.416326587895 0.923019637436 0.413248316358 0.917542036078 -0.019709339749 0.025908794055
3.966044444000 -0.041652681458 0.021023220251 0.417411658880 0.921516928588 0.413426684987 0.917673566546 -0.018897368425 0.025217959482
3.966466666000 -0.041722555653 0.021465110702 0.418726121117 0.920499673909 0.414540026087 0.915445641237 -0.018353569446 0.025286957258
3.966888888000 -0.040606248879 0.022248510999 0.421623202963 0.921084154672 0.416198765995 0.917572666834 -0.017805481684 0.024920296937
3.967311111000 -0.040364117937 0.021720903495 0.423062467287 0.919140167063 0.418497652892 0.917090200296 -0.017548321222 0.024774056868
3.967733333000 -0.040072684212 0.022247778109 0.423591437213 0.920312531692 0.419961849047 0.916396007993 -0.017718307727 0.024354280701
3.968155555000 -0.040327674957 0.022286231936 0.426174796252 0.920355582374 0.421074186791 0.916657795183 -0.017254436271 0.024620113788
3.968577777000 -0.040065231638 0.022933082989 0.427673819445 0.920465226619 0.423191477647 0.916439006985 -0.017575855709 0.025475301174
3.969000000000 -0.040191613430 0.024317748631 0.431647549688 0.922769537853 0.421754239077 0.914725738781 -0.018273953154 0.025555010092
3.969422222000 -0.038586381837 0.022822462971 0.432348554000 0.918469349411 0.427096066674 0.915551234428 -0.016650218323 0.023838423207
3.969844444000 -0.038079150998 0.023015002435 0.435032562232 0.919024099367 0.428015081979 0.915679445646 -0.015941986772 0.024017297047
3.970266666000 -0.038699626125 0.023130317285 0.435491129494 0.917474112942 0.428158710856 0.914360037425 -0.015920732323 0.023940767491
3.970688888000 -0.037898118424 0.023896088591 0.437613559414 0.917491942441 0.430982455405 0.914898735951 -0.015086866656 0.024466176477
3.971111111000 -0.037513877663 0.024139693220 0.438905132086 0.918336350989 0.432322469103 0.913863650705 -0.014802484888 0.024024425477
3.971533333000 -0.037204075254 0.024250538608 0.440391923309 0.918093978566 0.435193570924 0.914664830538 -0.014507139510 0.023617974808
3.971955555000 -0.037076779094 0.024791652623 0.442125327119 0.915491187692 0.435476999549 0.914001609252 -0.013895331675 0.023988663494
3.972377777000 -0.036907087754 0.024320227428 0.442960551703 0.915150910835 0.436980219859 0.913611155457 -0.013794218441 0.023660956906
3.972800000000 -0.036227122037 0.024382449465 0.445919936752 0.914881434309 0.437773560163 0.912948131767 -0.013255165890 0.023180081432
3.973222222000 -0.035207100444 0.024507471765 0.447413212317 0.913638347851 0.440177249750 0.912311093713 -0.012780292924 0.023002001265
3.973644444000 -0.036019274982 0.024105026868 0.448045067856 0.914152395374 0.442785338039 0.912471249652 -0.013070370896 0.023187582756
3.974066666000 -0.035404732441 0.024613082232 0.450607277719 0.913636139261 0.443516821465 0.912163901164 -0.013262125096 0.022849343798
3.974488888000 -0.035003604183 0.025423002651 0.452354831007 0.912656339027 0.445599334251 0.911857084319 -0.012149190010 0.023394317621
3.974911111000 -0.034489885167 0.025338649596 0.454702494906 0.912723246498 0.447244199315 0.912231283636 -0.011601732836 0.023207765910
3.975333333000 -0.034348022155 0.024487055646 0.455866654524 0.910707786987 0.449211634338 0.910557440733 -0.012319710073 0.022477587378
3.975755555000 -0.034009227878 0.025690940653 0.457561561438 0.911725542149 0.449819438664 0.909939634379 -0.010799404045 0.022263152652
3.976177777000 -0.033086571277 0.024807423287 0.459375667655 0.909408548328 0.451768809323 0.909600890467 -0.010924243783 0.021656969633
3.976600000000 -0.033460143329 0.026689690418 0.461871574246 0.910821779399 0.452285683689 0.910568560024 -0.010305500469 0.024263041975
3.977022222000 -0.032327988037 0.025342354771 0.463701868222 0.908657699525 0.456135184595 0.909916373840 -0.010406970883 0.022273120166
3.977444444000 -0.031961951020 0.025050562359 0.465762161958 0.908312109793 0.459216026582 0.909039458394 -0.009714089211 0.020928643896
3.977866666000 -0.032105026064 0.024930407970 0.466841039127 0.905338961378 0.460503893387 0.906528798219 -0.011033481264 0.021871783802
3.978288888000 -0.031572063307 0.024996854653 0.468440068760 0.906425298301 0.461685580071 0.906633328889 -0.010047254473 0.021675744298
3.978711111000 -0.030910822304 0.025239067588 0.469745221245 0.906169264177 0.462887435163 0.907207808159 -0.009515501208 0.020636863754
3.979133333000 -0.031621618111 0.025234872392 0.471491627482 0.904976869623 0.465503224533 0.904007939688 -0.010029966831 0.021599860400
3.979555555000 -0.030928891438 0.025025983897 0.472738200975 0.902617043611 0.465805148990 0.904246613188 -0.009051206590 0.021264172259
3.979977777000 -0.030341982807 0.024627708645 0.475515548295 0.902836310173 0.469055587086 0.905765276769 -0.009435623590 0.020949899180
3.980400000000 -0.029773453601 0.024277014818 0.476955578282 0.901623401429 0.470117772714 0.904371334806 -0.008967762134 0.019002467276
3.980822222000 -0.029321351293 0.025195022619 0.477960319637 0.901685915811 0.470624908245 0.903166533845 -0.007970114877 0.020592935005
3.981244444000 -0.029061061310 0.024719636575 0.480428787904 0.900611833752 0.474531183974 0.902297776462 -0.008500378290 0.020350461760
3.981666666000 -0.028443545853 0.025391440319 0.481230026890 0.901964022208 0.474976778935 0.904178740271 -0.007134174732 0.020826495432
3.982088888000 -0.028038531483 0.024953455840 0.483196171284 0.899259099363 0.475746405287 0.903348694731 -0.007472589917 0.019167586471
3.982511111000 -0.028148073553 0.024363656425 0.484392160312 0.898984644295 0.478672416203 0.901198365692 -0.007746618989 0.018599375964
3.982933333000 -0.027149421408 0.025235648359 0.486716101133 0.898225485506 0.478511040260 0.901516808606 -0.007137406077 0.018204808168
3.983355555000 -0.027794709175 0.024636095059 0.488094619064 0.895994345726 0.481728312965 0.898827478232 -0.007213685410 0.018742430253
3.983777777000 -0.026880279954 0.024811898140 0.489748488841 0.896007931920 0.482657387529 0.897944685195 -0.006510796372 0.018411445637
3.984200000000 -0.027729863638 0.024947613901 0.490825829891 0.897214447677 0.486118374566 0.897442119283 -0.005547185428 0.017971086980
3.984622222000 -0.026384920140 0.024050747987 0.493776078647 0.894873340177 0.486890110550 0.897522682001 -0.006501428190 0.017623943175
3.985044444000 -0.026223136949 0.023412701126 0.495361218505 0.892434980330 0.488117293622 0.896655502396 -0.006908990361 0.016681739365
3.985466666000 -0.025941294708 0.023370362600 0.495991952892 0.891525016989 0.490449994251 0.894491358818 -0.006629260384 0.017151674730
3.985888888000 -0.025221694763 0.023965642812 0.497783759987 0.890930095278 0.490275474939 0.894970768872 -0.006266281431 0.017066577535
3.986311111000 -0.025268153769 0.023123644215 0.499827824478 0.890685635466 0.493905200278 0.895116071753 -0.006498069070 0.016535183028
3.986733333000 -0.024357991139 0.023587835545 0.502226388500 0.889918796555 0.494492892182 0.894438400632 -0.005928128963 0.016315599239
3.987155555000 -0.024617106611 0.023709951140 0.503131787399 0.889100729322 0.495664731503 0.891785325327 -0.005329138935 0.017081148809
3.987577777000 -0.023520937424 0.022971437930 0.504534656108 0.888696320327 0.498899086306 0.894188877724 -0.004913984189 0.015112164824
3.988000000000 -0.024060716916 0.023093320760 0.505841429070 0.886918320729 0.499638284273 0.891053055637 -0.005851534638 0.014892825037
3.988422222000 -0.024303051356 0.022415746489 0.506329493102 0.885298025882 0.500409877854 0.889904929251 -0.005396222674 0.014687867120
3.988844444000 -0.022749828842 0.023003216194 0.509808329452 0.886158997666 0.502441912190 0.891259269645 -0.004728273427 0.014820839056
3.989266666000 -0.023320510516 0.021983714657 0.511404706684 0.882909736738 0.505918544987 0.887776162381 -0.005777036862 0.014783933435
3.989688888000 -0.022844570920 0.021388409645 0.512301768538 0.882337244020 0.506253805651 0.889592122771 -0.005248689677 0.014417974541
3.990111111000 -0.022889085980 0.021459126491 0.513299728124 0.882204364986 0.509184898037 0.887753122117 -0.005785018824 0.013892251105
3.990533333000 -0.022586611382 0.021409214435 0.516566177248 0.880847817934 0.510321947469 0.886424428856 -0.006011765995 0.014347174998
3.990955555000 -0.021637119335 0.020478552445 0.517150930084 0.879361830656 0.512929594167 0.887244504487 -0.005025620055 0.013252160010
3.991377777000 -0.021980836032 0.020480282623 0.519109886822 0.879003469492 0.514111065182 0.885556870605 -0.005255574583 0.012519365070
3.991800000000 -0.021734049948 0.021476143036 0.521669377663 0.877042855106 0.515819021912 0.881990287426 -0.006407072835 0.015234882880
3.992222222000 -0.021665513945 0.019974339396 0.521810704367 0.876879316596 0.517372090380 0.883274508798 -0.004941576171 0.012844012482
3.992644444000 -0.021448820363 0.019950614703 0.524155119405 0.875222192400 0.518676309341 0.881455252561 -0.005863310168 0.013374667309
3.993066666000 -0.021157285280 0.019895793979 0.525723713682 0.874696147026 0.521105242813 0.881614326965 -0.005631286868 0.012666712622
3.993488888000 -0.021581984421 0.019399734863 0.526610603822 0.873031014626 0.521972532748 0.879067797937 -0.005679790263 0.012613263030
3.993911111000 -0.020463350555 0.019607555158 0.527289507641 0.873536456968 0.521549247523 0.880278937293 -0.004313641900 0.012643163897
3.994333333000 -0.021471190210 0.018108846832 0.530673603443 0.868938435866 0.527076597041 0.875177020363 -0.007300638707 0.011942134573
3.994755555000 -0.021072282399 0.018560654592 0.530628547142 0.870233527503 0.526848645377 0.876804616770 -0.005408503583 0.011765871328
3.995177777000 -0.020680402737 0.018467862325 0.531746283718 0.868978039117 0.528217892922 0.875119624035 -0.005775534743 0.012136720588
3.995600000000 -0.020092846362 0.018662408120 0.533405707243 0.870201790142 0.529023142241 0.876344353722 -0.004446342739 0.011275300320
3.996022222000 -0.019816011764 0.018156368239 0.535714081893 0.868185637333 0.529711168440 0.875947920229 -0.004763147957 0.010904232761
3.996444444000 -0.019786395994 0.017783954384 0.537255757478 0.866183383147 0.531604952990 0.875032367114 -0.005158241557 0.010796846628
3.996866666000 -0.019255526486 0.017708981976 0.537627853413 0.866064310498 0.533445171146 0.874411312074 -0.004578256190 0.011682612157
3.997288888000 -0.019956123975 0.016866431681 0.540164671807 0.864821105289 0.535929545969 0.871260166958 -0.005276953341 0.011036726212
3.997711111000 -0.019691679341 0.017274838043 0.540326701015 0.863505298018 0.536024156980 0.869981770574 -0.004756327058 0.010885423736
3.998133333000 -0.019947694151 0.016458672101 0.541640230788 0.861256953467 0.538636106580 0.868907713812 -0.005739357308 0.011059103031
3.998555555000 -0.018279234738 0.016485038772 0.546384193040 0.862463970381 0.539258229046 0.871515333573 -0.004802924679 0.009574803294
3.998977777000 -0.019870864912 0.015459384550 0.544355463372 0.859592069549 0.543265720973 0.867613511185 -0.005819379042 0.010834915118
3.999400000000 -0.018122292247 0.015789999911 0.547120503755 0.857263450364 0.543061698082 0.866627268566 -0.005283879091 0.010774860613
3.999822222000 -0.019315736346 0.015128428381 0.547700980881 0.858266899874 0.545588772628 0.865448094392 -0.005315138515 0.010213363728
4.000244444000 -0.019418607663 0.015574687605 0.548032145911 0.857512964163 0.545622004145 0.865328334888 -0.005441564825 0.010129439155
4.000666666000 -0.018752501258 0.014993748697 0.550725414623 0.856801564477 0.548920098847 0.863329518364 -0.005405982734 0.010366794380
4.001088888000 -0.018927959486 0.015389063647 0.551978658516 0.853767160399 0.546864564462 0.863161833297 -0.005489621007 0.010994237076
4.001511111000 -0.019942058228 0.014494042049 0.554585814392 0.852937421087 0.550745266743 0.858685498366 -0.006762101847 0.009967993554
4.001933333000 -0.019098958306 0.014741986716 0.554840303266 0.850304775878 0.550020660683 0.861406023233 -0.006391561418 0.010252322004
4.002355555000 -0.019246985712 0.014278205502 0.556519798696 0.851642729052 0.550526076550 0.861379270708 -0.005227522894 0.008887628335
4.002777777000 -0.019500017706 0.013667345201 0.557004244491 0.851674257588 0.554859332496 0.858976265938 -0.004886592703 0.008736139811
4.003200000000 -0.020058879424 0.013184616093 0.558518180616 0.848610104529 0.555430954988 0.855315482008 -0.006221009802 0.009308899596
4.003622222000 -0.018750219641 0.013448727707 0.560247369550 0.848573941775 0.558111150090 0.856826967703 -0.005786492600 0.009542914446
4.004044444000 -0.019711168507 0.012822497628 0.562989274047 0.847224909907 0.558556529180 0.855457157213 -0.005851645074 0.008414569553
4.004466666000 -0.019054535631 0.013069627748 0.561208285468 0.844613260734 0.558192941526 0.854261651668 -0.006007926157 0.009532280061
4.004888888000 -0.019059829231 0.013216044481 0.564068688108 0.845245784297 0.559881422277 0.852701611023 -0.005840644512 0.009661670996
4.005311111000 -0.019408962146 0.012747631155 0.566042590110 0.843658999328 0.561223796046 0.850849071562 -0.005849968240 0.009733920766
4.005733333000 -0.020460495387 0.012136989752 0.566162170141 0.841467144781 0.563518724321 0.849540382772 -0.006804027347 0.008514334065
4.006155555000 -0.019680894467 0.012535750631 0.567671610540 0.840844155084 0.564081830623 0.849471793427 -0.006464190278 0.009974546416
4.006577777000 -0.020374107063 0.011794957596 0.568738556294 0.840498014573 0.567889687447 0.847984035650 -0.006948877946 0.009081757627
4.007000000000 -0.016524957823 0.010553557194 0.565223244286 0.845495347583 0.575941029540 0.855594267558 -0.003177605468 0.009181446186
4.007422222000 -0.020067514296 0.011228544823 0.571801425814 0.839042092674 0.570086125153 0.846858327053 -0.006589927284 0.008842579340
4.007844444000 -0.020241554380 0.011341081768 0.572199054437 0.837783501779 0.572125823548 0.846787030996 -0.007119985592 0.008498813716
4.008266666000 -0.021226479879 0.010459040973 0.572279544968 0.835875037159 0.571811074389 0.841748399898 -0.006241563277 0.008942464947
4.008688888000 -0.019662592457 0.010177762123 0.573987911054 0.833722308248 0.573649089396 0.846278677255 -0.005800138848 0.008948096902
4.009111111000 -0.020422182256 0.009987692934 0.575471202942 0.836484205088 0.576861798657 0.841611118632 -0.005870141174 0.008887724962
4.009533333000 -0.020270623056 0.010336732097 0.576270185532 0.832255372449 0.575151790664 0.840957427287 -0.006111287522 0.009746057808
4.009955555000 -0.020465495033 0.010654898671 0.578396671033 0.831350086797 0.576723185488 0.840062012020 -0.007433579241 0.009719422425
4.010377777000 -0.021586387692 0.009854989571 0.579977970942 0.829862608888 0.578605613119 0.835572608695 -0.007461581621 0.009507394407
