# GHZ S RI R 50.000000000000
3.950000000000 0.366801387825 -0.471762978109 -0.201667250807 -0.380904307617 -0.211292370976 -0.368792119391 0.750119633798 -0.406340232290
3.950422222000 0.365546569906 -0.470719610687 -0.201602428148 -0.379181944579 -0.210209893830 -0.367879255902 0.746413519916 -0.411044698013
3.950844444000 0.365912277525 -0.471265615019 -0.202315821133 -0.378405090337 -0.210603789261 -0.365580203648 0.741056045158 -0.416412406258
3.951266666000 0.364549821236 -0.472202262252 -0.203145613627 -0.376599695226 -0.211014375159 -0.365612494228 0.739711840115 -0.419325846702
3.951688888000 0.364088457444 -0.471773315314 -0.203667755612 -0.376151358815 -0.209934623224 -0.364018827960 0.737644875542 -0.421410811035
3.952111111000 0.362803426237 -0.472864964926 -0.205350930830 -0.374545659432 -0.211314288730 -0.363404127567 0.737821844364 -0.425136581567
3.952533333000 0.362277079423 -0.473175967572 -0.205141210795 -0.374024153575 -0.211382872736 -0.362938418368 0.736545855725 -0.427295020359
3.952955555000 0.364355661563 -0.474836460089 -0.205472483145 -0.374696899896 -0.211905367730 -0.362877975147 0.735400946475 -0.428116211524
3.953377777000 0.363103838455 -0.472383488202 -0.204551892125 -0.373405614236 -0.210950747559 -0.361663997052 0.734363004632 -0.429971129226
3.953800000000 0.363103410840 -0.473112067140 -0.204148306942 -0.371644658569 -0.211882046836 -0.359616790856 0.730915791179 -0.433754328786
3.954222222000 0.364886183166 -0.475736938803 -0.206610453285 -0.372394192833 -0.212718669562 -0.360540139588 0.731543724285 -0.435405803766
3.954644444000 0.362394654237 -0.476013825365 -0.207241693940 -0.372224342725 -0.212866020223 -0.360373130636 0.732754718739 -0.436471866854
3.955066666000 0.361239465815 -0.475239117720 -0.206511935617 -0.371129451491 -0.212267026603 -0.359522560350 0.732929727914 -0.436401717900
3.955488888000 0.363659758516 -0.477551362849 -0.206817631849 -0.371737020820 -0.211859625929 -0.358901007676 0.729176059764 -0.436200150215
3.955911111000 0.362601792921 -0.478994036771 -0.208330276683 -0.370955087561 -0.212515451343 -0.358315843062 0.729317773768 -0.438733401310
3.956333333000 0.364291380456 -0.479213252060 -0.208247906977 -0.373250348945 -0.212640401584 -0.358986242963 0.731234240600 -0.437908313562
3.956755555000 0.363939476254 -0.479106287078 -0.207397161729 -0.371905813146 -0.211874746614 -0.357640013205 0.727864404338 -0.439955315660
3.957177777000 0.362387052701 -0.482092387993 -0.209443228561 -0.369868488241 -0.213751236620 -0.357319574617 0.727945607541 -0.441845711823
3.957600000000 0.361706491489 -0.482357700340 -0.209182567621 -0.370443781304 -0.213545380455 -0.357000566332 0.728731221748 -0.441624817389
3.958022222000 0.364678485214 -0.481554891312 -0.208266227968 -0.370238365092 -0.212196906927 -0.356355122243 0.725739156415 -0.443549156861
3.958444444000 0.363347826890 -0.481698229992 -0.208640471785 -0.370061931931 -0.212688853147 -0.356594450502 0.727602841064 -0.444755977229
3.958866666000 0.362589254242 -0.483275560726 -0.210196548704 -0.369057152872 -0.213691701171 -0.355234976121 0.725620946888 -0.447615130361
3.959288888000 0.362997692394 -0.483121233293 -0.209938035780 -0.369619579230 -0.213456374464 -0.355546611363 0.726394163086 -0.447329096237
3.959711111000 0.362709580673 -0.484841896920 -0.210188451382 -0.368801332266 -0.214777776459 -0.355008560062 0.726356076396 -0.448878740798
3.960133333000 0.361843829840 -0.484853964737 -0.210240766512 -0.368675904999 -0.213827300602 -0.354258378868 0.726075379235 -0.449484523601
3.960555555000 0.363511440204 -0.487904691763 -0.210886637229 -0.369558609363 -0.214399790147 -0.354760879831 0.725694371218 -0.449433994840
3.960977777000 0.362711391621 -0.488052061547 -0.212031824616 -0.367946308688 -0.214639067629 -0.354250732209 0.725604647483 -0.451956190504
3.961400000000 0.363262073296 -0.488311081245 -0.212022349620 -0.367966129806 -0.215561818258 -0.354023229947 0.725653434509 -0.455576285667
3.961822222000 0.363449288707 -0.488811235685 -0.211444579925 -0.367440332203 -0.214884060600 -0.352356513498 0.723031491781 -0.455019020194
3.962244444000 0.364258510415 -0.492241539424 -0.213022757920 -0.368104786756 -0.214611602328 -0.353678190059 0.723372884182 -0.453895280668
3.962666666000 0.364495106542 -0.491338267631 -0.212350952804 -0.367490637709 -0.214582292314 -0.351777366613 0.721218306868 -0.456506826223
3.963088888000 0.364018403676 -0.493171417942 -0.213318005223 -0.367176378593 -0.215105784217 -0.352334604302 0.721881413491 -0.457871695695
3.963511111000 0.363574833317 -0.492379658823 -0.212967601022 -0.365873474424 -0.215622634081 -0.351637975600 0.721589439515 -0.459716651172
3.963933333000 0.363552940356 -0.493947845353 -0.213128208645 -0.366314744559 -0.215431336071 -0.351303543859 0.720866634778 -0.459556792375
3.964355555000 0.364053100669 -0.495125192701 -0.214233599879 -0.366670780758 -0.216253071156 -0.351093737302 0.720776679547 -0.462039666491
3.964777777000 0.362648514991 -0.497231016857 -0.215450445767 -0.366035595158 -0.216531826212 -0.350316583708 0.720920042851 -0.462262163330
3.965200000000 0.363775124928 -0.496617122687 -0.214862775022 -0.366086547906 -0.215692188571 -0.350231638660 0.720158159588 -0.463400291924
3.965622222000 0.363200386973 -0.498800011828 -0.215589856165 -0.365814463699 -0.216593794346 -0.349770822021 0.719998615765 -0.463989107612
3.966044444000 0.363234967755 -0.499519161663 -0.216273901089 -0.364791958481 -0.217435561794 -0.349260912303 0.719879974277 -0.467226621467
3.966466666000 0.362531631401 -0.496741931212 -0.215418534734 -0.363957053400 -0.216947402485 -0.348078325087 0.719222489787 -0.469130935139
3.966888888000 0.362440312621 -0.499730932797 -0.216864126397 -0.363314451233 -0.217385911155 -0.348566224315 0.719871637071 -0.470276899148
3.967311111000 0.362885603783 -0.500782440533 -0.216889503119 -0.363033128143 -0.217829742993 -0.347994948287 0.719082765460 -0.471811634412
3.967733333000 0.365035987759 -0.501364505068 -0.216440537535 -0.363809553237 -0.217329006932 -0.347519741324 0.717408081458 -0.472502882320
3.968155555000 0.363476776977 -0.504042648125 -0.217725051654 -0.363633378874 -0.217615278839 -0.347733734911 0.718806040027 -0.472659215011
3.968577777000 0.362406549396 -0.503836844676 -0.217810625328 -0.362234633886 -0.218412421371 -0.347126847550 0.717395627936 -0.474840585789
3.969000000000 0.359494369091 -0.504897675624 -0.220407534746 -0.360254324968 -0.219445101461 -0.346293710456 0.717683636158 -0.477773529768
3.969422222000 0.364193068812 -0.505735295628 -0.217982083265 -0.361668608564 -0.218161342207 -0.346359006679 0.715508005456 -0.477209897117
3.969844444000 0.363987465649 -0.506320262956 -0.218586217425 -0.361221144698 -0.217822006256 -0.347036803183 0.716270564592 -0.479229423238
3.970266666000 0.363152562855 -0.507440355170 -0.219181068823 -0.360893531024 -0.218702210607 -0.345720644288 0.715990029083 -0.479688235049
3.970688888000 0.363310669849 -0.509359849025 -0.220716735863 -0.360863508798 -0.219149852589 -0.345719576860 0.716895343786 -0.481333586982
3.971111111000 0.363624501826 -0.510042227635 -0.220680270998 -0.360178143057 -0.219117311588 -0.345248549936 0.715513844083 -0.482466461169
3.971533333000 0.364047602867 -0.510454893547 -0.219839106240 -0.359759926747 -0.219250795747 -0.344083659199 0.714331365733 -0.484479006726
3.971955555000 0.362875517617 -0.511862635619 -0.221070638850 -0.358650275655 -0.219263951676 -0.344318471549 0.714216711488 -0.484257697386
3.972377777000 0.364711929119 -0.513060905196 -0.221598199987 -0.359364698547 -0.219678220672 -0.344433599054 0.713732892635 -0.486433939364
3.972800000000 0.364200137915 -0.514752135100 -0.222491748147 -0.358279845573 -0.219649674895 -0.343792242652 0.712948503868 -0.487474948087
3.973222222000 0.365048712042 -0.514686355499 -0.223011373194 -0.357735093318 -0.219482536913 -0.343317302084 0.712197678267 -0.490207203688
3.973644444000 0.364006065177 -0.516447790294 -0.223027417211 -0.357469750245 -0.220358799956 -0.343259597403 0.712660738779 -0.491195488932
3.974066666000 0.364335688744 -0.516498660783 -0.223323089062 -0.357654943057 -0.220190784352 -0.342749815562 0.712888570853 -0.492815452869
3.974488888000 0.365216625171 -0.517694162537 -0.223964751859 -0.357403525425 -0.220365372316 -0.342599196469 0.711836725915 -0.493226877027
3.974911111000 0.365109861819 -0.519880908944 -0.224819148065 -0.356585017617 -0.220976734800 -0.342599995824 0.711349991465 -0.494948695982
3.975333333000 0.363574856447 -0.520388613348 -0.224105812451 -0.355632154437 -0.220535532613 -0.341612500430 0.710648757676 -0.495215223293
3.975755555000 0.365624629074 -0.521068844164 -0.225405815110 -0.356097303886 -0.220494844603 -0.341522323548 0.710416920796 -0.497577573072
3.976177777000 0.365355590355 -0.523107556305 -0.225971600353 -0.355105871249 -0.221145817579 -0.341184415458 0.709313422494 -0.498541323409
3.976600000000 0.361585727234 -0.523967811482 -0.227349441560 -0.353056529423 -0.221772616652 -0.341049924094 0.709975902539 -0.498484803496
3.977022222000 0.364830429800 -0.524450404807 -0.226874945181 -0.354299497950 -0.221735532920 -0.340688172422 0.709422562678 -0.502511720173
3.977444444000 0.364691923301 -0.525969626030 -0.227123811436 -0.353311429887 -0.221994931904 -0.340055150370 0.708230997821 -0.504926481863
3.977866666000 0.363011790977 -0.526685145634 -0.227490879326 -0.353424883742 -0.222282839414 -0.339374659415 0.707848125689 -0.504413643013
3.978288888000 0.363184442364 -0.529290433092 -0.228365462240 -0.352416221331 -0.222685692700 -0.339122742849 0.706795383780 -0.505065779785
3.978711111000 0.364740859101 -0.528985156310 -0.229005863292 -0.352340324900 -0.222460691105 -0.338829669578 0.707539000911 -0.508644731026
3.979133333000 0.362988551405 -0.531110208232 -0.228980382302 -0.352514047041 -0.223120607161 -0.337822195508 0.705498372112 -0.507381639180
3.979555555000 0.364074208632 -0.530070112193 -0.229115624562 -0.351458620355 -0.222823306554 -0.337416438675 0.705606538497 -0.509903992065
3.979977777000 0.362851571955 -0.534427255304 -0.230663305389 -0.350083176145 -0.223813737080 -0.337749608177 0.704429143400 -0.511440286828
3.980400000000 0.363780109808 -0.533210474184 -0.230193295485 -0.349997128049 -0.223619076966 -0.337289667804 0.704901617437 -0.514420778772
3.980822222000 0.362857975553 -0.533302577184 -0.230796558129 -0.349135019140 -0.223154916021 -0.336004049786 0.705421309511 -0.514085148394
3.981244444000 0.363576210870 -0.536570088574 -0.231740947008 -0.349599960190 -0.224111461214 -0.335769608206 0.702842725181 -0.516910863100
3.981666666000 0.365234647594 -0.535285958879 -0.231226157273 -0.348760352113 -0.224010152572 -0.335828456097 0.703165956253 -0.518532115081
3.982088888000 0.363428873545 -0.537492519860 -0.232255819716 -0.347906941379 -0.224149562809 -0.335548936227 0.704645298090 -0.518685029775
3.982511111000 0.362460594298 -0.539949756132 -0.232907237957 -0.347321469726 -0.224235286328 -0.335140605279 0.702737349899 -0.520182315135
3.982933333000 0.363774460415 -0.540078576139 -0.233298132242 -0.347144579247 -0.224163088945 -0.335177107554 0.702814126172 -0.521431541081
3.983355555000 0.361839817667 -0.540636848175 -0.233562176133 -0.346292479053 -0.224770864592 -0.333988617077 0.701807911512 -0.522976079393
3.983777777000 0.362984556395 -0.541979808619 -0.234019279407 -0.346333767139 -0.224724652617 -0.333460563571 0.701119558235 -0.524214455643
3.984200000000 0.361612757496 -0.546431197064 -0.235312106797 -0.344752813651 -0.225544863614 -0.333181966626 0.697657406747 -0.524252814183
3.984622222000 0.361990397537 -0.545353183780 -0.234511666083 -0.344982197712 -0.225402981192 -0.332898498569 0.700698733579 -0.526305418265
3.985044444000 0.362682911563 -0.546049652919 -0.235445500952 -0.344692543185 -0.225491313235 -0.332771066132 0.699036617313 -0.530008492067
3.985466666000 0.361941014760 -0.548036789396 -0.235979528145 -0.344100379797 -0.225787817210 -0.331552373097 0.698126660258 -0.530104201744
3.985888888000 0.362576975594 -0.549225586284 -0.236659477977 -0.343822268918 -0.225649332525 -0.331762234202 0.697703933602 -0.529960942768
3.986311111000 0.361939193625 -0.550718099371 -0.237132261118 -0.342704905948 -0.226591197757 -0.331394743541 0.697811060688 -0.532593641333
3.986733333000 0.361750574200 -0.551115145680 -0.237311381559 -0.342046438376 -0.226465442588 -0.331110348153 0.698392264681 -0.533656648433
3.987155555000 0.361784184707 -0.552021435439 -0.237711213632 -0.342252506471 -0.226430052267 -0.329815900303 0.696596540879 -0.534726590303
3.987577777000 0.362047608847 -0.553151392254 -0.237637753376 -0.341024326645 -0.227159565512 -0.330656527479 0.698321565821 -0.538434131671
3.988000000000 0.361219307031 -0.554551890630 -0.238154195548 -0.340427507238 -0.227095169440 -0.329761274513 0.695768819500 -0.538688485014
3.988422222000 0.360628676084 -0.555497751129 -0.238954587790 -0.339691573257 -0.226840335085 -0.329115773340 0.695491337295 -0.540050489594
3.988844444000 0.361987498984 -0.556722111783 -0.239428421449 -0.339279095408 -0.227299429420 -0.329166216961 0.696465582538 -0.542172962298
3.989266666000 0.357462025665 -0.559599011670 -0.240441848726 -0.338120094305 -0.227887979254 -0.328259681003 0.694070191980 -0.542549836972
3.989688888000 0.361024128378 -0.560326781322 -0.240702978359 -0.338110006403 -0.227875165504 -0.328445294005 0.693433059141 -0.545621840923
3.990111111000 0.358945245334 -0.561857604821 -0.241276407725 -0.337309815280 -0.228840967759 -0.327840795519 0.694529500625 -0.546368550145
3.990533333000 0.358476055589 -0.564161670119 -0.242202973638 -0.336733647273 -0.228782613859 -0.327077802605 0.691900180226 -0.547391385415
3.990955555000 0.359095544024 -0.564875202216 -0.242020297679 -0.335962844692 -0.228941930983 -0.327372760289 0.692484054297 -0.550090164900
3.991377777000 0.358973900157 -0.565375823926 -0.242270890708 -0.335604801322 -0.229216332084 -0.326797698401 0.692515936526 -0.552006001364
3.991800000000 0.357569316043 -0.566394794975 -0.243067045593 -0.334946903487 -0.230196819895 -0.324955371421 0.688498366776 -0.554272142135
3.992222222000 0.357803556804 -0.569066957146 -0.243355999719 -0.334115635521 -0.229608771384 -0.325587607266 0.689957572022 -0.553850143454
3.992644444000 0.357591375476 -0.569792374101 -0.244417529791 -0.333499596236 -0.229981254945 -0.324802091619 0.688568400065 -0.557247357835
3.993066666000 0.357003327958 -0.571045042777 -0.244457952896 -0.332870993209 -0.230538190371 -0.324563360188 0.689372959607 -0.559232293282
3.993488888000 0.357321231812 -0.571832313085 -0.244683781334 -0.332268823027 -0.230450235693 -0.323727049951 0.686380736486 -0.560035690049
3.993911111000 0.358278020495 -0.572512830201 -0.244919270977 -0.331724788824 -0.230083940485 -0.323794470607 0.689262573089 -0.560360019238
3.994333333000 0.354425583606 -0.576262248812 -0.245734641509 -0.330927297528 -0.231929770038 -0.322524320039 0.684494084617 -0.563200139305
3.994755555000 0.355632965971 -0.575639536823 -0.245880231026 -0.330330025140 -0.231401527764 -0.322517864009 0.686041934944 -0.563833659098
3.995177777000 0.355285628816 -0.576780753600 -0.246452809279 -0.329421816821 -0.231600970947 -0.321825683796 0.684731349892 -0.565026974667
3.995600000000 0.356604552176 -0.577464970050 -0.246603128040 -0.329177306694 -0.231674045307 -0.322041497891 0.686990501743 -0.567777987173
3.996022222000 0.356381193994 -0.579834313890 -0.247196985341 -0.328495351913 -0.231539770239 -0.321640244314 0.685617646790 -0.568457557915
3.996444444000 0.355033321763 -0.580914833750 -0.247657057777 -0.327204895237 -0.232148840603 -0.321319163668 0.686499150683 -0.571347534707
3.996866666000 0.354291659382 -0.581773191882 -0.247866774725 -0.326346832638 -0.232308355388 -0.320850663346 0.685902717208 -0.570678131419
3.997288888000 0.354113284525 -0.584056737134 -0.248745592223 -0.326185254460 -0.232731067384 -0.319627089114 0.682735917088 -0.574910040033
3.997711111000 0.353252464435 -0.584346792986 -0.248589085337 -0.325024811256 -0.232773691598 -0.319325684875 0.683069684288 -0.573857627735
3.998133333000 0.352473545968 -0.586083539874 -0.249110093497 -0.324267360649 -0.233535720792 -0.318830575417 0.681528570479 -0.576362590587
3.998555555000 0.353513157003 -0.588491910589 -0.250483933568 -0.323736525063 -0.233392326934 -0.319321492294 0.683511167205 -0.579886375159
3.998977777000 0.351024103178 -0.589564905836 -0.249828032449 -0.322833580151 -0.234530216552 -0.317600778186 0.680426305485 -0.580349116749
3.999400000000 0.350117854963 -0.590636780225 -0.250475337545 -0.321633581412 -0.233986588578 -0.317318792327 0.681300521325 -0.578343040565
3.999822222000 0.350722054640 -0.592834883354 -0.250811822996 -0.321486233295 -0.234597686514 -0.317220741334 0.680697464926 -0.581701509868
4.000244444000 0.350803751984 -0.593548411914 -0.250760769706 -0.321350386266 -0.234682004511 -0.316313213305 0.678367869950 -0.584306308268
4.000666666000 0.350005172720 -0.595693362542 -0.251726083494 -0.320445770639 -0.235354816889 -0.315685763488 0.677924322285 -0.584434900148
4.001088888000 0.349395793424 -0.595512117439 -0.252235590628 -0.318341477184 -0.234995706050 -0.315349053153 0.676444813240 -0.586679749864
4.001511111000 0.346818732669 -0.597902696834 -0.253249449652 -0.318426063657 -0.235584094637 -0.314355364764 0.675691613265 -0.587400505767
4.001933333000 0.347799025483 -0.597526325727 -0.252873429888 -0.316554705603 -0.235342363623 -0.314625859182 0.675159514978 -0.590520846475
4.002355555000 0.348510879445 -0.599664816153 -0.253297748790 -0.316535327887 -0.235591820693 -0.314366362558 0.676480472674 -0.593620377518
4.002777777000 0.346830250992 -0.601459735934 -0.253280591388 -0.316280710454 -0.236712248407 -0.313514085989 0.678430829313 -0.594623604735
4.003200000000 0.345067784696 -0.602021477131 -0.253951766878 -0.314996290341 -0.236606008605 -0.312549279646 0.675452174683 -0.595820039520
4.003622222000 0.346019841935 -0.604458626487 -0.253968059162 -0.314288429416 -0.237274559258 -0.312091523671 0.672824386717 -0.597488859898
4.004044444000 0.345723752337 -0.606344338958 -0.254991146766 -0.313442154060 -0.237019340893 -0.311942434710 0.672263595707 -0.599926171986
4.004466666000 0.345055782432 -0.606201790488 -0.254282916823 -0.312165412448 -0.236820754807 -0.311058913943 0.669792333711 -0.598259963851
4.004888888000 0.344083226899 -0.606781181822 -0.255274909293 -0.311697560556 -0.237138200937 -0.310181107293 0.670863656887 -0.602125813708
4.005311111000 0.342539681711 -0.608867625131 -0.255970326218 -0.310598265638 -0.237635007081 -0.309761697231 0.670720473704 -0.602607931302
4.005733333000 0.341573409785 -0.610871973793 -0.255729969304 -0.309913365353 -0.238467651667 -0.309555355660 0.669429032898 -0.605263147244
4.006155555000 0.340924139873 -0.611791690933 -0.256431959956 -0.308663715027 -0.238707322151 -0.308757013112 0.669569627408 -0.605288673469
4.006577777000 0.340705756549 -0.614436372955 -0.256473540276 -0.308580860710 -0.239331222556 -0.308259473381 0.667032585206 -0.606915070418
4.007000000000 0.345193046752 -0.616692146301 -0.253960566348 -0.309350431346 -0.240646766194 -0.308467120650 0.670320181419 -0.610275048850
4.007422222000 0.340156546464 -0.617479111288 -0.257323765264 -0.306838013894 -0.239693233433 -0.307236823869 0.665538711170 -0.611642671832
4.007844444000 0.339163933697 -0.619735951045 -0.257588302501 -0.306204001841 -0.240253320722 -0.307235334037 0.665507071425 -0.610703041522
4.008266666000 0.337125944548 -0.618810171182 -0.256968183468 -0.304907074876 -0.240449603426 -0.305614184972 0.665223834142 -0.614744729519
4.008688888000 0.338282209396 -0.621259674170 -0.257375126516 -0.303150891273 -0.240818606312 -0.305982908923 0.665242552919 -0.616243905364
