# GHZ S RI R 50.000000000000
3.950000000000 0.211807823227 -0.197486933864 0.691886115425 0.634285097754 0.684960812100 0.632877120636 0.155260181865 -0.224734674096
3.950422222000 0.210737828497 -0.197639555334 0.691441970285 0.634285377957 0.686022644030 0.631170892866 0.153557978515 -0.225580966157
3.950844444000 0.208803376864 -0.196347810992 0.688871690583 0.635957589686 0.686406446370 0.629013813136 0.153525462762 -0.226491057438
3.951266666000 0.208025690863 -0.197469492672 0.689490975264 0.634209741640 0.685001262781 0.628289039284 0.151988233791 -0.228177850944
3.951688888000 0.207614650548 -0.197200734985 0.688509231965 0.635720635822 0.686218407676 0.626374252432 0.151983296426 -0.228159809925
3.952111111000 0.205771706031 -0.197201561011 0.688233771934 0.634209347920 0.688147440189 0.627196365436 0.152559501150 -0.227855827567
3.952533333000 0.206199179616 -0.196850290304 0.688928056040 0.635036618487 0.688703968239 0.626543340930 0.150504280222 -0.227852215134
3.952955555000 0.207253850369 -0.197295168557 0.691521016489 0.633932652215 0.689010588186 0.625538005644 0.150649728289 -0.228424060850
3.953377777000 0.206370289671 -0.196989260716 0.691483714565 0.633142374527 0.690058777541 0.624081524216 0.150437537951 -0.228916474060
3.953800000000 0.207696047236 -0.197341452700 0.691755431212 0.633729895231 0.690336580766 0.625171795046 0.151030448381 -0.227986565763
3.954222222000 0.206856780804 -0.196125277208 0.693111083836 0.634349335760 0.692332754517 0.624783614252 0.149976277126 -0.228953059478
3.954644444000 0.205944269408 -0.197693070926 0.696748277644 0.631843648369 0.693256962835 0.622692892790 0.150654769521 -0.229695887373
3.955066666000 0.206271920882 -0.197033542024 0.696411558045 0.632188699504 0.693323775487 0.621853340022 0.150114489004 -0.229317084565
3.955488888000 0.206035116002 -0.197016504492 0.695485931946 0.630946776146 0.693535369369 0.620797555671 0.149714573948 -0.229865037678
3.955911111000 0.205118443160 -0.198141972736 0.697740207105 0.629223354911 0.694896354250 0.620463833794 0.148842781871 -0.229709464859
3.956333333000 0.204349106958 -0.196973057355 0.695994732223 0.628466849810 0.697303418680 0.619940212205 0.149106255466 -0.230762760270
3.956755555000 0.205557932384 -0.196817688227 0.700936371552 0.628585538017 0.697228044934 0.619056322681 0.149599068801 -0.230829951811
3.957177777000 0.205208333824 -0.198921035483 0.702360044600 0.626644603477 0.698816422556 0.618470027085 0.149603111164 -0.230403350073
3.957600000000 0.204910208713 -0.197051023915 0.701839978619 0.627000384835 0.699137121778 0.616917511611 0.148848829145 -0.230996563261
3.958022222000 0.204906268834 -0.197806141506 0.703781051141 0.625238468081 0.700994845171 0.616401700722 0.149132828604 -0.230844843801
3.958444444000 0.205403180093 -0.197753223516 0.705128469080 0.624870455269 0.701043037055 0.615823372863 0.148487524717 -0.231944646164
3.958866666000 0.205767995120 -0.197892324205 0.706273131888 0.624869626927 0.703030520818 0.615175586157 0.147890076101 -0.231486381724
3.959288888000 0.204824470567 -0.198789828537 0.708820288588 0.622814276226 0.703908995167 0.614434065710 0.148351450616 -0.232350938715
3.959711111000 0.204404645735 -0.199826489959 0.709966681484 0.622248251628 0.704983761165 0.613559329652 0.148314602440 -0.232701037092
3.960133333000 0.204782829730 -0.198970958166 0.709988212210 0.621338477432 0.706516688473 0.612382718354 0.148361452833 -0.232591559192
3.960555555000 0.205720717695 -0.198325965313 0.711522385717 0.621787761878 0.706163518520 0.612546829086 0.147779646853 -0.233922134084
3.960977777000 0.205202013117 -0.199451499770 0.713447833475 0.619273875177 0.708110150354 0.611606229598 0.147094752277 -0.233668226860
3.961400000000 0.206069884897 -0.198376876935 0.713731188774 0.619238505282 0.709207870038 0.609923346782 0.147859543823 -0.234252574577
3.961822222000 0.204550762710 -0.199727009014 0.716209277487 0.617232066769 0.710651335700 0.608864144911 0.147902642094 -0.234081548779
3.962244444000 0.205015903034 -0.200089834999 0.717455148112 0.617171302591 0.711200664537 0.609980570106 0.146555318648 -0.234661896453
3.962666666000 0.204736581573 -0.199566668047 0.717420843585 0.617130882990 0.712157631666 0.607104156265 0.146544019825 -0.234705185468
3.963088888000 0.205358307398 -0.199918976203 0.720066591465 0.616589442016 0.713694692025 0.607226708418 0.147001032998 -0.234960942303
3.963511111000 0.205242739609 -0.200847101693 0.721685615331 0.615314645968 0.714842865234 0.606877452200 0.146987883616 -0.235363432158
3.963933333000 0.204454441330 -0.200712858563 0.722169353328 0.614533249371 0.716288643184 0.605517324525 0.146334190551 -0.235338675663
3.964355555000 0.204298781657 -0.200911897315 0.722380966966 0.612269231837 0.716602371653 0.603961512937 0.146542961684 -0.236127021789
3.964777777000 0.204249252798 -0.201975510510 0.724362533720 0.611875557516 0.717775449980 0.604280299290 0.145065100489 -0.236160415687
3.965200000000 0.204801778656 -0.201427579995 0.725989097189 0.612122876634 0.719507225149 0.603569316899 0.145835096520 -0.236603613672
3.965622222000 0.204910255963 -0.202154107236 0.726939189313 0.610709044178 0.719970258988 0.602294240779 0.145401087437 -0.237604562148
3.966044444000 0.204762643523 -0.202742848887 0.729081374040 0.609096883006 0.721384361219 0.602094991864 0.144687699012 -0.237414348960
3.966466666000 0.204413098831 -0.201696952882 0.728980319187 0.608314945240 0.721590949929 0.599306796975 0.145309640715 -0.236914913722
3.966888888000 0.204133284359 -0.202487290452 0.730652709392 0.606692851460 0.723533214150 0.599602053786 0.145049230847 -0.238285265976
3.967311111000 0.204082538059 -0.203251271641 0.731697299930 0.605162567095 0.725047542397 0.598482004725 0.143716702613 -0.238584454741
3.967733333000 0.204779059697 -0.203386912170 0.734350810827 0.605053456405 0.725554429071 0.597336431860 0.143953431920 -0.238857851053
3.968155555000 0.204630223648 -0.203261062866 0.734031052226 0.603881554595 0.726235581397 0.597123259126 0.144427062365 -0.239354671396
3.968577777000 0.204282706688 -0.203753800316 0.734946916270 0.601785216714 0.727943334049 0.596294440338 0.144451544229 -0.239062698153
3.969000000000 0.207445622760 -0.204208927059 0.740918914014 0.607808002896 0.727074935323 0.597283324556 0.143495477197 -0.241511158998
3.969422222000 0.203665995577 -0.204696362579 0.737963000280 0.599875816913 0.730567525583 0.594747902006 0.143585438095 -0.240404000689
3.969844444000 0.203573319377 -0.205231709989 0.738778652276 0.598678660352 0.730652728080 0.592747900949 0.143494488234 -0.240395557991
3.970266666000 0.204086076610 -0.205355091633 0.739928259264 0.597547110218 0.732286319178 0.592366397438 0.143389528008 -0.241201123967
3.970688888000 0.203561555635 -0.206078180399 0.742133839575 0.596754065087 0.732836420458 0.591203549235 0.141529018364 -0.241861490786
3.971111111000 0.204485257151 -0.205829887959 0.741377812811 0.595705277960 0.734425188547 0.590809548393 0.142753169780 -0.242049987427
3.971533333000 0.204129982506 -0.205682103906 0.742312733618 0.595353026139 0.734794110564 0.589262569948 0.142379368586 -0.242972981838
3.971955555000 0.203790034415 -0.206607488313 0.745459358082 0.593675047039 0.735707565331 0.588698189682 0.141444353358 -0.243236858334
3.972377777000 0.203551975325 -0.207355861799 0.745916414713 0.592884424666 0.737621737566 0.587764493090 0.141183398106 -0.242669521505
3.972800000000 0.203900947877 -0.207344049420 0.746473934936 0.591362908789 0.738109577200 0.586095261115 0.141133563483 -0.243377364387
3.973222222000 0.204120808287 -0.208366033624 0.748758566098 0.589937664017 0.738748273864 0.585507345549 0.139869183566 -0.244808487560
3.973644444000 0.203580124161 -0.209333430719 0.749497886425 0.589015630116 0.741053745795 0.584868582720 0.139634893485 -0.244541312061
3.974066666000 0.202995898621 -0.208684968301 0.749954232721 0.588111398786 0.741237527126 0.583669057204 0.140004088264 -0.243903323653
3.974488888000 0.202771408217 -0.209391904750 0.751631758536 0.586867914544 0.742264615306 0.582351504954 0.139374905722 -0.244727517132
3.974911111000 0.202802313974 -0.209709544914 0.752497827211 0.585279232305 0.743492634955 0.581378882711 0.138520049852 -0.245449547546
3.975333333000 0.202809075928 -0.210140848521 0.754234328115 0.584813490042 0.744502592192 0.579967708814 0.138774935502 -0.245571333965
3.975755555000 0.203101060521 -0.211852310578 0.756590011066 0.581709844588 0.745763379076 0.580446260740 0.137843540687 -0.246356282902
3.976177777000 0.202515032499 -0.211207406790 0.756508608278 0.580644775219 0.746780422916 0.578113497351 0.138468483702 -0.247042861704
3.976600000000 0.202292121520 -0.212066233252 0.756212260323 0.579693443272 0.749124096275 0.578164330780 0.138512644805 -0.245802838763
3.977022222000 0.203252078914 -0.212716412538 0.758688362259 0.579031216202 0.748906493649 0.576902689207 0.137624150394 -0.247441369850
3.977444444000 0.202069299809 -0.213193351012 0.759449242440 0.576865990826 0.750849165549 0.574943321756 0.136619298276 -0.247478140123
3.977866666000 0.202653513168 -0.213499691632 0.760416672980 0.576943279759 0.751256743468 0.573738327483 0.136000327712 -0.247507424133
3.978288888000 0.202059094259 -0.212401809907 0.760780588693 0.575889161951 0.751567843314 0.573836568546 0.136730989358 -0.248714695152
3.978711111000 0.202419495711 -0.213921168887 0.763133539041 0.574779723342 0.753418902297 0.572420772170 0.134994462840 -0.249538878167
3.979133333000 0.203004684830 -0.215416566575 0.764670351869 0.573008337010 0.753967342231 0.571584486107 0.134120330241 -0.250281819068
3.979555555000 0.201838442023 -0.215842164708 0.765046805930 0.571759181117 0.756055230308 0.570307801424 0.134095872280 -0.249150187395
3.979977777000 0.202386158374 -0.216229311438 0.766228940190 0.570806417853 0.755876803331 0.569465959489 0.132838930663 -0.249675774987
3.980400000000 0.201574115987 -0.216146028572 0.766600247562 0.568905011594 0.756983964180 0.568485083912 0.133330655205 -0.250271446493
3.980822222000 0.201233011946 -0.216709567413 0.767043251374 0.569032171267 0.757424447050 0.565845581406 0.132867909501 -0.250683480275
3.981244444000 0.200363976956 -0.216949956267 0.767978654705 0.567102241937 0.759865149309 0.565023993796 0.132522089021 -0.250456146580
3.981666666000 0.201778426197 -0.217837479425 0.768730447216 0.565808268821 0.762287700665 0.566105656436 0.131997580978 -0.251583395768
3.982088888000 0.201011628911 -0.217906782277 0.770599850199 0.564112259951 0.761457855163 0.563180455500 0.132025184006 -0.251836647279
3.982511111000 0.200745734792 -0.218077707736 0.770779044449 0.563457853172 0.762215620056 0.562391029573 0.131702275074 -0.251721743535
3.982933333000 0.200671007439 -0.219033312695 0.772388037283 0.561471586505 0.762571674718 0.562251224109 0.131288343560 -0.251962819518
3.983355555000 0.199557935549 -0.219296511491 0.773211203228 0.560716074483 0.763637758163 0.559992137371 0.130751323323 -0.252093429977
3.983777777000 0.200165947938 -0.220202966006 0.774000627852 0.559010010073 0.764809287132 0.559763429203 0.130666477449 -0.253259058389
3.984200000000 0.199033366707 -0.219345236315 0.774706663656 0.556907371858 0.764324789553 0.561264274424 0.131711587129 -0.251829013261
3.984622222000 0.199003588960 -0.220949182331 0.775529745667 0.557111864458 0.767405924007 0.556737492226 0.129798880810 -0.253215412142
3.985044444000 0.198403266188 -0.221840656104 0.776985633304 0.555318579156 0.769022060942 0.554492940757 0.128705442007 -0.253820563036
3.985466666000 0.198921063089 -0.221382342266 0.777756685799 0.554216279778 0.768376969911 0.554190115434 0.129330805063 -0.254182925186
3.985888888000 0.199096146914 -0.221786976718 0.778006430997 0.553094790078 0.769768237321 0.553821555329 0.129104949012 -0.254445422535
3.986311111000 0.198434844770 -0.223855197292 0.780039444575 0.551519459509 0.772037343592 0.551589137258 0.126841015547 -0.255594544126
3.986733333000 0.197572075114 -0.223849738567 0.780356091362 0.549690558920 0.773214522112 0.548920489561 0.127361046713 -0.253489974396
3.987155555000 0.198705303996 -0.224920378592 0.781569450105 0.548936205706 0.774258718166 0.550989499688 0.125863130294 -0.255091759016
3.987577777000 0.198510031839 -0.225014914826 0.783749278774 0.547659106859 0.774581709244 0.549111271640 0.126145243981 -0.254873166634
3.988000000000 0.197473921788 -0.225298606311 0.783988821344 0.546884104702 0.774931458097 0.547808597070 0.125058520132 -0.256092995071
3.988422222000 0.197511327683 -0.225070635756 0.784657777031 0.544644058686 0.775059774316 0.547406021332 0.125532885870 -0.255495891024
3.988844444000 0.197010765767 -0.226801703161 0.785539155554 0.543920572525 0.777161929542 0.545040862071 0.123805142244 -0.256184752807
3.989266666000 0.197683333406 -0.227231433237 0.787039000959 0.541832756285 0.778482969982 0.547430439644 0.124036428009 -0.256658312594
3.989688888000 0.195926375299 -0.226929188054 0.787495836842 0.542083961953 0.778372801813 0.542492579021 0.122921220646 -0.257272576923
3.990111111000 0.196867246559 -0.227489025765 0.788748460582 0.540643149811 0.778708554276 0.543042267294 0.123093501671 -0.258438373921
3.990533333000 0.195875937008 -0.228191971697 0.788765208265 0.539178516196 0.779924847886 0.541119504067 0.122846317480 -0.257965707973
3.990955555000 0.194706605299 -0.228448207648 0.789777229936 0.537331282343 0.779771158763 0.539507953908 0.122249289357 -0.257496163636
3.991377777000 0.195117513862 -0.229922624360 0.791236006949 0.535878939031 0.783342467847 0.539504609770 0.120914205704 -0.258299972496
3.991800000000 0.196651187726 -0.230235255742 0.792539819621 0.535051194166 0.784606820135 0.538740189985 0.120315777727 -0.259857399498
3.992222222000 0.193952450932 -0.230780618195 0.792671040295 0.532972480664 0.784232174297 0.535795776805 0.121140103592 -0.258805815625
3.992644444000 0.193829908324 -0.231172647470 0.792833498990 0.531915379080 0.785343174703 0.534782144917 0.119698245743 -0.257918801408
3.993066666000 0.193204397496 -0.231532708693 0.793230346747 0.530454320318 0.786430715279 0.533864409553 0.120273161795 -0.257807179091
3.993488888000 0.193046692550 -0.232285865216 0.794679513078 0.529625467304 0.787024204448 0.532512872227 0.119600641113 -0.259485803933
3.993911111000 0.192146435744 -0.232859538894 0.795637907987 0.528475081951 0.787801010930 0.530240216433 0.117961493029 -0.258990408929
3.994333333000 0.191970703736 -0.234312720612 0.797305804321 0.525580438463 0.790763174984 0.529984339298 0.117534705007 -0.260256619938
3.994755555000 0.191731928993 -0.233843761355 0.797981579148 0.525338867076 0.790034653946 0.528500936256 0.117091244287 -0.259940489494
3.995177777000 0.191397717427 -0.234718687313 0.798132485258 0.523314953708 0.792367904219 0.527205428489 0.115870865581 -0.259488605593
3.995600000000 0.191027470569 -0.234574687298 0.798799817927 0.522936880966 0.791373505026 0.526830694038 0.116818281767 -0.259259116815
3.996022222000 0.192066471499 -0.235681191482 0.800218211610 0.521184883029 0.793527737439 0.527055740343 0.115934472579 -0.260756643745
3.996444444000 0.190041290383 -0.235269884223 0.800702301199 0.520233928901 0.792068291976 0.523773939867 0.115979470065 -0.259478489029
3.996866666000 0.189664604944 -0.235356255820 0.801172716883 0.519711949582 0.793132086587 0.521508497772 0.115191935284 -0.260657111579
3.997288888000 0.188919259887 -0.236861192606 0.802194551057 0.517392599715 0.795374245841 0.520259712307 0.113351036665 -0.259791374836
3.997711111000 0.189904708716 -0.237137422577 0.803760460223 0.516161382385 0.796486766970 0.520935291041 0.113635009752 -0.260780168733
3.998133333000 0.188255235822 -0.237543472565 0.804102233873 0.514417979533 0.796496501036 0.517263742643 0.112754919071 -0.260935751115
3.998555555000 0.188731272877 -0.238864824551 0.805158484037 0.513465305122 0.798795428121 0.518448250631 0.113802561613 -0.261176882126
3.998977777000 0.187853994164 -0.238359050554 0.805057624465 0.512137572174 0.798425161695 0.515877695628 0.112289488105 -0.261092683119
3.999400000000 0.189219676291 -0.237853708338 0.805966515426 0.510666321063 0.799493515570 0.518519576009 0.111861002048 -0.259863217391
3.999822222000 0.187451328714 -0.239758298655 0.807210432865 0.509920677241 0.802917886895 0.514485016622 0.110709822803 -0.262249150622
4.000244444000 0.188197233501 -0.238781327148 0.810134861315 0.508488273507 0.799784118325 0.515270534207 0.111208853161 -0.262380993705
4.000666666000 0.186450920858 -0.240502915445 0.808843407065 0.507830627423 0.803688139785 0.512321448006 0.110852853128 -0.262164015395
4.001088888000 0.185102349281 -0.239744159706 0.809762497911 0.504690078658 0.802660646215 0.509659719824 0.108830768705 -0.261404536017
4.001511111000 0.184300249351 -0.240896107427 0.810726851998 0.504431142845 0.803800514514 0.508428109772 0.109182457982 -0.262614347212
4.001933333000 0.184314125026 -0.241390697260 0.812714344373 0.503896207334 0.805294951811 0.505488568634 0.108610251099 -0.262224602526
4.002355555000 0.184456208127 -0.241528156777 0.812397963609 0.503215832922 0.805729638593 0.505434834351 0.107983709123 -0.262120393829
4.002777777000 0.183844045057 -0.242065374597 0.812908245674 0.500628550435 0.805429428205 0.505329254531 0.108792916049 -0.262226804462
4.003200000000 0.182426950985 -0.242978083391 0.813293235641 0.499826032275 0.807614517758 0.501871559616 0.107170434974 -0.262601718741
4.003622222000 0.183086337139 -0.243563922383 0.815255567456 0.498296059828 0.809368803398 0.502904507513 0.106796831545 -0.262961613974
4.004044444000 0.181960508682 -0.242652110093 0.816310837968 0.495962009160 0.808240720444 0.501378630492 0.106382736771 -0.262401602265
4.004466666000 0.182018034148 -0.242409462364 0.813720530197 0.492923977237 0.807066239110 0.502539739092 0.107170449521 -0.261320472571
4.004888888000 0.180261221421 -0.245166090901 0.817095928755 0.493796055260 0.811940265895 0.497509937529 0.105294304472 -0.263370769379
4.005311111000 0.179583806062 -0.245109697728 0.818003134465 0.491925135858 0.812571310214 0.496101835366 0.103690874264 -0.263216465798
4.005733333000 0.181192539318 -0.245529676866 0.817993790928 0.490601654806 0.814511379451 0.498754801987 0.104372588421 -0.263985887059
4.006155555000 0.180044283219 -0.245871347307 0.818905903775 0.492034828582 0.814646507771 0.494849006366 0.104240997397 -0.264203074135
4.006577777000 0.178469996196 -0.245533738431 0.819089764783 0.489126832901 0.814059565621 0.493085145390 0.104287628574 -0.263149055963
4.007000000000 0.178653655070 -0.245682322684 0.819216040081 0.487439763762 0.813561332312 0.491479345496 0.102438638877 -0.264164285740
4.007422222000 0.176653806058 -0.246092235383 0.820941290647 0.483980437954 0.814466301629 0.490324872967 0.102026891869 -0.262631412047
4.007844444000 0.176931698752 -0.247634450630 0.822702521097 0.484042417059 0.816996220278 0.489415511667 0.102172581236 -0.263739756730
4.008266666000 0.175914478218 -0.248841461132 0.821853121672 0.483294065668 0.821580542046 0.486842850020 0.100830799146 -0.263999371514
4.008688888000 0.176401282881 -0.247446375375 0.823788200696 0.481891863246 0.817549158669 0.487424531117 0.100902167651 -0.262675994893
4.009111111000 0.175315056608 -0.248574894558 0.824536580429 0.483104430327 0.820479940784 0.485624414576 0.101252582530 -0.263900251745
4.009533333000 0.174367540888 -0.247047216594 0.822624919467 0.480659258792 0.817585520066 0.483816992774 0.101339669943 -0.262769411151
4.009955555000 0.174102834061 -0.248176975466 0.824796687527 0.477768428326 0.819722676628 0.484170169370 0.101142540835 -0.263748740343
4.010377777000 0.173221804837 -0.248909509904 0.826076778297 0.477850300087 0.822084242014 0.480502804052 0.099149392222 -0.264484029989
