# GHZ S RI R 50.000000000000
3.950000000000 -0.029098081416 0.010321923076 0.382198496510 0.914885815883 0.376888078094 0.908115099719 -0.038677367553 0.014714833025
3.950422222000 -0.031068178945 0.010243494372 0.380540978925 0.913684050763 0.375636961164 0.907386921001 -0.039737555191 0.014104196391
3.950844444000 -0.032163609281 0.010999696154 0.376280148039 0.916289775319 0.378246259956 0.905198117838 -0.039155971157 0.015349577444
3.951266666000 -0.031918556405 0.011254077550 0.377491470728 0.912551647019 0.379468433811 0.907965437720 -0.040252589795 0.014296486281
3.951688888000 -0.032639969277 0.011801404744 0.375744756614 0.916344439669 0.379558169065 0.905955132513 -0.039830660068 0.014867089534
3.952111111000 -0.033242843820 0.012527289731 0.378342270004 0.917010962040 0.380208668656 0.907838686684 -0.039650744229 0.015935279681
3.952533333000 -0.034134241386 0.012467005151 0.376439258770 0.916642767781 0.381260026403 0.908099358277 -0.041434069743 0.016159890353
3.952955555000 -0.032867835238 0.012977518888 0.380385193152 0.916769934833 0.382844246459 0.905556016735 -0.039531404977 0.015973246651
3.953377777000 -0.033327603389 0.013045063424 0.381868786494 0.916351747780 0.382838760545 0.905364238236 -0.039841044329 0.015631940243
3.953800000000 -0.031213761186 0.014439256112 0.383954476307 0.911842929310 0.388511145741 0.908759650105 -0.038607720348 0.016914329600
3.954222222000 -0.033404798367 0.013393896805 0.382056339845 0.913849655727 0.386721001293 0.904004876414 -0.038853963068 0.015607076641
3.954644444000 -0.033603474389 0.014075773067 0.385471112207 0.913618864609 0.387984597618 0.905495408675 -0.038911961503 0.015805434554
3.955066666000 -0.033128035639 0.014581379573 0.384686778277 0.914758481569 0.390189323978 0.904186767068 -0.038630570741 0.017342619515
3.955488888000 -0.033474843074 0.015096477860 0.385708082416 0.915425367580 0.389278221281 0.904475991821 -0.038748708801 0.016584828019
3.955911111000 -0.033056511972 0.014144702250 0.390057545475 0.912648018258 0.391397108588 0.902945065158 -0.038592338860 0.016236338770
3.956333333000 -0.033935927846 0.014199604349 0.387878679466 0.913026582505 0.392493259923 0.903689739810 -0.038859095770 0.016334129291
3.956755555000 -0.033976084095 0.017003129918 0.391461462362 0.913351011152 0.394406865972 0.906882069909 -0.038782309185 0.017645005257
3.957177777000 -0.033749707747 0.016020766827 0.390308084186 0.913407615191 0.395344751859 0.904926208085 -0.038952019584 0.017109043644
3.957600000000 -0.033800422461 0.016274058045 0.394172526273 0.913016528695 0.396542382241 0.903091938960 -0.037898850396 0.017141650518
3.958022222000 -0.033034397166 0.017095520834 0.397024476018 0.913089536313 0.398883069728 0.903069350336 -0.037349994283 0.018075600338
3.958444444000 -0.032720654147 0.017436752787 0.398120916405 0.911234911278 0.399684512729 0.903756521380 -0.037391222316 0.017288851821
3.958866666000 -0.032836673371 0.017315260874 0.398643606405 0.911503937809 0.403047278464 0.901704058884 -0.036551066934 0.018114708840
3.959288888000 -0.033181642230 0.018139670002 0.401105720865 0.912050812669 0.402982292282 0.904174736764 -0.037213914570 0.017849123361
3.959711111000 -0.033014827060 0.017858951030 0.400469215070 0.914425576453 0.404454320386 0.902890921747 -0.037395769262 0.018299888976
3.960133333000 -0.033049846297 0.018822147406 0.403793090491 0.913608269911 0.405252440341 0.903409022970 -0.036910840949 0.018741173830
3.960555555000 -0.031575652443 0.019282145473 0.406800485033 0.911427127205 0.407157622061 0.902600837592 -0.035571375814 0.017572618342
3.960977777000 -0.032424581613 0.019617457816 0.407291726893 0.912529762759 0.408354685878 0.903378380376 -0.036465708448 0.018273618268
3.961400000000 -0.031598375259 0.021029105779 0.411865437324 0.912657180268 0.408473487795 0.904380399050 -0.035183444048 0.018491527466
3.961822222000 -0.032607097699 0.020513356709 0.409369266427 0.912316940545 0.410823814413 0.901931712812 -0.035789197022 0.019026494334
3.962244444000 -0.031888289355 0.019389824180 0.410940246277 0.909160693828 0.412841062648 0.901551973866 -0.035562048897 0.017978697824
3.962666666000 -0.032217675578 0.020303227756 0.413055514641 0.909904154176 0.413939390489 0.900517614690 -0.035595022197 0.018493853554
3.963088888000 -0.031743615249 0.021341495236 0.415742493191 0.910797089368 0.415289285311 0.901900302566 -0.034881144858 0.018772043815
3.963511111000 -0.032059578438 0.020839977081 0.415348275864 0.909170998771 0.415682278830 0.901389070808 -0.035369990120 0.018691850630
3.963933333000 -0.032664457987 0.020999374060 0.415586014450 0.909388710659 0.417740170737 0.900366736255 -0.035214473387 0.019101574272
3.964355555000 -0.030898781695 0.021885334750 0.421151381680 0.909302447273 0.419859461118 0.900420277760 -0.033821466627 0.018705183542
3.964777777000 -0.031039594299 0.021918795955 0.421774399081 0.911068188492 0.420182257595 0.901560154283 -0.035970195115 0.018172196430
3.965200000000 -0.031351789550 0.022173524735 0.422097172841 0.908984318274 0.422784207629 0.900776184750 -0.034527967413 0.019364089066
3.965622222000 -0.030959596095 0.022585516523 0.424039966074 0.908707857296 0.423802816616 0.900504743153 -0.033942617837 0.018790331948
3.966044444000 -0.030543262437 0.022385640913 0.426526783725 0.907469090505 0.425632567226 0.899964949070 -0.034439685787 0.018465955065
3.966466666000 -0.030605528183 0.023138070637 0.427642397095 0.906574305680 0.427740417085 0.897699646194 -0.033242999636 0.019785005871
3.966888888000 -0.030752877907 0.023484282496 0.428545590245 0.907565785897 0.428313586830 0.899281297990 -0.033138878016 0.019384573652
3.967311111000 -0.030315062683 0.023345805033 0.430851704831 0.906548805257 0.430946872571 0.898618153956 -0.033696723165 0.018813645139
3.967733333000 -0.029812980132 0.023670063018 0.432407593989 0.906098167999 0.432083357297 0.897900760578 -0.033155197451 0.019077949955
3.968155555000 -0.029871962113 0.025121262101 0.433199779812 0.906643475597 0.432583555584 0.898566493952 -0.032146059019 0.019373801363
3.968577777000 -0.028993155481 0.025204319544 0.436625104642 0.905859265379 0.435144300422 0.898389387783 -0.031599620655 0.019822926495
3.969000000000 -0.029387268316 0.024355310410 0.433457355185 0.904072573036 0.434223288191 0.897445624905 -0.031934609416 0.018483674281
3.969422222000 -0.028854751557 0.024668972768 0.440133308621 0.903298595546 0.438734458732 0.897481025191 -0.031972561145 0.019006000967
3.969844444000 -0.028125721185 0.025095821780 0.443315248780 0.903019715793 0.439557873407 0.895988535390 -0.031059736811 0.018765964250
3.970266666000 -0.027638265229 0.025390203323 0.443856538797 0.902031875782 0.441569426627 0.896702655471 -0.030876966071 0.018527045921
3.970688888000 -0.028613046990 0.024878843148 0.442969790198 0.902376945339 0.442702901724 0.895110358538 -0.032196749306 0.018344482408
3.971111111000 -0.027052584638 0.026164556015 0.446317282863 0.901570340986 0.444648855676 0.896436073644 -0.030523685528 0.019065382317
3.971533333000 -0.027429859564 0.025674048505 0.446449538655 0.900118461390 0.445041176070 0.894387894738 -0.030607855358 0.018345663977
3.971955555000 -0.026871324349 0.026263829479 0.450212430938 0.900663056646 0.447047431813 0.894781258508 -0.030629838195 0.017882537581
3.972377777000 -0.027172336405 0.025811550024 0.450160783922 0.899318690322 0.448860455443 0.894525387093 -0.031954940689 0.018409797889
3.972800000000 -0.026643142397 0.026707578045 0.451807848072 0.899801455023 0.450506215845 0.893304768118 -0.030002525233 0.018664887108
3.973222222000 -0.025387478281 0.026271910334 0.455512407133 0.898348281787 0.452164587724 0.892769804254 -0.029516513044 0.016730798480
3.973644444000 -0.026105966313 0.026451569885 0.455129188846 0.898665715052 0.453999113861 0.893506682320 -0.030707381108 0.017459127894
3.974066666000 -0.025500167201 0.027223002877 0.459468324067 0.897502408857 0.454940822061 0.893113972410 -0.030091962435 0.018071590847
3.974488888000 -0.025875186700 0.026486063455 0.458915992963 0.896176411718 0.456716544543 0.891516582279 -0.030621309519 0.017819827633
3.974911111000 -0.024808117811 0.026621484693 0.461563942498 0.895121201532 0.459317381462 0.891029623095 -0.029567084305 0.017361918261
3.975333333000 -0.024749713009 0.027240681952 0.463217673966 0.895589644942 0.460497170252 0.890480467568 -0.029631374948 0.018133108678
3.975755555000 -0.024244109922 0.027181522747 0.464419769933 0.895493304238 0.461703717501 0.891243687790 -0.030210338375 0.016880588234
3.976177777000 -0.024055369460 0.028085581608 0.466448793697 0.895473647465 0.463650547235 0.890520051178 -0.028719504536 0.018068748528
3.976600000000 -0.023453516188 0.027592299819 0.470065618015 0.894162955493 0.466113988632 0.890845393288 -0.028340312208 0.019254549265
3.977022222000 -0.023193648513 0.027541900273 0.469037059534 0.893227021960 0.466549742214 0.889370734258 -0.028347560399 0.016856126633
3.977444444000 -0.022686801847 0.028350307173 0.473020710817 0.893947385567 0.469726598485 0.888388774720 -0.028055626544 0.016882595758
3.977866666000 -0.022412359003 0.027794241219 0.473343601640 0.891510943890 0.470487793724 0.887779943573 -0.028711744080 0.017009468308
3.978288888000 -0.022333666849 0.028304455374 0.474906531617 0.890695109122 0.471145691419 0.887552052258 -0.028043294905 0.016651601118
3.978711111000 -0.022537367996 0.028280715844 0.476059940006 0.891859362508 0.472913292203 0.887015137346 -0.028830985110 0.016157142634
3.979133333000 -0.020895878438 0.027930401348 0.478752771665 0.889664449697 0.475108847699 0.887253326505 -0.028125981586 0.015347436599
3.979555555000 -0.021141175190 0.027023220611 0.479173778148 0.887796930484 0.477777156881 0.885452225951 -0.029001721545 0.015758879641
3.979977777000 -0.020880909284 0.027585622736 0.481188209776 0.887738580675 0.478463498605 0.885316043356 -0.027959338707 0.014919532074
3.980400000000 -0.020955048876 0.027944991958 0.482863100038 0.887759861205 0.479200924964 0.884929752969 -0.028183130262 0.015349019125
3.980822222000 -0.020468789763 0.027835241096 0.484491754099 0.886391603572 0.481200015373 0.883090701127 -0.027743392244 0.015209256869
3.981244444000 -0.020890208180 0.027579202384 0.485093942825 0.884972533306 0.483812096778 0.882518919051 -0.028474200158 0.015916603778
3.981666666000 -0.019467462794 0.026447759885 0.488472783246 0.882067875497 0.485692081564 0.883043340899 -0.028734268028 0.014260805349
3.982088888000 -0.019493128659 0.028034359564 0.489183342676 0.882213712804 0.486545974014 0.881929958130 -0.027384183198 0.015340025915
3.982511111000 -0.019369313259 0.028065839324 0.490374943221 0.882505547833 0.487972183497 0.880596836331 -0.027562805375 0.014448768744
3.982933333000 -0.018163058937 0.028059805729 0.493104363594 0.880899837738 0.489413094644 0.880796333278 -0.027276676643 0.014294489132
3.983355555000 -0.019202703332 0.028188986229 0.493725599249 0.880680818624 0.490428902315 0.879596365364 -0.027836813996 0.014815378007
3.983777777000 -0.018210317163 0.027606529940 0.495475062384 0.880417728109 0.492613258423 0.879258624895 -0.026158439892 0.013624864793
3.984200000000 -0.017330372334 0.027762983876 0.497298863708 0.878103043941 0.493191818875 0.879076040657 -0.027527679691 0.014318129459
3.984622222000 -0.017895349931 0.027666349701 0.498425876131 0.878243305263 0.496320782385 0.876675019144 -0.027517505023 0.013510923938
3.985044444000 -0.017617970999 0.027166071610 0.500997692046 0.876757845100 0.498352281458 0.875290481940 -0.028031904095 0.013526638455
3.985466666000 -0.017029393553 0.028192765532 0.501513244077 0.876886811452 0.499067256484 0.875335911037 -0.026316294940 0.013559218704
3.985888888000 -0.016681819984 0.028040564736 0.502882289285 0.875947263783 0.500472301134 0.875154623985 -0.026114950567 0.013281424265
3.986311111000 -0.015945728620 0.027126065847 0.506240797830 0.874589720181 0.503880308289 0.874789046483 -0.027077658269 0.012418159852
3.986733333000 -0.016468538894 0.027916324319 0.506701471952 0.873338952792 0.505654814587 0.872012745932 -0.027044459428 0.014787397754
3.987155555000 -0.015669086396 0.027422406247 0.509396365190 0.872763262978 0.506063950396 0.874091523085 -0.027936628202 0.012379753565
3.987577777000 -0.015054829871 0.028144306828 0.511467178423 0.872465163023 0.507681796206 0.872905215281 -0.027322474988 0.013694430909
3.988000000000 -0.015300175700 0.027077216307 0.512365214646 0.871400306064 0.509150976187 0.871631943415 -0.027555895936 0.011937597775
3.988422222000 -0.015320392223 0.027662312073 0.513662357000 0.870393051422 0.509919782639 0.870395426594 -0.026957597785 0.012719126558
3.988844444000 -0.014621551511 0.027005940873 0.516021788363 0.869505743768 0.513055668488 0.869888379915 -0.027295411280 0.012026014049
3.989266666000 -0.014339818719 0.026387288443 0.517014031109 0.867527552759 0.513470184156 0.870865989896 -0.027899336068 0.011410314752
3.989688888000 -0.014854080234 0.026179196359 0.517986854404 0.867500488199 0.516089035616 0.866639941479 -0.027664350574 0.010656539521
3.990111111000 -0.013294032114 0.026616632703 0.519605512134 0.867048191605 0.516466509283 0.869681792816 -0.026525172421 0.011088503944
3.990533333000 -0.013412672825 0.026280598063 0.521494070385 0.864519754964 0.517538352972 0.866835255858 -0.026807633990 0.010674169948
3.990955555000 -0.013404918965 0.026099528950 0.523351425964 0.863763713615 0.519600824110 0.864535015521 -0.027092028694 0.010595922077
3.991377777000 -0.013474500215 0.025510961615 0.525062888477 0.862949247216 0.522587115946 0.864812693150 -0.028280436698 0.010360013437
3.991800000000 -0.011614592553 0.025422761055 0.527143579015 0.860299138250 0.521176734565 0.866996082184 -0.028214136925 0.010595427558
3.992222222000 -0.013116922815 0.025572221704 0.527171649726 0.861058400534 0.524273007983 0.863025580722 -0.026996903306 0.010846093721
3.992644444000 -0.012523582474 0.025267068282 0.528219197385 0.858898422721 0.526873730613 0.861464780714 -0.028387554273 0.010490253520
3.993066666000 -0.012409921070 0.025492504997 0.529297628031 0.858416759370 0.528588139174 0.860614930864 -0.027675426378 0.011094669975
3.993488888000 -0.012106915114 0.024713321532 0.531256252310 0.857796201896 0.529377349775 0.860202608273 -0.027281854991 0.009802908205
3.993911111000 -0.012422057150 0.024034605342 0.532378983873 0.856186916965 0.531468654115 0.858245645095 -0.028297096412 0.009588302857
3.994333333000 -0.011625597410 0.024003532753 0.535809359903 0.854804474667 0.534045920865 0.859010074849 -0.028290398598 0.009562173430
3.994755555000 -0.012388011010 0.024359546509 0.536240431624 0.854518023984 0.533860947627 0.856799813623 -0.028606512968 0.008970090467
3.995177777000 -0.012225426730 0.024135595042 0.537360633119 0.852510161680 0.536490408979 0.855725128405 -0.029238363045 0.009606583334
3.995600000000 -0.011903322749 0.023734137401 0.537621776784 0.851885866034 0.536651523457 0.854071961774 -0.028645550819 0.009519221296
3.996022222000 -0.010806985623 0.023967133663 0.540850600667 0.851177028469 0.538695857749 0.855546834853 -0.028294338015 0.008521591072
3.996444444000 -0.011046770911 0.023834280360 0.541654287594 0.849781368901 0.539363521977 0.852083948364 -0.028298355971 0.009467696906
3.996866666000 -0.011500071634 0.023813221951 0.542087594831 0.849411086106 0.539975112569 0.851616617718 -0.028256696628 0.008971543327
3.997288888000 -0.011456442027 0.023181841757 0.544440361600 0.847402991870 0.544707528497 0.849628317140 -0.029602193798 0.008958121155
3.997711111000 -0.010821897553 0.023044712892 0.545700154194 0.846852950488 0.544680637863 0.849923866220 -0.029350754982 0.008966559685
3.998133333000 -0.011067621427 0.022629925270 0.547113123079 0.845490258608 0.545530120271 0.847578731486 -0.029077625725 0.009032198377
3.998555555000 -0.010058344587 0.022489910907 0.548944278773 0.844739118743 0.548059225764 0.847203316536 -0.028691496193 0.008688474896
3.998977777000 -0.010621453304 0.022634018570 0.549323739831 0.843679970256 0.549103096357 0.846866979738 -0.029257539434 0.009015619412
3.999400000000 -0.010384654905 0.022845629074 0.551142593685 0.842008609986 0.550753586652 0.845335850687 -0.030489321378 0.009214598249
3.999822222000 -0.010308950245 0.022090501292 0.552593406469 0.841598766451 0.553942539347 0.846273808534 -0.030146799196 0.007785590436
4.000244444000 -0.009912750236 0.022240664318 0.555677659553 0.841429030467 0.552412916621 0.844499181101 -0.029572716286 0.008057617235
4.000666666000 -0.010066728451 0.021211588939 0.554925717318 0.839905829076 0.556353081785 0.842662099082 -0.029867245539 0.007994303765
4.001088888000 -0.010568345325 0.021573922559 0.557026848715 0.836967756211 0.556332334783 0.840492837564 -0.030975721230 0.008431911865
4.001511111000 -0.010521188615 0.021215547003 0.558294699552 0.837285213472 0.557879275938 0.840060881037 -0.030074096024 0.007371749372
4.001933333000 -0.010492700455 0.021210134023 0.560033085642 0.836690371723 0.560018622542 0.836903626442 -0.030341549952 0.008420548776
4.002355555000 -0.010029651939 0.021582739691 0.560062759700 0.836024020643 0.561349480600 0.839341602660 -0.030926547784 0.008144892278
4.002777777000 -0.009530696909 0.021508625676 0.562639219851 0.833679618933 0.560208019962 0.837421180166 -0.029740386819 0.008015111322
4.003200000000 -0.010049576551 0.020212803707 0.562922513132 0.832998571890 0.564360286195 0.835840844022 -0.030332703017 0.008248260410
4.003622222000 -0.009507564282 0.020012111061 0.565570717477 0.832318845474 0.566901426393 0.834654070538 -0.030900361283 0.007859397435
4.004044444000 -0.010000877261 0.021335639058 0.567081605042 0.830791658593 0.565467599155 0.833291220483 -0.031607469453 0.008254075201
4.004466666000 -0.009586415369 0.020568518928 0.565958646185 0.826772854685 0.564012296428 0.833195324320 -0.030324445052 0.008936814270
4.004888888000 -0.010447644188 0.019000825058 0.568333946871 0.827673410116 0.570138113127 0.831041442783 -0.031120393034 0.007666968830
4.005311111000 -0.010524786861 0.019900938362 0.570340260619 0.826739609717 0.571512641371 0.830434023120 -0.032262180974 0.007503442618
4.005733333000 -0.009706119923 0.020249707459 0.570764932283 0.825573432192 0.571304666935 0.833143635071 -0.031857517744 0.007574356378
4.006155555000 -0.010213654859 0.019521910650 0.570998252051 0.825855210058 0.572990542957 0.829902816608 -0.031182699301 0.007274096540
4.006577777000 -0.010712930765 0.019708877045 0.572473618914 0.823296111187 0.572939991557 0.825795273229 -0.031586164382 0.008138163449
4.007000000000 -0.010599171908 0.020369976537 0.571893472624 0.822195603146 0.572159949198 0.830979503713 -0.031049664689 0.007734202945
4.007422222000 -0.010675198847 0.019197281904 0.576160806950 0.819830810229 0.577139715016 0.823564397300 -0.032766202060 0.008031341911
4.007844444000 -0.010502491572 0.018943174467 0.577480875671 0.819511901609 0.578049824260 0.823550667982 -0.032195157787 0.007805458051
4.008266666000 -0.010538576020 0.018119685487 0.577327572476 0.818591735329 0.583376797900 0.822092260437 -0.033183805756 0.007926162163
4.008688888000 -0.011025278522 0.019383197260 0.579847062130 0.818152575837 0.580550191772 0.820910290983 -0.032960672138 0.008381676070
4.009111111000 -0.011189587514 0.018627946340 0.579317486293 0.819781592613 0.584642116433 0.820008313401 -0.032858511210 0.008156563321
4.009533333000 -0.011164421721 0.018626210774 0.579921035813 0.816484349553 0.582668886092 0.816991301719 -0.032131421003 0.008624670911
4.009955555000 -0.011343952408 0.018411853744 0.582593468647 0.814482278392 0.583426424173 0.815627455869 -0.032219446496 0.008416368333
4.010377777000 -0.011121523987 0.018039328466 0.584475708950 0.814091686630 0.587022607809 0.817574526914 -0.032819332505 0.008167338932
