# GHZ S RI R 50.000000000000
3.950000000000 -0.104407000042 -0.446220156904 0.654278575197 0.193837096263 0.640608354572 0.194780105988 -0.114572435188 -0.413516409426
3.950422222000 -0.106421447298 -0.445065764872 0.653482560745 0.192470843193 0.640524465521 0.193978181251 -0.116454200192 -0.412898684472
3.950844444000 -0.107376828695 -0.446522896805 0.653603327136 0.191030186988 0.640842835564 0.194416952050 -0.118922133513 -0.409658608081
3.951266666000 -0.108460023757 -0.447484952743 0.655469757486 0.188652442918 0.641104939801 0.193454630862 -0.121780694925 -0.408511219449
3.951688888000 -0.109182642450 -0.446960064818 0.654990736854 0.188354397284 0.641040836143 0.193149009998 -0.121343118569 -0.407618580823
3.952111111000 -0.109875265757 -0.447176039829 0.654646638621 0.187212574059 0.642270723049 0.192492749607 -0.121729459464 -0.406366283177
3.952533333000 -0.110986267760 -0.447214620579 0.656996626555 0.185492807933 0.642476011683 0.192373110244 -0.121716938648 -0.405034360695
3.952955555000 -0.110761208504 -0.447408065688 0.658189124651 0.185577626548 0.643646611523 0.191622777654 -0.122858950491 -0.403523655174
3.953377777000 -0.111241276722 -0.447893449479 0.658494013932 0.183136402924 0.644273739288 0.190874124949 -0.123858653561 -0.402675367678
3.953800000000 -0.109803492440 -0.447477550344 0.658230244816 0.185660349542 0.645408462021 0.190613572809 -0.123698510118 -0.401094955371
3.954222222000 -0.111977681520 -0.448773253742 0.660415723946 0.182443474471 0.646146936085 0.189278959845 -0.123375700163 -0.400139071586
3.954644444000 -0.112007087779 -0.449048060976 0.661735827661 0.181176078658 0.646305167329 0.188283765061 -0.124647646002 -0.399827265754
3.955066666000 -0.111675646138 -0.449338427235 0.661092476108 0.180573770643 0.647113711298 0.188420024655 -0.124709605672 -0.398230690674
3.955488888000 -0.112638215544 -0.449703444784 0.661947405077 0.181057389173 0.648623541556 0.187070767842 -0.125151952141 -0.396847675107
3.955911111000 -0.113980717556 -0.449321297113 0.663137191816 0.178430088577 0.649141790908 0.186082781387 -0.124404129870 -0.395397491485
3.956333333000 -0.113339748160 -0.450212102295 0.663566733122 0.178914630380 0.650384140693 0.185330166428 -0.126247781123 -0.395630831469
3.956755555000 -0.113341475263 -0.449299990739 0.664188443903 0.177128275165 0.649967788239 0.185741377848 -0.126363021273 -0.393476302753
3.957177777000 -0.113925300450 -0.451412449556 0.665838358401 0.176548466165 0.651798803965 0.183734212488 -0.126541710382 -0.392794209527
3.957600000000 -0.113834229506 -0.451438957292 0.665556161663 0.174205492154 0.651896597792 0.182846272534 -0.127626999142 -0.392200299249
3.958022222000 -0.114149348750 -0.453015845259 0.666803651900 0.174427724856 0.652921411058 0.181712862213 -0.127133880708 -0.391807283089
3.958444444000 -0.113763430575 -0.452874478843 0.667940392674 0.172560422694 0.653682918754 0.182044655923 -0.127826456009 -0.389753497423
3.958866666000 -0.116256044306 -0.452864257782 0.667459584594 0.172636768663 0.655397100952 0.181155005657 -0.126315742452 -0.388999270693
3.959288888000 -0.114677089492 -0.452265935783 0.669538283642 0.171361657164 0.655625772653 0.181085369243 -0.127188076649 -0.386739792698
3.959711111000 -0.114566764328 -0.453091344944 0.671058547289 0.170549876906 0.656974763847 0.180624851713 -0.127765621767 -0.385958598755
3.960133333000 -0.115684320696 -0.452764371533 0.670796232032 0.170056903170 0.657299752649 0.179198422557 -0.127850058626 -0.385074769978
3.960555555000 -0.115753883146 -0.453251449961 0.671730209732 0.168482223400 0.657806268044 0.178194850980 -0.128354715550 -0.384491385917
3.960977777000 -0.115381191017 -0.453607908841 0.673128146827 0.167674992033 0.658114207849 0.176353341603 -0.130287806317 -0.384196131873
3.961400000000 -0.116544443985 -0.454650108343 0.672378375150 0.164137599456 0.658581383031 0.176030714631 -0.129841212228 -0.382734957542
3.961822222000 -0.116576347141 -0.455102679149 0.673817873606 0.165483253127 0.658919116097 0.175292587751 -0.130009973725 -0.381364855830
3.962244444000 -0.117237453488 -0.454898344166 0.674579694759 0.165140378693 0.661346096819 0.174136752606 -0.129400907349 -0.381387108569
3.962666666000 -0.117591225373 -0.454349132105 0.675436499283 0.163605248650 0.660713639649 0.174352941800 -0.129064305923 -0.378969646703
3.963088888000 -0.116779079690 -0.455628370193 0.676180160519 0.163165919851 0.662179071164 0.173174117873 -0.130391649756 -0.377501349899
3.963511111000 -0.117944141080 -0.455537844623 0.677029537277 0.162080282512 0.663541239514 0.171348706951 -0.130405990549 -0.377544296418
3.963933333000 -0.117788446250 -0.455906425188 0.677220963093 0.161323481026 0.663878944469 0.170146968706 -0.131201129070 -0.376259138930
3.964355555000 -0.118036253820 -0.457336459605 0.678244010904 0.159666768729 0.664510363509 0.170193537712 -0.131214950943 -0.375310513310
3.964777777000 -0.118966433275 -0.458032366833 0.678882381102 0.158400167032 0.665589501857 0.168893506829 -0.131662518330 -0.374944293302
3.965200000000 -0.118840197743 -0.459506133607 0.680024470264 0.157626720534 0.666381156681 0.167493471440 -0.132698609331 -0.373231883425
3.965622222000 -0.119092776459 -0.457226962319 0.680653229151 0.155998233345 0.666464414989 0.167170011058 -0.132564493136 -0.372818854424
3.966044444000 -0.118279344384 -0.457982378742 0.681148647454 0.155435929627 0.667442068987 0.167648191676 -0.131851361747 -0.370792745513
3.966466666000 -0.118354408375 -0.458764074285 0.682492165443 0.154976090304 0.668734782630 0.166499473313 -0.132648275980 -0.370287169555
3.966888888000 -0.120603529253 -0.459454571030 0.682771089329 0.153690570304 0.669754189959 0.165180185729 -0.132139982409 -0.367986580615
3.967311111000 -0.119493608137 -0.458985190477 0.683985891710 0.152675890702 0.669140703853 0.163742650968 -0.133468775634 -0.367758177344
3.967733333000 -0.120972776744 -0.460514126996 0.684174184939 0.151123255222 0.670968849168 0.162258048888 -0.133012068714 -0.366967822188
3.968155555000 -0.121952770140 -0.461012390233 0.685076276962 0.149510526188 0.670777171493 0.160761004704 -0.134078791954 -0.365679179108
3.968577777000 -0.121448850691 -0.461256313738 0.685467714610 0.148513232981 0.671752497765 0.160343102589 -0.134028581630 -0.366180340959
3.969000000000 -0.122583901300 -0.460688583220 0.687513519452 0.147194612908 0.671463032409 0.157777842721 -0.136246811248 -0.362412830393
3.969422222000 -0.122380235175 -0.461189094555 0.687623734740 0.146761574819 0.673483565818 0.158133985780 -0.134211457303 -0.362617213405
3.969844444000 -0.121744305305 -0.462007904395 0.688276952342 0.146361942545 0.675067071246 0.159319566829 -0.133992890949 -0.362428168606
3.970266666000 -0.123030632937 -0.461882508262 0.688966836919 0.145241821099 0.675526347750 0.155923225664 -0.134894825173 -0.360572263192
3.970688888000 -0.123803404291 -0.463071435798 0.689328784958 0.144056231403 0.675751088519 0.155491044126 -0.134486466676 -0.359289896495
3.971111111000 -0.123150947626 -0.464458146901 0.689953236555 0.142164100356 0.677074624144 0.155191108096 -0.135147401542 -0.359333998732
3.971533333000 -0.123812326382 -0.463483556234 0.690697812685 0.140822273271 0.675484669261 0.153453254201 -0.134996459918 -0.357228145881
3.971955555000 -0.124630940977 -0.464858236753 0.690900785277 0.139773465503 0.678953347712 0.152909739692 -0.135303360305 -0.357610109810
3.972377777000 -0.124669499184 -0.463868091156 0.691923543903 0.139109271838 0.678709436322 0.151215380355 -0.134772786798 -0.355863657011
3.972800000000 -0.124783896399 -0.465280967931 0.693032373558 0.138560916162 0.680244301017 0.152169342164 -0.134587893232 -0.354833014941
3.973222222000 -0.124995196305 -0.464629206567 0.693823935097 0.137704194515 0.680706482498 0.150924068281 -0.134408946272 -0.353348948402
3.973644444000 -0.125734983361 -0.464934210149 0.694558884266 0.136481149402 0.681727885819 0.149436742195 -0.135123296989 -0.352278301185
3.974066666000 -0.126837834209 -0.464740583946 0.694757443563 0.134785298915 0.681258991592 0.147038308902 -0.135012476298 -0.351759202738
3.974488888000 -0.126080068635 -0.467115989752 0.695125562348 0.133560114231 0.683044016095 0.146793670738 -0.136393083796 -0.352019066411
3.974911111000 -0.127264449432 -0.468019028659 0.695507562213 0.132353926840 0.683015565066 0.145477071406 -0.136712921357 -0.349970949821
3.975333333000 -0.127599967004 -0.467193705306 0.696397806903 0.130686269205 0.683416463580 0.144802333537 -0.135553639845 -0.348987314658
3.975755555000 -0.128691511774 -0.468807527052 0.697491601276 0.130054306619 0.685368843302 0.143349737115 -0.136448125396 -0.347416672521
3.976177777000 -0.127363161114 -0.467909774625 0.698240937211 0.129705415767 0.685787325547 0.144053953074 -0.134785412027 -0.346540995949
3.976600000000 -0.128654530069 -0.467888527640 0.698839867100 0.129087740434 0.687182287690 0.141317491940 -0.135108370604 -0.345680276500
3.977022222000 -0.128673143953 -0.468814410576 0.700155090540 0.127724973336 0.687566550332 0.142332636538 -0.135302973460 -0.344318563372
3.977444444000 -0.128393041861 -0.467588466738 0.700350067949 0.126590770781 0.686667779808 0.140610677220 -0.135523299512 -0.344034460284
3.977866666000 -0.129058940303 -0.470871445151 0.700794667989 0.124372443846 0.689513030754 0.139375017456 -0.137001767390 -0.343778207463
3.978288888000 -0.130327694053 -0.470835395664 0.701180765084 0.122996146263 0.689392282125 0.137549327926 -0.136340391172 -0.343311349288
3.978711111000 -0.130248607461 -0.470974726495 0.701410273458 0.121674247959 0.689233425179 0.136326692317 -0.136849472051 -0.341717853638
3.979133333000 -0.131382542977 -0.472135041884 0.702538059350 0.120592872861 0.691109114018 0.135335430330 -0.136102980148 -0.340760175578
3.979555555000 -0.131170059313 -0.472565610330 0.703578596527 0.119704574301 0.693170508334 0.135776982689 -0.135881043290 -0.339342497545
3.979977777000 -0.131803828259 -0.470753235666 0.704145451676 0.119363758989 0.691508376533 0.134140597818 -0.134936318042 -0.336951848494
3.980400000000 -0.131054177016 -0.471893162126 0.704887599217 0.118256776642 0.693778963761 0.134098177958 -0.135262804093 -0.337346031655
3.980822222000 -0.132708919029 -0.473069273138 0.706090926926 0.116794487077 0.694894221404 0.131738744419 -0.136104151038 -0.336638783808
3.981244444000 -0.132852441294 -0.474192995142 0.706248040487 0.115404506257 0.694969224136 0.131578273408 -0.135895148313 -0.335075879725
3.981666666000 -0.135864074456 -0.473797262591 0.705704415768 0.112679912230 0.696212688526 0.126617684084 -0.136859624545 -0.333703145742
3.982088888000 -0.134766474332 -0.473478330056 0.706280418616 0.112208262159 0.695971907064 0.126799450185 -0.136386944818 -0.333427774829
3.982511111000 -0.133443916495 -0.475450267437 0.708135095261 0.111620463006 0.697567011366 0.128577904897 -0.135788845605 -0.332893711008
3.982933333000 -0.134908554022 -0.475570838848 0.709307247760 0.110402253094 0.698935957429 0.127538418069 -0.135076353971 -0.331676878558
3.983355555000 -0.135149954867 -0.473996563463 0.709012932461 0.109726486934 0.698238229558 0.125183384309 -0.135089964754 -0.329546027327
3.983777777000 -0.137135130231 -0.475874198555 0.709984211061 0.107653947834 0.700600091347 0.123257037417 -0.136187439157 -0.329160994400
3.984200000000 -0.137161978368 -0.473597269391 0.709071933864 0.107061503409 0.699019678923 0.119741273432 -0.137528402810 -0.327635963651
3.984622222000 -0.136799204215 -0.476255443774 0.710783677409 0.105574520090 0.699793159244 0.121844207642 -0.135047499615 -0.327432090666
3.985044444000 -0.138110831252 -0.476995695791 0.710943482633 0.103773660611 0.700188858652 0.119737018380 -0.135622678537 -0.326021024663
3.985466666000 -0.137851900552 -0.477925505433 0.711996653382 0.102731244597 0.701646422991 0.119626188686 -0.135365295643 -0.326174710719
3.985888888000 -0.139492420389 -0.476838137253 0.711976020139 0.101653305096 0.701612937822 0.117202181264 -0.135357707578 -0.322719685728
3.986311111000 -0.138756213637 -0.476971112315 0.713763652016 0.100578936346 0.702455485120 0.117608423905 -0.134456774151 -0.323000113269
3.986733333000 -0.141175870692 -0.477148544598 0.713643342235 0.099481794059 0.704559431450 0.114711807234 -0.135023342997 -0.320475280460
3.987155555000 -0.139677362114 -0.477081916724 0.714569859490 0.098694181694 0.702683040902 0.115671244734 -0.134029199142 -0.319957606486
3.987577777000 -0.140340528436 -0.479379325983 0.714902373148 0.097366936939 0.704755538476 0.114265351044 -0.135069242264 -0.319786855547
3.988000000000 -0.141695007499 -0.480586730814 0.715767957797 0.095164988410 0.706133399199 0.112185554184 -0.136517589829 -0.319864714539
3.988422222000 -0.142130051639 -0.481057858789 0.715402180244 0.093876101939 0.706021505712 0.111334228693 -0.135652369496 -0.319244393833
3.988844444000 -0.143183385545 -0.479998779445 0.715090250075 0.092821183281 0.705964331236 0.109094605725 -0.135636454684 -0.317545977228
3.989266666000 -0.142758612346 -0.482291486027 0.717408781831 0.090237586771 0.709617093427 0.109907526077 -0.136222318746 -0.317350121490
3.989688888000 -0.144092692686 -0.481364943455 0.717350896317 0.089550844605 0.710315303854 0.107505396335 -0.134586855464 -0.315372419768
3.990111111000 -0.143249664886 -0.481644201308 0.718838691156 0.089412170302 0.709661356699 0.108716149909 -0.132895392291 -0.313906851386
3.990533333000 -0.144280254220 -0.480864451733 0.719262662653 0.088447730878 0.710089007684 0.105769980540 -0.133676267453 -0.313863620308
3.990955555000 -0.146177497453 -0.482097563526 0.719292734469 0.086448221513 0.711768679294 0.102870035557 -0.134665030156 -0.312731882233
3.991377777000 -0.146209362873 -0.482883197853 0.719834242709 0.084284821908 0.712368265876 0.102327181798 -0.135269913862 -0.312399377874
3.991800000000 -0.147045027589 -0.483629777978 0.720360261037 0.082920525907 0.711385860686 0.101060492206 -0.134862868144 -0.310666579911
3.992222222000 -0.146615387384 -0.482995059112 0.720578532493 0.081753604636 0.710900780481 0.100162259921 -0.134013636749 -0.310480619293
3.992644444000 -0.147559153757 -0.482381271154 0.720988837685 0.079778358704 0.711248721457 0.097736886499 -0.134274379936 -0.308270440410
3.993066666000 -0.148219151736 -0.484629385915 0.722685593923 0.079229306256 0.714610258179 0.098809083181 -0.133370385338 -0.307803774119
3.993488888000 -0.149630300890 -0.483528074999 0.722639405874 0.078233365382 0.715403013725 0.096151941297 -0.133013248079 -0.306594313621
3.993911111000 -0.148640293110 -0.483424461719 0.723088263703 0.078241285980 0.714452540846 0.096313898676 -0.131664451930 -0.306260750183
3.994333333000 -0.150315752189 -0.487774287028 0.725700151512 0.074951395904 0.719336159569 0.096132781755 -0.132970671604 -0.307437848130
3.994755555000 -0.150381544449 -0.484792943400 0.723384779959 0.074554067004 0.715514388576 0.094085739874 -0.131520092727 -0.304183251016
3.995177777000 -0.150823337152 -0.486588281971 0.724584704781 0.072960991331 0.716997106724 0.093406142054 -0.132305786851 -0.304600865199
3.995600000000 -0.152091556197 -0.487181871856 0.725575894622 0.071094359605 0.718589739472 0.090611715835 -0.132512693823 -0.303539505705
3.996022222000 -0.152972105005 -0.484222114954 0.724394646113 0.070332455453 0.717810633177 0.088355818986 -0.130808287085 -0.301708016699
3.996444444000 -0.151796561637 -0.485426558747 0.726233052551 0.069748708620 0.718581634472 0.088515539048 -0.131131897007 -0.301440108426
3.996866666000 -0.153527025785 -0.485116551839 0.726200179066 0.068027407424 0.719333410817 0.086778723584 -0.130746767966 -0.299995758949
3.997288888000 -0.152825594755 -0.485805660877 0.727211313418 0.067387790171 0.718824111517 0.087285025602 -0.129606652927 -0.299081203429
3.997711111000 -0.154363675764 -0.487180475430 0.728148601699 0.066163889804 0.720465846510 0.083774201032 -0.131358363773 -0.299073975982
3.998133333000 -0.155096484679 -0.486582181180 0.726523719970 0.064123045298 0.718910609289 0.082200521296 -0.130628000828 -0.297101285779
3.998555555000 -0.157739424512 -0.487843268429 0.727699067211 0.061784463314 0.720280746478 0.079501797655 -0.132145652458 -0.295912032154
3.998977777000 -0.156487117338 -0.487272299595 0.727781941289 0.060510188077 0.719978185100 0.080520896259 -0.129951143764 -0.295834003937
3.999400000000 -0.160800077763 -0.487744614610 0.732881332669 0.057037532150 0.720473919411 0.074505080552 -0.131942397564 -0.294351971028
3.999822222000 -0.158076381538 -0.487801219198 0.730029650701 0.058635110156 0.723129193234 0.076820696248 -0.129202066988 -0.294038014959
4.000244444000 -0.159195765990 -0.487907531325 0.729924657320 0.057809988251 0.725029917815 0.075649608990 -0.128421040036 -0.293230881437
4.000666666000 -0.159376107615 -0.487740511452 0.730422317462 0.055653903226 0.723417003855 0.075295941448 -0.128224891682 -0.291801304383
4.001088888000 -0.159882947478 -0.489327224765 0.731088575488 0.055570041816 0.724899914085 0.073402006843 -0.127916534446 -0.291775906035
4.001511111000 -0.160658681313 -0.489872425545 0.730236167575 0.052607305697 0.725574339100 0.073133438359 -0.128158576637 -0.290652135560
4.001933333000 -0.159994097208 -0.490242695699 0.731725423376 0.052420848496 0.724974412245 0.071349615163 -0.128158086830 -0.290765605689
4.002355555000 -0.160886102036 -0.490336619917 0.730391700082 0.050978063961 0.726476420572 0.070941703317 -0.126636110492 -0.289507430919
4.002777777000 -0.163920907326 -0.489358598834 0.733749533155 0.047198390775 0.726185796999 0.067681866838 -0.128210579153 -0.288672097442
4.003200000000 -0.163430105570 -0.489866806354 0.734237513848 0.047100599749 0.726541363181 0.065798219766 -0.127487726777 -0.287352162653
4.003622222000 -0.164020512082 -0.490574378421 0.734298272185 0.046893468721 0.728149708364 0.065434986607 -0.126172608561 -0.286659386181
4.004044444000 -0.165659321137 -0.489922546221 0.733948808243 0.044771831440 0.728123534212 0.063595906557 -0.125993109572 -0.285908070649
4.004466666000 -0.164811469809 -0.491004903019 0.734070901576 0.044299712689 0.729151089229 0.061884339601 -0.126095757193 -0.285534233876
4.004888888000 -0.166669827220 -0.491893795308 0.736168283719 0.042433874313 0.730164830527 0.059757125759 -0.126565358055 -0.285656053055
4.005311111000 -0.166242998653 -0.490848619321 0.733235078151 0.039451011244 0.728046840039 0.062776009037 -0.124122186157 -0.283064046016
4.005733333000 -0.168879717086 -0.491323612947 0.735773013092 0.038582506264 0.730657466468 0.057588191592 -0.124718701782 -0.283477386640
4.006155555000 -0.166600121162 -0.491285647290 0.734207299294 0.038299507727 0.730832244083 0.059145143232 -0.123255437119 -0.282202151512
4.006577777000 -0.168150657379 -0.489997019660 0.735672526761 0.035557969811 0.730861701207 0.057387333881 -0.123202698769 -0.281353409520
4.007000000000 -0.168742057499 -0.490211399933 0.738554270203 0.035611625350 0.733037276782 0.053935744480 -0.124460370046 -0.281270718852
4.007422222000 -0.169913775525 -0.491589079469 0.736706859070 0.035503928363 0.732472697681 0.053271707861 -0.122180852016 -0.280020303493
4.007844444000 -0.170926033740 -0.490709256639 0.735366307819 0.031657200308 0.730824459784 0.051174109414 -0.122666751679 -0.278639144130
4.008266666000 -0.172287772428 -0.491781600909 0.736292567259 0.028951537082 0.732062063658 0.050879748073 -0.122784148691 -0.278100030599
4.008688888000 -0.172667245171 -0.491260935051 0.736166161572 0.028195165291 0.729830514555 0.049572497047 -0.121663797908 -0.276547661002
4.009111111000 -0.173784782520 -0.491767120164 0.736894526621 0.028908580343 0.732785706930 0.044436539230 -0.121759313660 -0.276765721270
4.009533333000 -0.173785135190 -0.491507567248 0.737005056856 0.024138612276 0.733186296603 0.046380527373 -0.121048700521 -0.275450251307
