# GHZ S RI R 50.000000000000
3.950000000000 -0.034418734825 0.006311423442 0.368250651155 0.912677612843 0.362433636269 0.909089420991 -0.042443099040 0.022874100437
3.950422222000 -0.034833026557 0.005106346428 0.371316190090 0.910143189463 0.363581301757 0.907857220272 -0.043310304215 0.022452555263
3.950844444000 -0.033747021077 0.004759218372 0.372496476639 0.909359093797 0.364609815750 0.906435569762 -0.042835331074 0.022905437026
3.951266666000 -0.034123809554 0.003698668463 0.375316304028 0.906697755959 0.365805404261 0.903334884151 -0.042740534444 0.022674688565
3.951688888000 -0.033849679930 0.005097415319 0.380591614365 0.905930622861 0.366481113443 0.906992383613 -0.042138727989 0.023777202267
3.952111111000 -0.034213129833 0.004328961759 0.379629127637 0.903128416695 0.368470013340 0.904063229413 -0.042121004628 0.023230534474
3.952533333000 -0.034919375259 0.005033326932 0.378711194645 0.904679181857 0.367830507720 0.903541934024 -0.042156616855 0.023622238996
3.952955555000 -0.034706786973 0.005003554053 0.381001402033 0.904981966266 0.369912721889 0.903023572975 -0.042084900623 0.024274874328
3.953377777000 -0.034190704840 0.004727921978 0.384454944731 0.902252732272 0.372129231724 0.903790826501 -0.042270484519 0.024171547654
3.953800000000 -0.033266001783 0.005722698342 0.383364807992 0.903984401237 0.373040473266 0.902465177826 -0.040912400414 0.024287960431
3.954222222000 -0.035021398892 0.005776912800 0.387035020030 0.904990493491 0.373298308811 0.904777368940 -0.042099545332 0.025090149986
3.954644444000 -0.034617274994 0.007038056591 0.390724129480 0.904739644530 0.374670111286 0.904639197051 -0.041384982310 0.025782286221
3.955066666000 -0.034758702039 0.006640267850 0.388737207176 0.902671708209 0.375346693600 0.903093628599 -0.041146039145 0.024992509857
3.955488888000 -0.034911771452 0.007397135649 0.391470677089 0.903033540558 0.377744419440 0.904624715810 -0.040978610324 0.025406773371
3.955911111000 -0.036056721845 0.007893067623 0.391135290960 0.904302143011 0.379282427860 0.904304327995 -0.041634747069 0.027129716036
3.956333333000 -0.035633094699 0.007638997117 0.389726905007 0.903531417153 0.382076238855 0.903461662544 -0.041206317675 0.027060875747
3.956755555000 -0.035703289427 0.008138111619 0.393897300632 0.904110165168 0.380152055651 0.902976567058 -0.041025739401 0.026813379515
3.957177777000 -0.035652340709 0.007570160670 0.394248261343 0.902028144467 0.381875434924 0.902273597959 -0.040868778392 0.025781329243
3.957600000000 -0.035645874715 0.009316754365 0.396534285321 0.904170635034 0.382915860364 0.903072623969 -0.040954304918 0.026996404328
3.958022222000 -0.036019067501 0.008432926405 0.395518749222 0.902605372121 0.383662718956 0.902911196050 -0.040748420669 0.026164647699
3.958444444000 -0.033895782680 0.008841806843 0.402794742487 0.902284141413 0.386684313009 0.902170852852 -0.039332361549 0.026322573274
3.958866666000 -0.035198477405 0.008833470744 0.401070206087 0.903874702451 0.388987480715 0.902611161096 -0.039952764490 0.027873685626
3.959288888000 -0.035145697678 0.010309095487 0.404625289758 0.902979212570 0.389369674429 0.903719711886 -0.039344379060 0.028784352214
3.959711111000 -0.033880344961 0.010438748225 0.406194987234 0.901602027382 0.392821268080 0.902401924410 -0.038078408859 0.027644492875
3.960133333000 -0.035361327718 0.010540431664 0.405721517531 0.902753448878 0.391597780072 0.902388684740 -0.039056507766 0.028545937902
3.960555555000 -0.033825197121 0.011409199061 0.410432671202 0.901089272985 0.394839470882 0.902603326955 -0.037763860435 0.027714218559
3.960977777000 -0.034635399212 0.011651226766 0.409746137975 0.901678671538 0.394855947835 0.901741218943 -0.038285779259 0.027923830059
3.961400000000 -0.034469664024 0.011415565151 0.410255961801 0.902827193152 0.395230462346 0.900264088149 -0.038883011528 0.028149542980
3.961822222000 -0.034713204710 0.011668064263 0.413668316281 0.900064006442 0.397181115853 0.900738461534 -0.037798799674 0.028649813027
3.962244444000 -0.034638148996 0.012706071714 0.413531251124 0.902467708310 0.399874764972 0.901967599717 -0.037566534767 0.029492238253
3.962666666000 -0.034210820371 0.013119242771 0.417077838548 0.899663500499 0.400618437288 0.900708620601 -0.037185110205 0.029674350571
3.963088888000 -0.033806446923 0.012713191322 0.417266703455 0.899007420363 0.402696991790 0.900161917729 -0.036894425148 0.028549723126
3.963511111000 -0.033483354783 0.013103732984 0.420872545498 0.900012209704 0.404790682977 0.899644988284 -0.036721563759 0.029168879480
3.963933333000 -0.034606196392 0.013504221735 0.420269808722 0.898808598654 0.406131355139 0.898729893114 -0.036075306103 0.029407488477
3.964355555000 -0.033346449834 0.013582216545 0.423087333073 0.898550475347 0.407690620422 0.900418176225 -0.036396959845 0.029701281818
3.964777777000 -0.033844468070 0.014328479817 0.421831463180 0.900585594548 0.407650532739 0.900296442826 -0.035840862406 0.029099898093
3.965200000000 -0.032770020954 0.014299850567 0.426785376926 0.899586436568 0.410586598020 0.899643285981 -0.035714943174 0.029035975197
3.965622222000 -0.033048799396 0.015235913548 0.427577930492 0.899602721270 0.411264930463 0.899557383441 -0.036137268638 0.029949997818
3.966044444000 -0.032549843730 0.015270634818 0.429126426011 0.897034357413 0.412659122347 0.899239916558 -0.034881577512 0.029962624560
3.966466666000 -0.031665628600 0.014141316360 0.431087487143 0.894203667489 0.414077295786 0.898003197869 -0.035577668440 0.027966235507
3.966888888000 -0.032804085927 0.014664349612 0.431540149402 0.895102775012 0.416823951717 0.898492280771 -0.035445555099 0.029807839317
3.967311111000 -0.032538704014 0.015823074724 0.434382953287 0.896468539455 0.416332248027 0.897542947466 -0.034331973427 0.029787661370
3.967733333000 -0.032295696785 0.016050237806 0.436679277102 0.896293853871 0.419677729472 0.897494044096 -0.034107447070 0.030149196138
3.968155555000 -0.032104324013 0.015725541932 0.438092359254 0.895622596014 0.421816408681 0.896604693206 -0.034429514640 0.029834697735
3.968577777000 -0.032168674601 0.015801330454 0.437718094511 0.894116753002 0.421100969957 0.896373004738 -0.034255001873 0.029559630529
3.969000000000 -0.033133201642 0.014057274774 0.436190907393 0.889304454166 0.425895402300 0.892935287799 -0.034909164489 0.030071644711
3.969422222000 -0.032069452326 0.016938699396 0.442560365570 0.893735924447 0.425313666403 0.895554778749 -0.033432054372 0.030087361248
3.969844444000 -0.030287506507 0.017335655999 0.445344989091 0.894957754221 0.425747227827 0.897526054825 -0.032533618597 0.029848681469
3.970266666000 -0.031236294927 0.017112114568 0.445078928192 0.893234096206 0.429709757679 0.894962238234 -0.032635159372 0.029566049824
3.970688888000 -0.030117601365 0.017074170388 0.447626058793 0.892075943190 0.430992738377 0.894443493132 -0.032145445858 0.029589498337
3.971111111000 -0.029709882749 0.017361855095 0.449188006226 0.891998444745 0.431811424783 0.895824654812 -0.032506633908 0.028668345391
3.971533333000 -0.030126123121 0.017179018062 0.449253486633 0.889834331987 0.433056153561 0.891984698799 -0.032069482377 0.029237688754
3.971955555000 -0.029441046120 0.017585233015 0.452924138648 0.889897652517 0.435250091977 0.894815048708 -0.032094977907 0.028713763862
3.972377777000 -0.029126870609 0.018151624161 0.454595794834 0.888667741809 0.436814556122 0.892849670673 -0.030917037180 0.029372299011
3.972800000000 -0.029047185558 0.018126264524 0.456292361216 0.890234660546 0.436603816775 0.894346059514 -0.031570781789 0.028722291700
3.973222222000 -0.028088325430 0.018557166779 0.458793346428 0.888386246045 0.439977204992 0.892687869975 -0.030278308708 0.028954999186
3.973644444000 -0.028454443741 0.018662351468 0.459627078977 0.888659788831 0.442174798692 0.892503810476 -0.030757277417 0.029556335511
3.974066666000 -0.028924392508 0.019083738667 0.461990670994 0.888232220532 0.443724492868 0.890013960847 -0.030666468290 0.029902539312
3.974488888000 -0.027731255075 0.018851597425 0.462481091113 0.886944122817 0.444345686375 0.891715352935 -0.029607703848 0.028990237088
3.974911111000 -0.027145632608 0.019186176501 0.464907052302 0.886863031068 0.446850559836 0.891968638469 -0.029807046731 0.029362171912
3.975333333000 -0.028031591685 0.019042125560 0.465407593571 0.885356683169 0.447656876405 0.889179262000 -0.030352778382 0.029186115662
3.975755555000 -0.026921692672 0.018625609564 0.467738770059 0.884620295402 0.451375163955 0.890201652411 -0.030351029688 0.028730619235
3.976177777000 -0.026418736935 0.019600423427 0.469466234342 0.884673005011 0.450537032045 0.889143313632 -0.028530260526 0.029047158615
3.976600000000 -0.026825716148 0.020018216768 0.470346698825 0.883745349162 0.452922831657 0.886742854520 -0.027674001866 0.028045475937
3.977022222000 -0.025671276323 0.019032254763 0.472613319466 0.882925292858 0.455105709241 0.888773950282 -0.028954249179 0.027676964606
3.977444444000 -0.025448718083 0.019782345981 0.474430969393 0.882200335533 0.454835340697 0.887104715661 -0.028027365404 0.027894356546
3.977866666000 -0.025488460515 0.019541804446 0.475423357229 0.881983285489 0.457150041153 0.888980720713 -0.028960352590 0.027691867361
3.978288888000 -0.025011087683 0.019408834957 0.477974177849 0.880552811261 0.459130420242 0.886483725141 -0.027915261599 0.028135593156
3.978711111000 -0.024626770165 0.019783616501 0.479751086797 0.879545138634 0.460114476450 0.885539262010 -0.027731560250 0.027923864988
3.979133333000 -0.023887262941 0.019759963595 0.481021357254 0.879533020751 0.462494168159 0.886138618327 -0.027719347512 0.026626958229
3.979555555000 -0.023376333936 0.019483131158 0.482860566287 0.878284856522 0.465470804616 0.886728380509 -0.027743431658 0.027446579387
3.979977777000 -0.024062654416 0.019188773896 0.482928556358 0.876544209840 0.466150421742 0.882939270682 -0.027586975098 0.026986231362
3.980400000000 -0.023061854895 0.019820718871 0.485060175753 0.876727271546 0.466975805192 0.884671204144 -0.026736477694 0.026427912682
3.980822222000 -0.023129289055 0.019264192302 0.487227561669 0.876295135389 0.470007322441 0.883635774003 -0.027581532212 0.026081253370
3.981244444000 -0.022460357665 0.019315723204 0.489267896050 0.874688806695 0.471610475174 0.884211317732 -0.026649239167 0.026690990897
3.981666666000 -0.023743077669 0.018841636059 0.489125526250 0.871663005665 0.474569051909 0.879936938292 -0.027611090118 0.027510071609
3.982088888000 -0.023213204706 0.019600651736 0.490422720557 0.873098734902 0.474122263541 0.879939074719 -0.026826384562 0.026197868854
3.982511111000 -0.021251821452 0.019563219898 0.493428484492 0.872686833660 0.476024926307 0.882527301383 -0.026197621346 0.025647450324
3.982933333000 -0.021251707833 0.018896274885 0.495952739131 0.871834014413 0.478476277059 0.881104901415 -0.026113113673 0.024724139611
3.983355555000 -0.021962113805 0.019308753959 0.495902265859 0.870166427768 0.479550849864 0.878150484614 -0.026862580757 0.025716549673
3.983777777000 -0.021796431347 0.019003141231 0.498678146608 0.868543623636 0.482031968988 0.878756608790 -0.026902412290 0.025506058965
3.984200000000 -0.021254329598 0.017694207771 0.498603562137 0.864833860063 0.484557915797 0.876468273118 -0.026470457362 0.025269043573
3.984622222000 -0.020929523406 0.019351022004 0.501115599338 0.868344320806 0.483987423392 0.876082167864 -0.025690099420 0.024915906639
3.985044444000 -0.021533754240 0.019053341248 0.502211846562 0.866808443087 0.485239455180 0.875054709682 -0.026725845765 0.025349975447
3.985466666000 -0.020039389547 0.019591019590 0.504388007057 0.867014099308 0.486197183464 0.876107472832 -0.025358171774 0.024614021539
3.985888888000 -0.020214934737 0.018625695105 0.506780905782 0.864074071281 0.490403561023 0.873096851684 -0.026302980450 0.024834901626
3.986311111000 -0.019571215131 0.019095403777 0.507535529064 0.864167293091 0.489417801254 0.873129847084 -0.025663147650 0.023954814391
3.986733333000 -0.020032678399 0.017627798072 0.508921271344 0.861903121984 0.495322630036 0.871452200079 -0.026460915373 0.024161719941
3.987155555000 -0.019783209058 0.018915702022 0.510271033289 0.861372581922 0.492628755163 0.871200255897 -0.025851006125 0.023862735056
3.987577777000 -0.018856646915 0.019590834461 0.511904502787 0.862914303592 0.495248808452 0.873149487579 -0.026380355112 0.024764609872
3.988000000000 -0.018993019600 0.017892728080 0.514676987321 0.860909956966 0.498704296028 0.871850514019 -0.026575235005 0.022744007245
3.988422222000 -0.017707577804 0.018805030394 0.515839681416 0.860409396850 0.498206419763 0.871114304386 -0.025073883646 0.023073160830
3.988844444000 -0.018384929658 0.018047949170 0.516073481279 0.858452418778 0.500516832545 0.868946667658 -0.025551604226 0.023148844173
3.989266666000 -0.017409667476 0.017599964774 0.520981329337 0.857217366383 0.503485836243 0.870323444006 -0.026191344828 0.021866325057
3.989688888000 -0.017815591309 0.017639705676 0.521023583116 0.855646190424 0.504816878300 0.867913043860 -0.026157919889 0.022548226993
3.990111111000 -0.017050949776 0.018203944627 0.521872332197 0.855895346499 0.504932710359 0.867282284655 -0.024749297705 0.022723222225
3.990533333000 -0.017105648455 0.017606332284 0.523214802299 0.854992902497 0.506647085297 0.866829594201 -0.025551744914 0.022010809848
3.990955555000 -0.017671867460 0.016908587124 0.524991129284 0.853491417064 0.510356424855 0.865158216382 -0.026793652773 0.022031927922
3.991377777000 -0.017151815185 0.016779484043 0.526899523614 0.851994079886 0.510751036402 0.865077387396 -0.026592592772 0.021607980812
3.991800000000 -0.017195912160 0.017053507770 0.528335938790 0.851382421364 0.512600569222 0.862762950654 -0.026025236851 0.021461403569
3.992222222000 -0.016807573069 0.017298953387 0.528686987266 0.850840937499 0.511411076833 0.862065538556 -0.025608428173 0.021630937297
3.992644444000 -0.017223485431 0.017124346730 0.530562772927 0.848458430337 0.513829195126 0.859276896861 -0.026433146651 0.022215993861
3.993066666000 -0.016198363523 0.016484826237 0.532529204405 0.848298769610 0.517151208601 0.861552846540 -0.025717856487 0.021588569012
3.993488888000 -0.016524483373 0.016067447239 0.533539767973 0.846039959432 0.519607128852 0.858726379109 -0.026912915384 0.021887966586
3.993911111000 -0.015762802071 0.016611167431 0.534313899150 0.847243595622 0.519088613785 0.858455934222 -0.025608455674 0.021505501331
3.994333333000 -0.015288280207 0.014739056775 0.538128850073 0.844772709261 0.521802374421 0.860793186959 -0.026183960881 0.018697249816
3.994755555000 -0.016369835304 0.016058384392 0.536623014893 0.843399952836 0.522043301886 0.856238472560 -0.026241196188 0.021025625147
3.995177777000 -0.015120909776 0.015496857212 0.540191031698 0.843762404483 0.524381108866 0.858231600890 -0.025683378029 0.019777797218
3.995600000000 -0.015664141777 0.015128966062 0.540837641356 0.842210861189 0.526988664774 0.855359151639 -0.026731285772 0.019787193795
3.996022222000 -0.016390165884 0.015080313565 0.539927170496 0.840204516855 0.527034137983 0.852525146761 -0.026349495546 0.020803775893
3.996444444000 -0.014978746301 0.015859797287 0.543727269701 0.841143813728 0.527620560579 0.854580435328 -0.026102329916 0.020090767932
3.996866666000 -0.015546115157 0.015840389087 0.544498717644 0.839216883922 0.528482871121 0.853550923187 -0.027015447573 0.020072419009
3.997288888000 -0.015381289757 0.015581254325 0.545382244892 0.838430912486 0.529681581016 0.850367256591 -0.026206158983 0.020431696654
3.997711111000 -0.015232769162 0.014418539591 0.547938760523 0.837694707914 0.534035219495 0.850887077279 -0.026751613503 0.019299613069
3.998133333000 -0.015106269411 0.014668684451 0.547502270225 0.835379124538 0.533671091543 0.847910419829 -0.026528843919 0.019993696450
3.998555555000 -0.015778172368 0.013684307726 0.549882913264 0.834303762607 0.539595371462 0.846882813781 -0.027905378997 0.019697735880
3.998977777000 -0.015191752332 0.014713376490 0.550122342464 0.833804960360 0.535624454774 0.845558773837 -0.026308330336 0.020144746995
3.999400000000 -0.015440571021 0.013783300150 0.556930404401 0.832284335487 0.541410296273 0.842059690747 -0.028554693321 0.019490944525
3.999822222000 -0.014684962884 0.013665265167 0.554491753177 0.831777844450 0.540555212086 0.845271498080 -0.026576585263 0.018975764524
4.000244444000 -0.014947899720 0.013086527711 0.554535624462 0.831384068181 0.543457824982 0.843990661179 -0.026959302648 0.019443127468
4.000666666000 -0.015221528209 0.013296761765 0.556764018836 0.829221224664 0.542773853244 0.841612506490 -0.027327700936 0.018850653428
4.001088888000 -0.014143353819 0.013037773879 0.557562810758 0.828593036988 0.545498483335 0.841782740761 -0.026691443644 0.019339372233
4.001511111000 -0.015059328974 0.013584038549 0.557891566056 0.827571953497 0.546304533494 0.841937702814 -0.027745776284 0.019425939679
4.001933333000 -0.015182303679 0.013840842390 0.559581064201 0.827069571371 0.546305666892 0.840537200123 -0.027625492463 0.019222431569
4.002355555000 -0.014480426716 0.013247474064 0.560793444974 0.824609733216 0.547919288752 0.839813574189 -0.027178301145 0.019389785764
4.002777777000 -0.015732919759 0.011641943039 0.563859952706 0.825890707302 0.552854987123 0.836315343216 -0.027690724070 0.017729733944
4.003200000000 -0.015333625968 0.012627133436 0.565566325699 0.823031816023 0.551422201792 0.835089548560 -0.028259052071 0.018537408200
4.003622222000 -0.014398486458 0.013070633169 0.565741581959 0.822682695587 0.553737202797 0.836323240990 -0.027896447018 0.019335018007
4.004044444000 -0.014169798361 0.012223481417 0.566156959554 0.821050295723 0.555313814306 0.835836301585 -0.027405509083 0.019117264060
4.004466666000 -0.015243582631 0.013072238615 0.566961938086 0.819903339578 0.554025470720 0.833668146022 -0.028146791500 0.019576680588
4.004888888000 -0.015184620891 0.011628748775 0.568439320089 0.819551530200 0.558864903461 0.832380778394 -0.028082621065 0.018109685765
4.005311111000 -0.014948798392 0.012590381087 0.569070467898 0.816663429998 0.556676385839 0.831761188956 -0.027944674358 0.019144081384
4.005733333000 -0.015389620697 0.011218834983 0.570249790741 0.816752083834 0.560962230408 0.829479017967 -0.027874023171 0.018786262567
4.006155555000 -0.014838762503 0.012586149284 0.570749208232 0.815392917015 0.559754520776 0.831308663999 -0.028286608116 0.019354048468
4.006577777000 -0.015666280211 0.011691534930 0.573844902328 0.813718690063 0.561041173604 0.828370774622 -0.028484533190 0.018530057133
4.007000000000 -0.015794389684 0.011112138136 0.580068194025 0.814755945691 0.565446284593 0.821282715959 -0.028838721542 0.019811531158
4.007422222000 -0.014824591551 0.011444969587 0.575159825345 0.812196323257 0.565648900200 0.826521927677 -0.028135866255 0.019533655953
4.007844444000 -0.016197779655 0.010780074720 0.575989052892 0.811497665134 0.566438997013 0.824481760604 -0.028183339479 0.018485573629
4.008266666000 -0.015669395832 0.011561673232 0.578790690019 0.808376412446 0.566848071609 0.822925644873 -0.028659200698 0.019556159099
4.008688888000 -0.016357875750 0.010552360990 0.578324265554 0.807840074160 0.568602143184 0.819408626612 -0.028493249249 0.019522936710
4.009111111000 -0.016489415856 0.010781682171 0.579135060262 0.807952061314 0.571501893469 0.819288854169 -0.029086319343 0.018761079284
4.009533333000 -0.015634283551 0.010822722068 0.581325374566 0.804024913829 0.570306797859 0.819526022157 -0.028681475860 0.019595816939
4.009955555000 -0.016770753653 0.010460752176 0.582178623428 0.803112224544 0.573033370804 0.815865915071 -0.029838839229 0.020019816413
4.010377777000 -0.016649054085 0.010418598860 0.584049581109 0.804360535269 0.575223800395 0.816702400794 -0.029355954926 0.019554203879
