# GHZ S RI R 50.000000000000
3.950000000000 0.210238405481 -0.369181258688 0.784478953042 0.416898289298 0.774278255704 0.413741855639 0.175638919349 -0.364272915199
3.950422222000 0.206186230521 -0.370232101968 0.786420116091 0.412718365267 0.774399927353 0.413757668339 0.173060389613 -0.365783221878
3.950844444000 0.205295573797 -0.371675255081 0.785120839318 0.412660478370 0.772306464366 0.413220229599 0.171000785634 -0.365142156306
3.951266666000 0.204031592770 -0.371123655810 0.783861610676 0.412142052928 0.772982617943 0.410822674487 0.169025456777 -0.365342806604
3.951688888000 0.203064510832 -0.372046768379 0.786268148123 0.410465899480 0.773312140831 0.410778349455 0.168579845723 -0.365158620166
3.952111111000 0.202101732899 -0.372878062123 0.787874369202 0.408474845607 0.773625514918 0.409820107638 0.167588625253 -0.366251940223
3.952533333000 0.201265469740 -0.371249341769 0.785517052345 0.410324138020 0.773671870594 0.408628428460 0.168111427898 -0.365043596182
3.952955555000 0.199763333487 -0.372405581514 0.787236994658 0.405894788025 0.774747956395 0.408119322557 0.166501791619 -0.366463499095
3.953377777000 0.199365662740 -0.373361829542 0.788897442185 0.403489585681 0.775523248600 0.406791812441 0.165335939183 -0.366934124138
3.953800000000 0.200424095955 -0.372688991301 0.788002026807 0.404363615467 0.776587868713 0.406328003227 0.165369441373 -0.366809208744
3.954222222000 0.198925243901 -0.373298420198 0.790513114481 0.405010440518 0.777385602951 0.405394309533 0.165358619371 -0.366514929749
3.954644444000 0.198681830808 -0.372992714191 0.791512294867 0.402415023480 0.777058973748 0.404472757895 0.164371016411 -0.367457707465
3.955066666000 0.198648934036 -0.372952053796 0.791179925981 0.400654738353 0.778190294171 0.404008114817 0.163700550190 -0.367072355445
3.955488888000 0.197894119764 -0.374421557443 0.794084256608 0.400081048442 0.780057198890 0.402186791375 0.164376248536 -0.367477791163
3.955911111000 0.196253275175 -0.374042045024 0.794433876542 0.399129083028 0.780529615190 0.400473894728 0.164470406121 -0.366933046736
3.956333333000 0.196740346008 -0.374055175202 0.793642626048 0.398856078635 0.781726145932 0.399924887335 0.163458066253 -0.367858153202
3.956755555000 0.195966861282 -0.373692738164 0.796619913908 0.396394566786 0.780868739212 0.399893757612 0.163086844627 -0.368825688557
3.957177777000 0.195807770980 -0.375132284572 0.796372960945 0.395541268945 0.783289461454 0.398173042830 0.162510232094 -0.368409418250
3.957600000000 0.196427481748 -0.375210640054 0.799089561242 0.394698832597 0.783376538996 0.396992901086 0.161846085393 -0.368833553600
3.958022222000 0.195788517161 -0.375134984804 0.797434971830 0.395032154580 0.783933138750 0.396818209190 0.161163485100 -0.368740764917
3.958444444000 0.195776304236 -0.375639108585 0.799793556667 0.391997998673 0.784507958759 0.396640496044 0.159873783632 -0.369955982940
3.958866666000 0.194426751412 -0.376202654261 0.800365076951 0.394606363819 0.786285653786 0.395575543061 0.161703553779 -0.368490810076
3.959288888000 0.193915724430 -0.375449851915 0.801362678753 0.389968232354 0.786831635785 0.394235853843 0.161032992852 -0.369644128351
3.959711111000 0.194819229647 -0.375836203629 0.801969052178 0.389908796431 0.788037282567 0.393827579527 0.159813225166 -0.370273982448
3.960133333000 0.193413965520 -0.375942425347 0.802804298466 0.388794269134 0.788218126265 0.392151306899 0.160088631738 -0.370385591991
3.960555555000 0.193693158589 -0.376372600456 0.804819809416 0.387381459642 0.788633149121 0.391300476108 0.159163431843 -0.371244253130
3.960977777000 0.193257827082 -0.375426593332 0.804721908068 0.386679245593 0.789378911298 0.389638469437 0.158279307320 -0.371958692874
3.961400000000 0.192876239942 -0.376233047755 0.805267491925 0.385852619697 0.789605515775 0.388808822149 0.158511555278 -0.371496244097
3.961822222000 0.191964464103 -0.376725976327 0.807076948238 0.383268257067 0.790412935601 0.388620699922 0.157618077597 -0.371119537689
3.962244444000 0.191185017745 -0.377610758322 0.808770219461 0.382594804144 0.792580201461 0.386878508616 0.157672781066 -0.372392856234
3.962666666000 0.190541826378 -0.376566638333 0.807973500992 0.381149517790 0.791893798355 0.386078909603 0.158077982337 -0.371651105435
3.963088888000 0.191617651848 -0.377781477294 0.809909949422 0.380127629446 0.793352106600 0.385332586129 0.155815210341 -0.372955410322
3.963511111000 0.190506835108 -0.377884918802 0.810281567862 0.380079543125 0.794456636954 0.383031784295 0.155938528815 -0.373139540462
3.963933333000 0.190809101297 -0.377679972527 0.811665061121 0.378657684593 0.795256118045 0.381722317010 0.154608524541 -0.373636007626
3.964355555000 0.190438786684 -0.378602412147 0.812092946113 0.376963695184 0.796172591252 0.382373882462 0.154913237756 -0.373671905087
3.964777777000 0.189896393061 -0.379239463807 0.812758572661 0.376474961881 0.797348460354 0.381186806391 0.154823247896 -0.374135484164
3.965200000000 0.190406176251 -0.380321489301 0.814642284403 0.375436346485 0.797818347623 0.379676126228 0.152658827954 -0.374116334389
3.965622222000 0.188774501693 -0.378556006377 0.815126827710 0.373663704075 0.797982009311 0.378847380155 0.153869641074 -0.375270103313
3.966044444000 0.189360100692 -0.379046741679 0.816119745181 0.371861742943 0.798392288130 0.378693944139 0.152831689860 -0.375125611967
3.966466666000 0.189466159825 -0.379829351141 0.816721836619 0.370967940037 0.799295479338 0.377593890809 0.151332657428 -0.375780544900
3.966888888000 0.187288114010 -0.381027663309 0.817063347110 0.369403346597 0.800980058842 0.375774135600 0.151630184539 -0.374972486334
3.967311111000 0.187984254430 -0.379682323192 0.818163816900 0.368264380459 0.800497127329 0.374528702115 0.151019633905 -0.376041232252
3.967733333000 0.187035296189 -0.380995330501 0.819043024131 0.366872069403 0.802099236933 0.373392075339 0.150140547674 -0.375984187480
3.968155555000 0.186555645576 -0.381761332085 0.820764453704 0.366840955795 0.802834015598 0.371444961216 0.149587587448 -0.376581228799
3.968577777000 0.186102733782 -0.381255966474 0.820743650607 0.364400479069 0.802603586713 0.371931772965 0.149476912373 -0.376675636521
3.969000000000 0.183142331244 -0.382605699079 0.823858451803 0.359342589792 0.803578038214 0.369831506731 0.147244080131 -0.375256608524
3.969422222000 0.185316512288 -0.381669074685 0.822638172633 0.362820872180 0.804387316236 0.368375929840 0.147829917861 -0.377352486846
3.969844444000 0.186143999161 -0.382897678847 0.824006155464 0.361186024138 0.805525897950 0.369666193932 0.148163443804 -0.378256451312
3.970266666000 0.184007229156 -0.383009672806 0.824369358661 0.359028371566 0.806762803080 0.365913289762 0.146284444931 -0.378637266476
3.970688888000 0.184040446083 -0.383424229010 0.824299493901 0.358334184034 0.807329711026 0.365317516813 0.146313408699 -0.378206164596
3.971111111000 0.184561833497 -0.383928981224 0.825495579105 0.357159526125 0.808489266267 0.365425430862 0.145339541778 -0.379312087274
3.971533333000 0.183059790722 -0.383416712087 0.826853674420 0.355606908871 0.807308293512 0.362506600025 0.144736330924 -0.379359298275
3.971955555000 0.182791434121 -0.384505467668 0.827005807615 0.354413662830 0.810018711107 0.363076241203 0.144197888596 -0.379785664189
3.972377777000 0.181936858228 -0.384047109485 0.827481372304 0.352523927745 0.809586131733 0.360873056479 0.144110707269 -0.379816536012
3.972800000000 0.182533749123 -0.385217645342 0.828168954978 0.352223760563 0.810888240157 0.361459804243 0.143428892797 -0.380321510481
3.973222222000 0.181997370933 -0.384863518936 0.828827292810 0.351034940264 0.811533682621 0.359406012407 0.143195002982 -0.381252296425
3.973644444000 0.180752675533 -0.385503948951 0.829417161207 0.348832069814 0.813011885966 0.358343281847 0.142153738654 -0.381133196053
3.974066666000 0.179127486081 -0.384776026423 0.830568945920 0.347805560514 0.812396259820 0.355414641359 0.141701923628 -0.380890350853
3.974488888000 0.180975622060 -0.386383007782 0.831381167590 0.346032682068 0.814471551918 0.356498692982 0.140908817353 -0.382749917368
3.974911111000 0.179922567881 -0.387551377728 0.832287642159 0.344789427801 0.814957013977 0.355213724315 0.140135992736 -0.381602137758
3.975333333000 0.178795981912 -0.386264227511 0.832955716093 0.343745569536 0.815051000870 0.353380543688 0.139677577445 -0.381995496684
3.975755555000 0.178080946760 -0.388554237147 0.833785807000 0.341944272190 0.816906602107 0.352217442260 0.138266537586 -0.382121077378
3.976177777000 0.178888508955 -0.387309237030 0.833977701106 0.341214454566 0.815542283347 0.352607578833 0.139028935378 -0.381953725387
3.976600000000 0.177863537937 -0.387900635566 0.835297678433 0.340174168484 0.814988384018 0.348528147332 0.136176479477 -0.382488622154
3.977022222000 0.177708667199 -0.389467978706 0.835931129294 0.338508269717 0.818476156002 0.349566819830 0.136723400006 -0.384085176861
3.977444444000 0.177232571209 -0.387546100434 0.836043991157 0.337669240636 0.817254664705 0.348281284618 0.136935086385 -0.384284104093
3.977866666000 0.177633815481 -0.389584251071 0.837161505126 0.335508166391 0.819597324110 0.349098818591 0.135319655834 -0.383899911885
3.978288888000 0.175997492302 -0.389393692849 0.837517923705 0.334598836372 0.819722722317 0.346289941449 0.135531368464 -0.384318617060
3.978711111000 0.175831619155 -0.389656978736 0.838125118230 0.332814686451 0.820136798453 0.344483954049 0.134289132896 -0.385002510866
3.979133333000 0.175541602595 -0.391601391518 0.839033362848 0.332258545285 0.821819661527 0.343862701237 0.133877975972 -0.385230968192
3.979555555000 0.174912552166 -0.391938141574 0.839545533891 0.330253319516 0.823480310638 0.343513349987 0.132808565176 -0.385405703515
3.979977777000 0.173380153304 -0.390999041514 0.839526092041 0.329488353140 0.822723950746 0.340858047190 0.132769925941 -0.385280513536
3.980400000000 0.174300024152 -0.391561090200 0.840641611346 0.328148114617 0.823412726360 0.341575689109 0.131997049991 -0.386286686107
3.980822222000 0.173178162573 -0.392703798850 0.841814387394 0.326747274282 0.824590005944 0.339778322396 0.130589398875 -0.386208294276
3.981244444000 0.172994124556 -0.393449436869 0.842311228065 0.324933633885 0.825790084799 0.339491359679 0.130385272646 -0.386428078114
3.981666666000 0.170265349737 -0.393250980944 0.842114959244 0.323448856112 0.825760894501 0.334434926897 0.128333022936 -0.384627832551
3.982088888000 0.171072851239 -0.392783796745 0.842618062175 0.322614616592 0.826404296389 0.335042023054 0.129098922580 -0.386663041362
3.982511111000 0.171907943681 -0.394495029852 0.844167043543 0.321308344654 0.827829656710 0.335709280797 0.128110617742 -0.388026846576
3.982933333000 0.170466070488 -0.395179413994 0.844599168566 0.319911254382 0.829207761548 0.333725494642 0.127391217465 -0.388552885527
3.983355555000 0.169127630049 -0.394016526333 0.845114204202 0.318089587582 0.827834874008 0.331831908270 0.126648130258 -0.387016514097
3.983777777000 0.168133373049 -0.395742206878 0.845957371499 0.316249906546 0.829731737744 0.330230598899 0.124776399759 -0.387396911986
3.984200000000 0.166779209930 -0.394016559341 0.846195229410 0.315133357224 0.828194730836 0.329398598767 0.124552311013 -0.386502346291
3.984622222000 0.167790328142 -0.395376485453 0.846808190673 0.314784771462 0.829578784820 0.328122823271 0.124880054438 -0.387878809165
3.985044444000 0.166702372490 -0.395872988718 0.847576375360 0.313168117392 0.829943243896 0.326649106275 0.123452928850 -0.387057612288
3.985466666000 0.167707816697 -0.396267923762 0.848289985725 0.312072440206 0.830870392364 0.327585281414 0.124195086255 -0.388448641543
3.985888888000 0.164883476665 -0.397359111271 0.848013107108 0.309720678695 0.833210288028 0.323094273159 0.121668452450 -0.388388568315
3.986311111000 0.165749548977 -0.396826577177 0.849346414636 0.309462565679 0.831589941118 0.323226813026 0.121473976236 -0.389054582480
3.986733333000 0.163146473213 -0.398684343404 0.849579024046 0.306868044439 0.834805088328 0.320675503703 0.120029636895 -0.388417963354
3.987155555000 0.164113059047 -0.397216250075 0.850090171056 0.305777620069 0.833156928829 0.321580353338 0.120355955768 -0.388763771760
3.987577777000 0.164802246197 -0.399531285914 0.851413029808 0.304888584794 0.835477003496 0.320167208721 0.119037117749 -0.389160542839
3.988000000000 0.163308428923 -0.400190071148 0.852464304899 0.303200465434 0.837713130054 0.319375480313 0.117881572225 -0.390762932713
3.988422222000 0.163493533377 -0.400161320096 0.852775326081 0.302663666476 0.836235912586 0.318462623861 0.118521608403 -0.390403316402
3.988844444000 0.161770948837 -0.399656346793 0.852662251400 0.301002513041 0.837195182014 0.316868731078 0.118032503444 -0.390411879829
3.989266666000 0.161752345576 -0.401137236310 0.853986298616 0.298593926127 0.838833381943 0.316919406815 0.115165439112 -0.391281461022
3.989688888000 0.160324383274 -0.401553386602 0.853753042730 0.297150894310 0.839309261649 0.313928182060 0.115153557644 -0.390363506192
3.990111111000 0.161022803616 -0.401545129543 0.854624990719 0.296728869384 0.838947757646 0.313447115243 0.115335919433 -0.390891805809
3.990533333000 0.160210927394 -0.401880129900 0.856039948188 0.294947458226 0.840339191134 0.313504873748 0.115379522297 -0.392021428383
3.990955555000 0.158410402550 -0.403110893158 0.856335156805 0.293560468026 0.841901297601 0.310176840693 0.112845502659 -0.391328503283
3.991377777000 0.158086941366 -0.403315531066 0.856658096104 0.291571333664 0.842729128474 0.309243022712 0.111749606472 -0.392397380880
3.991800000000 0.156701214448 -0.404482092413 0.856452103226 0.289282352689 0.843967009391 0.304495385340 0.109712066608 -0.393144035811
3.992222222000 0.157806727212 -0.402530337168 0.857726712980 0.289960567043 0.841880878814 0.308183686669 0.112510068586 -0.392294434917
3.992644444000 0.155761747667 -0.402489025398 0.857474569761 0.287426228199 0.841322023846 0.304055630089 0.109760670614 -0.390945852071
3.993066666000 0.155989938784 -0.404765295984 0.858772513897 0.286292452387 0.844716472305 0.305190360434 0.109781398392 -0.392273152846
3.993488888000 0.153164761975 -0.404501023483 0.858023967535 0.284702653489 0.844503917363 0.300325646964 0.107621941914 -0.391481274380
3.993911111000 0.154663314312 -0.404353147951 0.859686770401 0.285259672204 0.843547679290 0.301804368805 0.109431460718 -0.392098213941
3.994333333000 0.154170605688 -0.407617798486 0.861274799396 0.282202793134 0.848251641350 0.301734698736 0.106586529225 -0.394734135526
3.994755555000 0.152684504926 -0.404701169934 0.859902387312 0.281822601498 0.845222610011 0.299960311425 0.107959848695 -0.391547521729
3.995177777000 0.152746987313 -0.407130153642 0.861508716644 0.279563111739 0.848665253813 0.299421329046 0.106597824893 -0.394523232218
3.995600000000 0.151514727486 -0.406952906899 0.862066651431 0.279282003456 0.848473566167 0.296427096355 0.104876543424 -0.393523198177
3.996022222000 0.149723491463 -0.405346986043 0.861173414293 0.278266317081 0.847766227121 0.295311126321 0.106322739754 -0.392758059245
3.996444444000 0.150726788029 -0.406760016770 0.862721834068 0.276372481538 0.848975471930 0.294610930394 0.104384548890 -0.394727826287
3.996866666000 0.149896428633 -0.407205780824 0.863721342117 0.274787041171 0.850571449958 0.294215193538 0.104455144458 -0.394588108257
3.997288888000 0.149773443298 -0.406435154533 0.863604207114 0.274453270332 0.848481200249 0.293244704228 0.104255825113 -0.393425763264
3.997711111000 0.148315712701 -0.408426947695 0.865421532502 0.272701740703 0.851910338325 0.290637198344 0.102185985339 -0.395262898400
3.998133333000 0.147538480907 -0.407603161366 0.864138534997 0.271063129078 0.851024395762 0.290050372679 0.102785942215 -0.393721611633
3.998555555000 0.145206149680 -0.408802281958 0.864994223937 0.269543889352 0.853053526962 0.286033816822 0.099968559503 -0.393718677006
3.998977777000 0.146016557069 -0.406917301586 0.864619270724 0.268959431212 0.849236483424 0.286915289402 0.101215913020 -0.393032621489
3.999400000000 0.141748290840 -0.409318586907 0.870864906235 0.264354094644 0.850243955524 0.279810683864 0.096345665109 -0.393832812219
3.999822222000 0.144456581693 -0.409335976936 0.866419874196 0.265699920694 0.853755696638 0.285547466759 0.099951416670 -0.394761476229
4.000244444000 0.142696964654 -0.409871757822 0.866772893449 0.264397859564 0.853273892033 0.281437888631 0.097888728030 -0.393941879888
4.000666666000 0.142924631781 -0.409697444483 0.867464196064 0.262622008752 0.853807950344 0.282977516410 0.098292518127 -0.393999923483
4.001088888000 0.142385547718 -0.410629304242 0.866930921691 0.262185826496 0.855620636523 0.281858704400 0.098629840684 -0.394051633029
4.001511111000 0.141585095814 -0.411073365592 0.868563819055 0.260606685742 0.856008603158 0.278992981018 0.096180688214 -0.394109655554
4.001933333000 0.141439370054 -0.409904417967 0.868529997335 0.258216455165 0.854310342379 0.279560751896 0.096257771819 -0.393932755309
4.002355555000 0.140202825965 -0.411283846095 0.868372779812 0.257485227078 0.857032068430 0.277640911147 0.096244630358 -0.394459040355
4.002777777000 0.137921345041 -0.411969962339 0.872115622600 0.256987497048 0.858084287039 0.273263682888 0.093322416607 -0.396538879890
4.003200000000 0.138262692889 -0.411957017535 0.871373637299 0.254283507678 0.858722379712 0.273572168990 0.093266176617 -0.395841709184
4.003622222000 0.137897602388 -0.412546447456 0.870584495800 0.253725888091 0.859249430324 0.273123050275 0.093693361398 -0.394879147238
4.004044444000 0.136311146993 -0.413099721866 0.870615096138 0.252841272382 0.860755581539 0.271112443411 0.093534740429 -0.395690412859
4.004466666000 0.136129171574 -0.412048006200 0.869908723903 0.251131677904 0.859400596590 0.269359306203 0.091945489125 -0.394496055188
4.004888888000 0.135152298601 -0.412949876637 0.871898493300 0.251255357145 0.862541793723 0.268293262202 0.091850027762 -0.396695566202
4.005311111000 0.134628483859 -0.412782351265 0.871466975428 0.247666397851 0.859306570603 0.268138774222 0.091305503790 -0.394177624117
4.005733333000 0.132759655869 -0.413852560387 0.872290071224 0.247966891879 0.863529184182 0.265884391331 0.091486037099 -0.396305149084
4.006155555000 0.133684498274 -0.413444482381 0.872333952076 0.245490781542 0.861880661823 0.266009336676 0.090128555289 -0.395212774792
4.006577777000 0.131398014725 -0.413293017233 0.873480367894 0.242686757449 0.862296467800 0.263610285738 0.088553520947 -0.395933621463
4.007000000000 0.129189913853 -0.412843602031 0.877698331967 0.237163895319 0.857485714081 0.259202330471 0.085032243329 -0.394217405371
4.007422222000 0.130064073003 -0.414787594328 0.872607871066 0.242800971982 0.865211143895 0.260982865741 0.089023739632 -0.395666481361
4.007844444000 0.129308375847 -0.414995221727 0.875499442848 0.240726313222 0.865481842236 0.259293482821 0.087551181666 -0.396609050576
4.008266666000 0.127558420157 -0.414666088566 0.875177133354 0.236695461927 0.863352533405 0.256941564796 0.085835513404 -0.394657251529
4.008688888000 0.126585700118 -0.414797325691 0.874436663324 0.238180493749 0.866032906807 0.254018516509 0.085826348314 -0.395602822149
4.009111111000 0.125130771807 -0.415402228300 0.876893827564 0.237090900008 0.866167896648 0.252369051418 0.085010928402 -0.395783635916
4.009533333000 0.126521248482 -0.415128890398 0.874664678305 0.233657977845 0.866205768368 0.256346222153 0.085747397741 -0.395044061697
4.009955555000 0.123712239590 -0.414714517516 0.875481786544 0.231452025208 0.865304573692 0.251052527191 0.083677214026 -0.393733349693
4.010377777000 0.123451261625 -0.415291744275 0.877226714315 0.232088899972 0.866171672901 0.249380360924 0.083031665438 -0.395440459448
