# GHZ S RI R 50.000000000000
3.950000000000 -0.041450495072 0.002071673009 0.366531760125 0.909006295811 0.358782777642 0.905441483578 -0.041228567634 0.020738794050
3.950422222000 -0.042694511455 0.000773664893 0.365289590236 0.908025767331 0.357631381466 0.904102798734 -0.043729636425 0.020223427402
3.950844444000 -0.041167612122 0.000475770209 0.371117837621 0.907001849813 0.358146707453 0.903721960857 -0.042551111375 0.020778660932
3.951266666000 -0.042207967316 0.000452063932 0.372349074801 0.903881043803 0.359698299897 0.904958847988 -0.044148131730 0.021377983956
3.951688888000 -0.042232892636 0.000835095033 0.371561433625 0.905148953512 0.359406099846 0.901962422239 -0.043377282561 0.021615488547
3.952111111000 -0.043098183749 0.001103980981 0.372680589483 0.906728121078 0.358511317245 0.902388104413 -0.044368809719 0.022001404489
3.952533333000 -0.042657302426 0.001651041392 0.373683382434 0.902716719109 0.363011596289 0.902262940836 -0.043244895870 0.022652320443
3.952955555000 -0.042744917919 0.001778458222 0.377693230570 0.905029481715 0.362791608999 0.903380823502 -0.043865375655 0.023159509946
3.953377777000 -0.041756511348 0.000855277748 0.381392724706 0.900544707815 0.365995052464 0.901404992543 -0.043027638397 0.022365984274
3.953800000000 -0.041385066161 0.002018871074 0.378298078652 0.902090675301 0.365640409301 0.901015182783 -0.042532033046 0.022251433261
3.954222222000 -0.042824665172 0.001747332563 0.381101979138 0.902182987608 0.367481226807 0.902098123482 -0.043242071881 0.023161015357
3.954644444000 -0.042402406810 0.002790521121 0.385651489781 0.901191385613 0.368584609107 0.901652943373 -0.042300347864 0.023534907918
3.955066666000 -0.041921166385 0.002480920800 0.385312510963 0.899749512444 0.370385621219 0.899630317421 -0.041493424450 0.023276753110
3.955488888000 -0.043007215902 0.003252537633 0.384267025586 0.900845300754 0.371633396678 0.901387485292 -0.042385844205 0.023697842244
3.955911111000 -0.043343288871 0.003589003033 0.388057405874 0.901026192975 0.373508960841 0.900916604335 -0.042269724016 0.024887518159
3.956333333000 -0.043094331223 0.003066209962 0.388152522615 0.900259375741 0.374243446341 0.899870154570 -0.041565101118 0.024079051317
3.956755555000 -0.042910702832 0.004205193659 0.391018700813 0.900891721981 0.374834955760 0.901310132555 -0.042061481652 0.024995731157
3.957177777000 -0.042042729899 0.004028350843 0.394060474252 0.899866387716 0.378141866851 0.900920215831 -0.041106021862 0.024934835847
3.957600000000 -0.043002315382 0.005385590259 0.393574218129 0.902016581483 0.377118629857 0.900715407413 -0.041747601103 0.025484523568
3.958022222000 -0.043179999356 0.004743005746 0.392169612522 0.901985711055 0.378270851705 0.900847895234 -0.041644063524 0.025126030225
3.958444444000 -0.042564435166 0.005131176522 0.395049071930 0.900283234262 0.378679725431 0.901777608908 -0.042486484987 0.024377425700
3.958866666000 -0.043706906017 0.004349919947 0.393358461834 0.897442054615 0.382115685282 0.901730709850 -0.043059292903 0.025349958501
3.959288888000 -0.044136947665 0.006325577746 0.394886513403 0.901696528133 0.381194831867 0.901432083914 -0.042451861051 0.026720862551
3.959711111000 -0.042262264774 0.007049261114 0.400878167713 0.900523587166 0.384498026749 0.902564707334 -0.041155137088 0.025702775309
3.960133333000 -0.042768542683 0.006288681906 0.402338304359 0.899071921774 0.385583065466 0.899996091585 -0.040477346103 0.026394759336
3.960555555000 -0.041559178483 0.007698111306 0.405787484186 0.900284104249 0.387926578065 0.900442825078 -0.039515047952 0.025896126857
3.960977777000 -0.041949940367 0.007451878705 0.405707750621 0.898737709646 0.389522212786 0.899117656278 -0.039814928629 0.025990870467
3.961400000000 -0.040502439313 0.006722269742 0.410244832383 0.895092856744 0.392449300500 0.898735291206 -0.039741454663 0.026353048827
3.961822222000 -0.042906545096 0.008082463559 0.407610217699 0.899869688132 0.389254037252 0.899216884263 -0.040386845058 0.027184002984
3.962244444000 -0.042510746497 0.008317867331 0.409044753081 0.899267518964 0.392517930047 0.899025723586 -0.039423897644 0.026860858999
3.962666666000 -0.042687896864 0.009077955456 0.409708133074 0.898965771571 0.392564697086 0.897740218463 -0.039599581804 0.027674485629
3.963088888000 -0.041989700407 0.008497027736 0.411128405158 0.897055731693 0.394979921796 0.897545806353 -0.039344754071 0.026479066437
3.963511111000 -0.041523222453 0.008840145763 0.414983005186 0.896779954462 0.398203762289 0.897690158493 -0.039209013654 0.027255571165
3.963933333000 -0.042081926974 0.009460553308 0.416803401781 0.895872231031 0.399282583209 0.897370310187 -0.038424767753 0.027261544793
3.964355555000 -0.041662486576 0.009485540297 0.416420242307 0.897006034997 0.399384464717 0.898328133574 -0.039253859580 0.027273882801
3.964777777000 -0.040998600256 0.010567964152 0.419112959347 0.898364407501 0.401695853964 0.899195459591 -0.038060185202 0.027325163565
3.965200000000 -0.040894478735 0.009505363056 0.420007030008 0.895102656811 0.403719662468 0.897210328562 -0.038573845818 0.026648227289
3.965622222000 -0.040565386830 0.010608491615 0.423425301482 0.894990561236 0.404612329819 0.897138011435 -0.038524391671 0.027360651340
3.966044444000 -0.041097479833 0.010974100916 0.422268991598 0.894510835369 0.404525617553 0.896811794112 -0.037804935083 0.027673500152
3.966466666000 -0.039947215873 0.010406507643 0.424944131847 0.895106452728 0.406160028960 0.895907535769 -0.038232919040 0.026366075757
3.966888888000 -0.040715185993 0.010435129798 0.426709952178 0.893714597965 0.409522576128 0.895472017165 -0.037551432448 0.027869598432
3.967311111000 -0.039813176369 0.011470723030 0.430139335193 0.893281283281 0.410745246218 0.895054541521 -0.036684458137 0.028104456054
3.967733333000 -0.040216889663 0.011406247861 0.430993842589 0.892326344115 0.412883594605 0.895088804305 -0.037074111416 0.027827227601
3.968155555000 -0.040459668913 0.011022877092 0.431171948354 0.892774086525 0.414568526746 0.893167596259 -0.037010902825 0.027715448257
3.968577777000 -0.039282158165 0.012015209392 0.435211416768 0.893104832413 0.414484973198 0.894674395215 -0.036451905144 0.027897293884
3.969000000000 -0.038957193768 0.012778201512 0.440853156107 0.893336294308 0.418863369635 0.895178384813 -0.037029890558 0.028578002601
3.969422222000 -0.039527886656 0.012700299391 0.438123893583 0.891040425397 0.418820223414 0.893451108433 -0.036104127263 0.028013505358
3.969844444000 -0.037691011317 0.012078986069 0.440213934999 0.888643922647 0.419628716038 0.895101315664 -0.035859379724 0.027246098351
3.970266666000 -0.038574360161 0.012551588631 0.440802788652 0.889681123817 0.423394213942 0.892385800208 -0.035454437815 0.027264032721
3.970688888000 -0.037858756508 0.012401536455 0.443015216537 0.887937580547 0.424466022781 0.891973801125 -0.035169069021 0.027162515883
3.971111111000 -0.037825062708 0.012646809713 0.442748293308 0.888811310731 0.424846824188 0.892847996289 -0.035467842341 0.026708147974
3.971533333000 -0.038046454423 0.014120491044 0.445661091344 0.890333481710 0.425167650951 0.891057954836 -0.035229298378 0.027107213604
3.971955555000 -0.037211360352 0.012925261780 0.447509002748 0.887195437224 0.428709356811 0.891884989699 -0.034946581047 0.026592072149
3.972377777000 -0.037403773012 0.014564670577 0.448761297416 0.889271002996 0.429236273020 0.890836067209 -0.033900940209 0.027733906436
3.972800000000 -0.037217474350 0.013130360266 0.448752854320 0.886129154766 0.429902548346 0.891359521329 -0.035015545555 0.026890371706
3.973222222000 -0.035840423625 0.014763008612 0.454238163787 0.886803478826 0.432558098825 0.891049374354 -0.033731757956 0.026555569565
3.973644444000 -0.036069517488 0.014207999801 0.454533907438 0.885661031842 0.435528973319 0.890391158752 -0.034080660041 0.027685764819
3.974066666000 -0.036810464567 0.014635000101 0.456587784146 0.885599481820 0.436806402345 0.887379231422 -0.033788086705 0.027872955503
3.974488888000 -0.035281807891 0.014782271134 0.458068506970 0.884517264727 0.437529100386 0.890483625018 -0.033268677502 0.026771177953
3.974911111000 -0.034976240041 0.014456768326 0.459388184595 0.883274849268 0.439612363268 0.889799613455 -0.033388760258 0.027286296500
3.975333333000 -0.035593210333 0.014967938018 0.461664167367 0.883679976003 0.440278438240 0.887435782218 -0.033621649181 0.027076838767
3.975755555000 -0.034307367421 0.014719048062 0.464155719404 0.882980568415 0.444274479888 0.888483305991 -0.033766831849 0.026740866029
3.976177777000 -0.034374937880 0.014573895752 0.463384626936 0.880434639603 0.442929462738 0.886520089353 -0.032473374220 0.026623113604
3.976600000000 -0.034056182113 0.015710824545 0.466747408261 0.881549436452 0.445735885420 0.885019796604 -0.031277245430 0.026116370402
3.977022222000 -0.033516915987 0.014430291041 0.467558224837 0.879767182776 0.447665748581 0.886673455933 -0.032569988814 0.025434161907
3.977444444000 -0.033627403024 0.014920151753 0.467956777736 0.878840742308 0.447440478473 0.884457304368 -0.031870796375 0.025697610412
3.977866666000 -0.033313012529 0.014982804428 0.470171678553 0.878839608606 0.449895646315 0.886653229148 -0.032730255739 0.025388909920
3.978288888000 -0.032834387860 0.015242640131 0.473190292702 0.878344461012 0.452089359192 0.884557596562 -0.031741451503 0.026130033620
3.978711111000 -0.033009934931 0.015036520769 0.472547024193 0.876830404607 0.452700253279 0.883207118188 -0.031854945544 0.025892190463
3.979133333000 -0.031778654930 0.014846764119 0.475373573365 0.876404346237 0.455519728508 0.883550832420 -0.031420642729 0.024718603747
3.979555555000 -0.031613050521 0.015308256322 0.476885834335 0.876372805041 0.457895190669 0.884939728229 -0.031830781327 0.025414968412
3.979977777000 -0.031900729268 0.014608057770 0.477843709812 0.873777262486 0.458851141261 0.880675102406 -0.031547410935 0.024698815428
3.980400000000 -0.031280758081 0.015717457938 0.479285357291 0.875321494274 0.459238372170 0.883051364188 -0.030973423750 0.024716286728
3.980822222000 -0.030940476361 0.014598020479 0.481781434785 0.873352335314 0.462470654188 0.881535296093 -0.031588006184 0.024243726033
3.981244444000 -0.030498446531 0.014650934421 0.483632652359 0.872007172506 0.463812653501 0.882332413329 -0.030898946618 0.024749147830
3.981666666000 -0.032037293958 0.015171889769 0.483819410348 0.871442895809 0.466869146307 0.878363269927 -0.031659389451 0.025542744591
3.982088888000 -0.031048944622 0.015084330266 0.485115771330 0.870499020722 0.466842705617 0.878044261060 -0.030830134889 0.024090047215
3.982511111000 -0.028996743610 0.015173673726 0.488754822077 0.870125483067 0.468730435102 0.880741250450 -0.030499083914 0.023435568708
3.982933333000 -0.029666012999 0.014449633791 0.489293109884 0.870164474306 0.471062995539 0.879083362123 -0.030607763883 0.023048401677
3.983355555000 -0.029710940424 0.015102620055 0.491187122455 0.867834280383 0.472193960480 0.876242404710 -0.031068015801 0.023434761522
3.983777777000 -0.029836734397 0.014454539438 0.492895114408 0.865978336517 0.474758784093 0.876957910399 -0.031181250859 0.023314763226
3.984200000000 -0.028887142242 0.013526555525 0.494242634650 0.862921078384 0.477001193642 0.874628178581 -0.031321513510 0.023057246759
3.984622222000 -0.028961321110 0.014730881231 0.495039249668 0.865907630817 0.476656926901 0.874163526891 -0.030196884658 0.022821250165
3.985044444000 -0.029401318694 0.014429302980 0.496314888914 0.863780002608 0.477874636073 0.873173124739 -0.031435212623 0.023124897622
3.985466666000 -0.028269151000 0.015146170451 0.497967766530 0.864926811328 0.478785576362 0.874166503587 -0.030072542008 0.022803536626
3.985888888000 -0.028586806992 0.014210441912 0.500258608555 0.861777549666 0.483059960722 0.871624907372 -0.030672637646 0.022843655421
3.986311111000 -0.027751511851 0.014390450978 0.501216848152 0.861391327581 0.481830404905 0.871544421558 -0.030517065986 0.022004968863
3.986733333000 -0.027904040184 0.012936058766 0.502869854704 0.858758210256 0.487725976426 0.869940526542 -0.031136535694 0.022277961326
3.987155555000 -0.027854262435 0.015006468594 0.505217723548 0.860397854762 0.485318140573 0.869626457225 -0.030332713767 0.022004588966
3.987577777000 -0.026853951670 0.014758265021 0.505707191578 0.859842685281 0.487871235372 0.871593975195 -0.031065562218 0.022797849147
3.988000000000 -0.027037310930 0.013107033286 0.508116906780 0.858328006277 0.491678974513 0.870274093474 -0.031417545727 0.020816354708
3.988422222000 -0.025401287822 0.014179432930 0.510648546332 0.857393642982 0.490989660676 0.869290807141 -0.029887570749 0.020863644421
3.988844444000 -0.026123348279 0.013941150659 0.511180075802 0.856275553357 0.493707382643 0.867093067261 -0.030245205392 0.021025043699
3.989266666000 -0.025505539643 0.012424256802 0.514117982749 0.853434778463 0.495884541223 0.869388902027 -0.031317463770 0.020040610858
3.989688888000 -0.025886238402 0.013198680985 0.515194942168 0.853549758548 0.497943319211 0.866281245054 -0.031024414255 0.020542413696
3.990111111000 -0.025019438430 0.013547564860 0.516495223748 0.853156915156 0.497766617894 0.865218634489 -0.029871819873 0.020567216851
3.990533333000 -0.025083880335 0.013008031156 0.517734482604 0.852339153227 0.499707462081 0.865217724305 -0.030470519759 0.019893538387
3.990955555000 -0.025450440997 0.012282650476 0.519634545515 0.850832615950 0.503490521300 0.863654836889 -0.031781673805 0.019882188849
3.991377777000 -0.024941924616 0.012472695749 0.521823351977 0.849790698410 0.503971405912 0.863501915257 -0.031520615526 0.019592553936
3.991800000000 -0.025056752677 0.011999162582 0.522162781705 0.847782110044 0.505038249519 0.861846101246 -0.031327302445 0.019621310750
3.992222222000 -0.024682322605 0.012718219033 0.522964160180 0.848293071679 0.504205556572 0.860865124609 -0.030630500846 0.019845076281
3.992644444000 -0.025274935778 0.012289340907 0.524355140219 0.845773665977 0.506272857514 0.857966039994 -0.031637298603 0.020354704198
3.993066666000 -0.024287992333 0.011731729549 0.526747519240 0.845714726036 0.509526085779 0.859406214848 -0.031145299559 0.019444367196
3.993488888000 -0.024506289997 0.011475082250 0.527755464755 0.843258970913 0.511817965540 0.857369881295 -0.032239826730 0.019851242667
3.993911111000 -0.023837029010 0.012529126679 0.528683900382 0.845507275321 0.511210728810 0.856541261658 -0.030778330811 0.019615200741
3.994333333000 -0.023436024276 0.010403189652 0.531788734412 0.842704393898 0.514035724994 0.859327964192 -0.031582970017 0.016970865927
3.994755555000 -0.024458948156 0.011811015885 0.530600808136 0.841432952244 0.514119303074 0.855123407475 -0.031614281020 0.019265811896
3.995177777000 -0.023074491203 0.011223551348 0.534148884033 0.841688260049 0.516450398617 0.856829993317 -0.031193521269 0.017934949416
3.995600000000 -0.023931644994 0.010959897016 0.534811394150 0.840361466193 0.518989499639 0.854548450477 -0.032082520521 0.018127774522
3.996022222000 -0.024161768542 0.010554764265 0.534498805781 0.837820041025 0.519541355203 0.850390536514 -0.031887127689 0.018685056712
3.996444444000 -0.023148589577 0.011370926903 0.537819614574 0.839248846109 0.519973766706 0.852779608098 -0.031567569258 0.018397192265
3.996866666000 -0.023563304615 0.011592328749 0.538978218813 0.837108175196 0.520560471224 0.851155786397 -0.032620058046 0.018229589137
3.997288888000 -0.023226823404 0.011300177778 0.539347732564 0.836096555887 0.521995343479 0.849928552631 -0.031795308601 0.018629217982
3.997711111000 -0.023366927381 0.010117806633 0.542021588835 0.835767038939 0.525870347886 0.849204704801 -0.032373878477 0.017448539822
3.998133333000 -0.023591466211 0.010624156897 0.541441625682 0.833741183446 0.525582632146 0.846901544399 -0.032048088734 0.018262694329
3.998555555000 -0.023846536149 0.009824888204 0.544433102203 0.832625035771 0.531477637420 0.844472414503 -0.033368796408 0.017815411999
3.998977777000 -0.023344142984 0.010407606931 0.543747916607 0.832044502885 0.528389211715 0.844771275840 -0.031946323172 0.018430764289
3.999400000000 -0.024351146917 0.010059571281 0.550918582872 0.831191733752 0.532679339237 0.839393465297 -0.034297260001 0.017641839362
3.999822222000 -0.023247594156 0.008950740601 0.548393371862 0.830071231260 0.533392983561 0.842332086697 -0.032320185529 0.017208706192
4.000244444000 -0.022175090594 0.009090935790 0.548964040633 0.828630636024 0.535336395723 0.844005618070 -0.032794287259 0.017673013938
4.000666666000 -0.023417790212 0.009376497120 0.550836068015 0.827641579547 0.535074504779 0.841237778261 -0.033095181138 0.017106642518
4.001088888000 -0.022569473664 0.009046929874 0.551571637827 0.827154762712 0.537845746806 0.840809949174 -0.032347133206 0.017633922362
4.001511111000 -0.023498807527 0.008946141229 0.551850327336 0.825167864741 0.538943468208 0.840301231593 -0.033582215360 0.017560676887
4.001933333000 -0.023227100142 0.009733125136 0.553777836625 0.825178800730 0.537809887410 0.838769365517 -0.033543749618 0.017527839645
4.002355555000 -0.022777953249 0.008781389582 0.554479692064 0.822515077049 0.539898347261 0.837917038065 -0.033169106228 0.017746425068
4.002777777000 -0.023354395761 0.007196889392 0.557757800015 0.823742938925 0.545885140387 0.835804241469 -0.033793647057 0.016008901891
4.003200000000 -0.023154746211 0.008681103441 0.559596923536 0.821426217557 0.544126770315 0.834326577458 -0.034145821004 0.016972091259
4.003622222000 -0.022962228203 0.009025050367 0.559500179884 0.820947763111 0.545300312751 0.833758452051 -0.033922486381 0.017704485112
4.004044444000 -0.022388415084 0.008152734346 0.560237296526 0.819322684503 0.547512395465 0.834436525814 -0.033372670871 0.017342987162
4.004466666000 -0.022951358417 0.009071331468 0.560649762450 0.818029886460 0.546943534210 0.833318415547 -0.034275774694 0.017773874490
4.004888888000 -0.024001062607 0.007795103014 0.562158538278 0.818133714424 0.549986658712 0.830952452669 -0.034132638742 0.016549182935
4.005311111000 -0.023215127040 0.008263413941 0.562866917474 0.814936802869 0.548506318653 0.830513245701 -0.033987696882 0.017522291278
4.005733333000 -0.023057325811 0.007076562549 0.563810615129 0.815184926687 0.553929112922 0.829107813680 -0.033997777155 0.017073289613
4.006155555000 -0.023057445664 0.008157816434 0.564726186518 0.813780166489 0.552239236542 0.829552114030 -0.034461896557 0.017783543460
4.006577777000 -0.023592213759 0.007142638748 0.568005380315 0.812086563165 0.554847494404 0.826487458652 -0.034620798240 0.016928605261
4.007000000000 -0.024444886227 0.007076444131 0.573910955368 0.812774787980 0.556631216930 0.818593525850 -0.035138603004 0.018298923167
4.007422222000 -0.023103623976 0.007227736071 0.569160475098 0.810130114009 0.557973133466 0.825426414458 -0.034409687576 0.017783191830
4.007844444000 -0.024284348676 0.006707475368 0.570027279673 0.809849868163 0.558592074130 0.823808104289 -0.034369401466 0.016867771765
4.008266666000 -0.023829454973 0.007280688919 0.572685674572 0.806367706534 0.558507210244 0.821828048375 -0.035033548132 0.017845032734
4.008688888000 -0.023817353213 0.006955580287 0.572029068431 0.806464445797 0.561865162007 0.821085657711 -0.034853578996 0.017737115696
4.009111111000 -0.024983540853 0.006701557268 0.573500069115 0.806695492582 0.563863019239 0.817947795934 -0.035292614389 0.017167384399
4.009533333000 -0.023128975215 0.006852947572 0.575431881776 0.802931123027 0.564367547458 0.820111903489 -0.035019783222 0.018000263119
4.009955555000 -0.024999501468 0.007139523152 0.575596385802 0.801222910820 0.564150049554 0.815230202908 -0.036360007003 0.018371141881
4.010377777000 -0.024804776543 0.006956099369 0.577672249725 0.802469799280 0.565634846665 0.816470583472 -0.035787838079 0.018057906620
