# GHZ S RI R 50.000000000000
3.950000000000 0.067698479137 -0.498311955668 0.843677545586 0.083028878486 0.832187022349 0.079136618982 0.026787542063 -0.485887822379
3.950422222000 0.064231773816 -0.497944804071 0.844844123755 0.079352360513 0.831686886886 0.079525639839 0.023790439873 -0.486330247080
3.950844444000 0.062000470714 -0.498268317598 0.842522019132 0.077613508204 0.830781180021 0.080373083593 0.020663757421 -0.484098923227
3.951266666000 0.061707884752 -0.498616432983 0.843172181822 0.076829917866 0.830710064614 0.078375273932 0.018699273563 -0.484716006059
3.951688888000 0.059264467435 -0.499205869951 0.844597912806 0.073480957206 0.829706665125 0.078325625517 0.016837984843 -0.484721162810
3.952111111000 0.059148458445 -0.498826874240 0.843803342699 0.073369666605 0.830730749562 0.077078113212 0.015830340309 -0.483572346199
3.952533333000 0.056819654358 -0.498671342157 0.844578890352 0.071407888993 0.830061339834 0.076633751170 0.015384935587 -0.483441924876
3.952955555000 0.056510297012 -0.498536027469 0.844455524216 0.069990783949 0.831050674994 0.075153908865 0.014960000762 -0.483738190835
3.953377777000 0.055987479799 -0.498782876905 0.844572163533 0.068117430855 0.831342253436 0.073835445748 0.013252303959 -0.484106810335
3.953800000000 0.055749582476 -0.498716749918 0.844630627112 0.067077571729 0.831007096760 0.073585995581 0.012370938405 -0.483708318288
3.954222222000 0.054000322125 -0.498493586273 0.845097382425 0.065893226720 0.832051321496 0.071673623313 0.012183472225 -0.484523824832
3.954644444000 0.053718554859 -0.498956015796 0.846704667141 0.063701063791 0.831498047553 0.070771554310 0.011296257383 -0.483777910913
3.955066666000 0.053857684116 -0.498432335234 0.845967180011 0.062947430548 0.832127290731 0.070694741238 0.010769707107 -0.483295803936
3.955488888000 0.052409092030 -0.499628767107 0.847962059331 0.061949989068 0.832734921096 0.068024091550 0.010102557393 -0.484064286777
3.955911111000 0.050269735106 -0.498730298804 0.847761202927 0.059631333024 0.832563368162 0.066755470112 0.009798833618 -0.483614365077
3.956333333000 0.051310881745 -0.498613844518 0.846825992579 0.060887201002 0.834207656532 0.065242953254 0.009325728851 -0.484023404063
3.956755555000 0.050844826520 -0.497575872741 0.848202882472 0.058427527288 0.833266624615 0.065748594847 0.008003435223 -0.484050155059
3.957177777000 0.049929347760 -0.499669330715 0.848789805289 0.057373775456 0.834245463551 0.063084377288 0.006399666148 -0.483867352306
3.957600000000 0.049700409703 -0.498852642034 0.848355287566 0.055117324838 0.834016492114 0.062051308433 0.005206519778 -0.483828241275
3.958022222000 0.048552042400 -0.499644152176 0.849038590126 0.054076502652 0.834673620892 0.061519846053 0.005503001057 -0.483278889329
3.958444444000 0.049084327529 -0.499408388601 0.849869500752 0.052834672020 0.834884612632 0.060720523521 0.004158262282 -0.483734811776
3.958866666000 0.045980006231 -0.498969514577 0.849204919208 0.051962284751 0.836538249178 0.059761794417 0.006792537298 -0.483299458603
3.959288888000 0.046384992281 -0.498656707076 0.850059326788 0.049487391383 0.835728201274 0.058429824212 0.003865624501 -0.483756214760
3.959711111000 0.046491246052 -0.499198506883 0.850049137446 0.048591312146 0.836865860459 0.056936078967 0.002385864980 -0.483968654370
3.960133333000 0.045098477441 -0.498794060640 0.850418203574 0.047231201797 0.836951262180 0.055688818862 0.002731001214 -0.484048302284
3.960555555000 0.044724767288 -0.499031677017 0.851556081092 0.045822645926 0.836201083573 0.054734044286 0.001486071841 -0.483720380282
3.960977777000 0.044530397481 -0.498181813101 0.852058032594 0.044288924667 0.836558189795 0.053530912968 0.000626698821 -0.483761400774
3.961400000000 0.043231815529 -0.498888033805 0.852124300010 0.042371798564 0.836701520372 0.052453800328 0.000219213798 -0.483694032670
3.961822222000 0.042670744021 -0.499018966912 0.852288459042 0.040777681011 0.836743917650 0.051602598735 -0.000914859227 -0.483021078290
3.962244444000 0.041021525219 -0.498684305744 0.852586822511 0.040121909662 0.837637785664 0.049332111858 -0.001613392555 -0.483642745666
3.962666666000 0.040699412489 -0.498238782993 0.852541567351 0.038373536499 0.837657548037 0.049306649796 -0.000812472458 -0.483699853115
3.963088888000 0.041301324111 -0.499322717132 0.853474121166 0.037278041744 0.838055186839 0.047706048886 -0.003556284096 -0.483357665715
3.963511111000 0.039523445212 -0.498950354320 0.853286127577 0.035878076931 0.838981375699 0.045278553166 -0.003651337720 -0.483894487603
3.963933333000 0.039642561244 -0.498924041745 0.853594869402 0.034524406467 0.838712403765 0.043216556881 -0.006004926692 -0.483714983640
3.964355555000 0.038942673934 -0.499636624258 0.854023020703 0.033096579411 0.839484630055 0.043647884983 -0.005775613053 -0.483475846936
3.964777777000 0.037837866927 -0.499791726827 0.854163827155 0.032471019105 0.840761723707 0.041914324714 -0.005835175317 -0.484151021584
3.965200000000 0.037518221016 -0.500695143134 0.855104680716 0.030601002539 0.839920218732 0.040770691973 -0.007891681469 -0.482595021635
3.965622222000 0.036519657317 -0.498519598827 0.854819711224 0.028589858380 0.840581404497 0.039652841246 -0.007526749010 -0.484821655976
3.966044444000 0.036711931353 -0.499238850481 0.854716749908 0.027383451548 0.840554498431 0.039082266200 -0.008888043049 -0.483882349538
3.966466666000 0.036764710993 -0.499826281429 0.855310283870 0.025917967597 0.842246327701 0.037803425662 -0.009753754264 -0.484946509847
3.966888888000 0.033803040291 -0.500473872445 0.855669167764 0.024309031326 0.841329266540 0.036215167612 -0.010157541985 -0.482517898813
3.967311111000 0.034780465948 -0.499428362987 0.856039697076 0.022480243097 0.841219958874 0.035342705972 -0.011370974229 -0.483606294341
3.967733333000 0.032992990392 -0.499989487429 0.856184000289 0.021204661094 0.841568412911 0.033683137572 -0.011751269878 -0.482181886588
3.968155555000 0.031637744554 -0.500226933199 0.856752703164 0.020122771358 0.841467555019 0.031103318498 -0.013345877597 -0.482774720343
3.968577777000 0.031645289851 -0.499970312051 0.856763348547 0.018494880035 0.841601821229 0.031195272144 -0.013811227154 -0.483064623990
3.969000000000 0.030703886257 -0.499637756635 0.856811527022 0.016418691363 0.844807679665 0.029150309616 -0.013442131424 -0.484565309025
3.969422222000 0.030035238049 -0.499732445528 0.857296204580 0.015557488764 0.842709196444 0.028684807711 -0.014675530494 -0.482833075070
3.969844444000 0.030535068554 -0.500538958981 0.857410505185 0.014392733372 0.844019775284 0.029524217386 -0.015037128221 -0.483446836205
3.970266666000 0.028278288666 -0.500113899124 0.857890470417 0.013103862417 0.842826584274 0.024796256801 -0.017885413980 -0.482648097375
3.970688888000 0.027540055815 -0.500638121180 0.857967694796 0.011742932369 0.843619573282 0.025240155414 -0.016930679884 -0.482071177141
3.971111111000 0.027934545865 -0.501406118387 0.858233751267 0.010511405984 0.844985370518 0.023878072761 -0.018651009039 -0.483226631389
3.971533333000 0.026634567494 -0.499812450704 0.858493270659 0.009202853334 0.842728981026 0.022032934508 -0.019182962083 -0.482090742020
3.971955555000 0.025625259863 -0.500576228635 0.858512486672 0.007772092559 0.844838672400 0.021565186076 -0.019826756208 -0.482312893500
3.972377777000 0.024887897504 -0.500186809735 0.858230828225 0.006091321262 0.845000777462 0.019350569820 -0.020565002968 -0.483118238737
3.972800000000 0.024735114746 -0.500949806097 0.858938751315 0.004886087802 0.845347254782 0.020327814312 -0.020649868889 -0.482359230643
3.973222222000 0.023672375658 -0.500129609686 0.859137674584 0.003784483372 0.843784394651 0.018728493467 -0.021880666679 -0.481210840912
3.973644444000 0.022545860554 -0.500830245836 0.859008061775 0.001941972987 0.845881715959 0.016137650706 -0.023113739701 -0.482225888198
3.974066666000 0.021402880862 -0.499212062012 0.859604830337 0.000262786333 0.844498209701 0.015244698709 -0.022595831389 -0.481829318871
3.974488888000 0.022134670044 -0.501075217886 0.859611911191 -0.000687466038 0.846292133137 0.014923829640 -0.024358607635 -0.482243572293
3.974911111000 0.020680937816 -0.501800871930 0.859687941195 -0.002267646919 0.847391965705 0.013396147812 -0.024724374055 -0.481936799111
3.975333333000 0.019490777539 -0.500166462863 0.860079312043 -0.003653718824 0.845454272869 0.010755947927 -0.026386133577 -0.481351826151
3.975755555000 0.018346158072 -0.502015757192 0.860243993307 -0.005213894135 0.847937476011 0.009734105050 -0.026765858674 -0.481584652333
3.976177777000 0.019046487307 -0.501286446882 0.860135290347 -0.006503790973 0.847341208852 0.009946621391 -0.026968794062 -0.481864739308
3.976600000000 0.017805537766 -0.500545910894 0.860180186697 -0.007004893161 0.844488497640 0.007408872004 -0.028902466326 -0.479192359343
3.977022222000 0.016906717125 -0.502316917382 0.860637194734 -0.009585427332 0.849163939926 0.006757887933 -0.029211609679 -0.482380256559
3.977444444000 0.017171832300 -0.500142562451 0.861034997291 -0.010654506681 0.847591351452 0.006956641291 -0.028766677423 -0.482188953851
3.977866666000 0.016403562229 -0.502414591568 0.860976396731 -0.012040491152 0.848803797219 0.005121936871 -0.031290545524 -0.481157812889
3.978288888000 0.014602580073 -0.501361585136 0.861127035209 -0.013112753691 0.847462550178 0.003004624699 -0.031287531194 -0.480919356122
3.978711111000 0.014711155146 -0.501153075946 0.861307001531 -0.014698097690 0.848182992463 0.003048703608 -0.031371514773 -0.480887180534
3.979133333000 0.013154051065 -0.502469253291 0.861808230663 -0.015487446666 0.848953998111 0.001727869566 -0.031748254918 -0.480182311303
3.979555555000 0.012455180951 -0.502751081198 0.861617051555 -0.017061968916 0.850761233547 0.000109997132 -0.033201463634 -0.480744759290
3.979977777000 0.010755538968 -0.501691575793 0.861168496515 -0.019242089315 0.849948569212 -0.002603523454 -0.033979627048 -0.480666957085
3.980400000000 0.011598084065 -0.502249905126 0.861904750380 -0.020467297807 0.850980458080 -0.001481096168 -0.034564296760 -0.481317805223
3.980822222000 0.010027671718 -0.502741330674 0.862483290985 -0.021455769058 0.851005393004 -0.004172284842 -0.035804580991 -0.480703271916
3.981244444000 0.009527337140 -0.503440885015 0.862538080868 -0.023021089612 0.851787154612 -0.004429923200 -0.036332437535 -0.480438128887
3.981666666000 0.005855343252 -0.502843842434 0.860695367007 -0.025878676314 0.851799702478 -0.011503166136 -0.039417401542 -0.479368695360
3.982088888000 0.007102255609 -0.501549750586 0.861752020365 -0.025765850312 0.849817573783 -0.008789383710 -0.038275935845 -0.478825046215
3.982511111000 0.007643609417 -0.503322348445 0.863015177842 -0.027352652264 0.852122501441 -0.007534175853 -0.038515204651 -0.480099963196
3.982933333000 0.005936489563 -0.503685407365 0.863438042447 -0.028870668681 0.853626647168 -0.010215405068 -0.039530727228 -0.480723289502
3.983355555000 0.004499132614 -0.501928987041 0.862518175274 -0.029903049828 0.850958589160 -0.013227718646 -0.040869650081 -0.478834020553
3.983777777000 0.003213634732 -0.503251611548 0.862769040044 -0.032215038048 0.852527533704 -0.014080967388 -0.041911613468 -0.478603650631
3.984200000000 0.001934572217 -0.501531618035 0.861764886256 -0.033313404419 0.853280265830 -0.017870107256 -0.043723455520 -0.479602200282
3.984622222000 0.002266352981 -0.502705892372 0.862700801478 -0.035062933234 0.852762303490 -0.016576033413 -0.042764264325 -0.479176184283
3.985044444000 0.001480384108 -0.502596995028 0.862951902162 -0.035569585662 0.851678957322 -0.017511919648 -0.043026650217 -0.477506661392
3.985466666000 0.001744898353 -0.503196290667 0.863559839431 -0.037124032128 0.852763593308 -0.016791528172 -0.043343170415 -0.478552196787
3.985888888000 -0.000846372746 -0.502997011998 0.863717220370 -0.038873074468 0.853514812559 -0.019663573304 -0.044345435617 -0.477460148618
3.986311111000 -0.000226621320 -0.502567915241 0.863813542373 -0.039746222752 0.852351479574 -0.019837358486 -0.044972495156 -0.477792762462
3.986733333000 -0.003632777431 -0.503115107738 0.863413528403 -0.041870344114 0.853356415312 -0.024012162687 -0.046964902077 -0.476227708996
3.987155555000 -0.002889045742 -0.502585589813 0.862755826045 -0.044061096420 0.853895150167 -0.024025058305 -0.047530080240 -0.477662984320
3.987577777000 -0.002788341446 -0.504529067648 0.863764708538 -0.044185145844 0.854052885081 -0.024282685751 -0.047735522552 -0.476842083062
3.988000000000 -0.004970367483 -0.504831951471 0.864188738762 -0.046706415433 0.856832122117 -0.027840552124 -0.050496200985 -0.478276348465
3.988422222000 -0.004734456067 -0.504952914067 0.864788086394 -0.047590327861 0.856291696719 -0.026600979319 -0.048991630096 -0.478294851494
3.988844444000 -0.006131333852 -0.503455601163 0.864414518365 -0.047915946301 0.855884094963 -0.029047588164 -0.049826266059 -0.477937201017
3.989266666000 -0.007384651076 -0.505425541427 0.863893981394 -0.052387594676 0.859888996898 -0.031539304228 -0.053900374417 -0.479057079270
3.989688888000 -0.008336095027 -0.505152988541 0.865005437097 -0.052412610714 0.857690311363 -0.031689258416 -0.052150972694 -0.477083793671
3.990111111000 -0.008292117936 -0.505341723583 0.864610606955 -0.053959778875 0.858358831080 -0.032374233627 -0.052777796671 -0.477461827589
3.990533333000 -0.009679185297 -0.504563828232 0.864897748803 -0.055222174394 0.857668403695 -0.033771917216 -0.053305279134 -0.477590256040
3.990955555000 -0.011493911019 -0.505028157645 0.864603682423 -0.055985082550 0.857583667586 -0.037140138919 -0.055073399993 -0.476174616264
3.991377777000 -0.011719355830 -0.505094534965 0.865167373780 -0.058075434427 0.858204851113 -0.037649961109 -0.056401453086 -0.476635468514
3.991800000000 -0.013317098464 -0.505348398048 0.864444004502 -0.060378087371 0.859243295396 -0.039764105749 -0.057050960002 -0.476455585401
3.992222222000 -0.012802054611 -0.503647201551 0.864461211208 -0.060211091034 0.856635116250 -0.039847487508 -0.056880070682 -0.475806629450
3.992644444000 -0.013827323148 -0.503356327457 0.864630128447 -0.062078415000 0.856042885658 -0.040609383424 -0.057305551429 -0.474611138773
3.993066666000 -0.014998666341 -0.505412552799 0.865621904951 -0.063514967917 0.858895624048 -0.041882082291 -0.058636728577 -0.475351339455
3.993488888000 -0.017469486039 -0.504423539179 0.864760486895 -0.065933556757 0.858786534863 -0.045500047451 -0.059776204690 -0.474934577626
3.993911111000 -0.016508975779 -0.504010392868 0.864817844485 -0.065568556961 0.857219921697 -0.044605981812 -0.058778330060 -0.474652799769
3.994333333000 -0.017340347920 -0.506864000535 0.866892096296 -0.067045374577 0.860672587605 -0.045482285426 -0.060955178047 -0.475422211963
3.994755555000 -0.019176529040 -0.504379805966 0.864926007244 -0.069205074243 0.859489278073 -0.048309798030 -0.060750339021 -0.474585659173
3.995177777000 -0.019605314834 -0.506499383188 0.867072058784 -0.070982257271 0.862591261169 -0.048107442945 -0.061759887981 -0.476727248561
3.995600000000 -0.020780034876 -0.505097016724 0.865094599297 -0.071888060948 0.859755866647 -0.051341068702 -0.063248987896 -0.473969541233
3.996022222000 -0.022215715439 -0.503319255746 0.864941126632 -0.072452547107 0.859715728998 -0.051508743121 -0.061456336492 -0.474200496411
3.996444444000 -0.021475714922 -0.504635197663 0.866826500147 -0.073716847659 0.859525546761 -0.051795960993 -0.063681309633 -0.474969868952
3.996866666000 -0.023827525818 -0.504723016972 0.866047928554 -0.077092190274 0.861022124986 -0.055574415415 -0.065308128901 -0.474747540352
3.997288888000 -0.023717405754 -0.504023579655 0.865721586900 -0.077215101241 0.859492540696 -0.055497691079 -0.065181283622 -0.473720183103
3.997711111000 -0.025552126081 -0.504937967403 0.866721380928 -0.079360541183 0.861128972265 -0.058687485358 -0.067200411193 -0.474121796119
3.998133333000 -0.026240631912 -0.504068094531 0.865506759169 -0.080146681596 0.860907723084 -0.058847047351 -0.066227845053 -0.473128941787
3.998555555000 -0.029236484228 -0.505077744594 0.867136207952 -0.083143330339 0.862918985692 -0.063030731084 -0.069142000591 -0.473548578702
3.998977777000 -0.027191663534 -0.503185227145 0.866508696110 -0.082856558631 0.858997713857 -0.059393356685 -0.066743125508 -0.472378723566
3.999400000000 -0.032589164197 -0.503554791505 0.868660250404 -0.089354637820 0.858193829285 -0.066575266312 -0.071545347330 -0.471486709300
3.999822222000 -0.030050424503 -0.504577363751 0.866269323604 -0.084760203171 0.862611902950 -0.064652447468 -0.069421568812 -0.473323032817
4.000244444000 -0.031758853566 -0.505080615310 0.866869521632 -0.086247306582 0.863681454804 -0.066396834815 -0.070050758364 -0.473413790629
4.000666666000 -0.032639914027 -0.504565497023 0.866663828109 -0.089224716767 0.862914584768 -0.068476112659 -0.071686931002 -0.472537593561
4.001088888000 -0.033715176095 -0.504956919201 0.866985123337 -0.089150488097 0.863461496549 -0.069581918938 -0.071595383146 -0.472395681002
4.001511111000 -0.034338462358 -0.504904989575 0.865321854565 -0.091170902392 0.863808851814 -0.071075637586 -0.072740215462 -0.471341569452
4.001933333000 -0.034033190491 -0.504228707473 0.866603925084 -0.092966797050 0.862734447108 -0.069796377977 -0.072442702913 -0.471926334071
4.002355555000 -0.036326037621 -0.504126254621 0.866475899223 -0.094931767962 0.862142182955 -0.072420599045 -0.073501478841 -0.470519574039
4.002777777000 -0.037715126661 -0.504872125620 0.867879824153 -0.094609131530 0.866168102943 -0.075826948510 -0.075136704510 -0.473605504347
4.003200000000 -0.038539846516 -0.503692138775 0.867244180032 -0.100427285526 0.862372106110 -0.075712188248 -0.076285687118 -0.470432500316
4.003622222000 -0.039419114746 -0.503979881374 0.866051587556 -0.099444369934 0.862466167687 -0.077659570258 -0.076234302664 -0.469681353966
4.004044444000 -0.041045925775 -0.504090131568 0.865245754984 -0.100320059591 0.865822527812 -0.078361940084 -0.075768604229 -0.471274704466
4.004466666000 -0.040721640277 -0.503884752635 0.865862567566 -0.101063831691 0.864218478944 -0.079588423525 -0.076902306832 -0.470243386753
4.004888888000 -0.042976056724 -0.503545672476 0.868131058533 -0.104393022166 0.864434391482 -0.083102242228 -0.079114546691 -0.470548358606
4.005311111000 -0.043220133343 -0.503197651458 0.865802750519 -0.105128196927 0.863234693670 -0.082523257663 -0.078374102148 -0.468761926582
4.005733333000 -0.045435383341 -0.503656232467 0.867508469146 -0.105114981767 0.866262049216 -0.085214742225 -0.078812468150 -0.470910679936
4.006155555000 -0.044636234503 -0.503380908643 0.864215965824 -0.106484070048 0.866435167077 -0.085928406977 -0.079933926336 -0.470156019484
4.006577777000 -0.046810939012 -0.502159284794 0.865677948550 -0.111036434044 0.864617096959 -0.087456230094 -0.081303853280 -0.469083355429
4.007000000000 -0.050392419161 -0.500887357444 0.870264737786 -0.117018022784 0.860685146666 -0.094450834826 -0.087466310177 -0.467907442004
4.007422222000 -0.049810392396 -0.503004442726 0.866872123157 -0.112521154845 0.866190393237 -0.090789401078 -0.082067042182 -0.468902985882
4.007844444000 -0.049890221322 -0.503032711538 0.866435296337 -0.112363983707 0.867147058352 -0.093008505199 -0.082868877459 -0.469400168463
4.008266666000 -0.052303095161 -0.501397040659 0.864167577558 -0.118143826699 0.865413713715 -0.095061882315 -0.084800975636 -0.467251880596
4.008688888000 -0.052723072067 -0.501220510669 0.865796687320 -0.116220663800 0.864601620497 -0.097125232804 -0.084678650453 -0.467250727582
4.009111111000 -0.054272506353 -0.501141074225 0.865955653066 -0.117280497466 0.864665981441 -0.099312252440 -0.084968325056 -0.467132876764
4.009533333000 -0.053550026597 -0.501100260158 0.862918788704 -0.121595942033 0.865604846583 -0.094412146661 -0.084112219819 -0.466274301880
