# GHZ S RI R 50.000000000000
3.950000000000 -0.037210521843 0.003894389298 0.335924267843 0.925782302786 0.383827883715 0.902115712879 -0.043667037676 0.006832662701
3.950422222000 -0.035696931050 0.005467394055 0.346205679292 0.922241761522 0.382883450257 0.901400827359 -0.043015050287 0.008516585259
3.950844444000 -0.035012587539 0.007053389024 0.353642503072 0.920091351769 0.382197395287 0.902353794909 -0.042180651293 0.010335806880
3.951266666000 -0.032681499459 0.007801323005 0.363177281965 0.918374776785 0.382148145800 0.903213189307 -0.041562331342 0.010107115558
3.951688888000 -0.032843181638 0.008613635665 0.364715927404 0.916382995900 0.382552285463 0.903567081047 -0.041455017766 0.010891617090
3.952111111000 -0.032560373034 0.009734967069 0.368478559890 0.916403552948 0.384242338289 0.905394610288 -0.041064469916 0.012583415692
3.952533333000 -0.032579149521 0.009172887095 0.371988559656 0.916467058770 0.383573355776 0.903255509886 -0.041326108339 0.012259226719
3.952955555000 -0.031884344075 0.010050518233 0.373980066518 0.913899725872 0.385038719998 0.903829619439 -0.040936551459 0.012305660386
3.953377777000 -0.031714435279 0.010281328856 0.377578054532 0.914679148382 0.385697512937 0.903023895151 -0.040487106874 0.012579158220
3.953800000000 -0.030132459295 0.011511795566 0.382265015012 0.913132075074 0.386060991704 0.906523846272 -0.039405585583 0.012981262766
3.954222222000 -0.031712231040 0.011241926925 0.380755229383 0.913832144658 0.388416139432 0.903878076285 -0.039587872805 0.013146163566
3.954644444000 -0.032043954232 0.011808625062 0.382193261031 0.914709561265 0.389827042086 0.904118429706 -0.039965424549 0.013492302503
3.955066666000 -0.032018666097 0.011463621558 0.381080022814 0.911154120005 0.389883251794 0.902535499520 -0.039950675406 0.013052075151
3.955488888000 -0.031235797866 0.012716864767 0.385896904598 0.913690549758 0.391887825181 0.904031356280 -0.039040458990 0.013926703295
3.955911111000 -0.031354243532 0.011793603674 0.386142583042 0.912528680485 0.394521553628 0.901300544048 -0.039301389586 0.014221792951
3.956333333000 -0.032184166788 0.012044705579 0.386055950399 0.913096383743 0.394388278473 0.903096749847 -0.039517635888 0.014035518214
3.956755555000 -0.032042434372 0.014026639478 0.389661168618 0.913912740983 0.395578955410 0.902367199540 -0.038427437236 0.014682252792
3.957177777000 -0.031809188263 0.013031991407 0.389682121311 0.911859013049 0.396189452247 0.902398624165 -0.038968546996 0.013819030287
3.957600000000 -0.032018344779 0.013662617653 0.391745463890 0.912128893825 0.398468203304 0.900617734462 -0.038038667981 0.014466836326
3.958022222000 -0.031511376981 0.014671620062 0.394196569911 0.912708989253 0.399963880635 0.902160832043 -0.038450734354 0.015575795344
3.958444444000 -0.031525702788 0.014829678217 0.393867390318 0.911537826497 0.400483620329 0.901214908062 -0.038060618279 0.014575062483
3.958866666000 -0.031303859937 0.014675004446 0.396418687608 0.910271743899 0.403572996553 0.900632172633 -0.037568259668 0.015170436057
3.959288888000 -0.031211916357 0.014766836849 0.399123539018 0.909401901622 0.404796792253 0.900643805594 -0.037081548811 0.014750119867
3.959711111000 -0.031009266018 0.014962926282 0.399987110800 0.910920230042 0.406297088781 0.901941347325 -0.037717745800 0.015176647375
3.960133333000 -0.031313866843 0.015886313375 0.401245514910 0.911681795004 0.406710857330 0.901156059161 -0.037304844648 0.015915609277
3.960555555000 -0.030596040841 0.016235260079 0.401723588151 0.910427517232 0.407599227245 0.899445867097 -0.036171119901 0.014548802487
3.960977777000 -0.030753452918 0.016480183825 0.404428584313 0.910752184509 0.409585707904 0.900475668418 -0.036792628405 0.015519324816
3.961400000000 -0.030419597746 0.016859912177 0.405446933309 0.908125402226 0.410602867351 0.898955329971 -0.035448085347 0.015042141798
3.961822222000 -0.030784565949 0.017186720371 0.407857281625 0.908603865686 0.412274922956 0.899467366179 -0.036132462086 0.015473918666
3.962244444000 -0.030389919754 0.016838845232 0.409674225443 0.909411029892 0.413162290538 0.899524006673 -0.035764487828 0.015324785867
3.962666666000 -0.030432813981 0.017284653089 0.410719276805 0.908129601755 0.415820168572 0.898194024617 -0.036026790304 0.015783687660
3.963088888000 -0.030007013169 0.018110977999 0.412735647573 0.908697325029 0.417348746411 0.898523225309 -0.034992305546 0.015887705465
3.963511111000 -0.030222088339 0.018203766863 0.413002546105 0.908987126401 0.418204044403 0.899023955928 -0.035427744209 0.016610134779
3.963933333000 -0.030275113869 0.018206699983 0.416019923457 0.907809921439 0.420484440804 0.898472319842 -0.035005346417 0.016609431175
3.964355555000 -0.029631379998 0.018904080572 0.417666507515 0.907576052953 0.421122204552 0.898287780337 -0.034519673848 0.016013654386
3.964777777000 -0.029334871200 0.018309175984 0.419369390681 0.907259320748 0.422316422338 0.898173786367 -0.036025854157 0.015165481281
3.965200000000 -0.029525018630 0.019251925908 0.420994651427 0.907052942019 0.424100392597 0.898952040720 -0.035036050156 0.016334058925
3.965622222000 -0.028974603066 0.019173897397 0.421987593167 0.905884560484 0.426324913860 0.897562984542 -0.034003747659 0.015951079409
3.966044444000 -0.029020091804 0.019273913541 0.424058044721 0.905769948256 0.427095908793 0.897551041957 -0.034797401683 0.015701470812
3.966466666000 -0.029302940121 0.020551375311 0.425885294317 0.905989372075 0.428086425640 0.895999865204 -0.033742214332 0.016851460825
3.966888888000 -0.029210135718 0.020094822032 0.425929578043 0.904704375353 0.429909809411 0.896566492298 -0.033468544011 0.016368058900
3.967311111000 -0.028665824131 0.020252128264 0.429292681832 0.904808635886 0.432415456754 0.896046677449 -0.033780726717 0.015857677450
3.967733333000 -0.027963618802 0.020576018691 0.431057879823 0.904087201465 0.433852982769 0.895506989276 -0.033309325322 0.016395877238
3.968155555000 -0.027763153796 0.021613245296 0.432303478962 0.903785180045 0.434589264460 0.895712037516 -0.032213179800 0.016265992690
3.968577777000 -0.027490592988 0.021954765057 0.434268625827 0.903497188222 0.436283480642 0.895933611585 -0.032034618065 0.016698493871
3.969000000000 -0.025832663035 0.020343589081 0.436061594177 0.897312714253 0.438542351984 0.895128209812 -0.031556015305 0.015427199809
3.969422222000 -0.027597280542 0.021839148642 0.437522296593 0.902183272898 0.439801203455 0.895970909936 -0.032651073672 0.016307698562
3.969844444000 -0.027241793369 0.022340547121 0.439441777480 0.902611225198 0.440397254879 0.894267982473 -0.031899625444 0.016295871353
3.970266666000 -0.026436800438 0.022597650416 0.441294975588 0.902134862120 0.442628947331 0.894444399882 -0.030981538082 0.016392830030
3.970688888000 -0.026508685188 0.021731985965 0.442766494161 0.900559991248 0.444517422129 0.893019062168 -0.032140019564 0.015654714894
3.971111111000 -0.025636813506 0.022586958377 0.443725309300 0.898568935987 0.446110563163 0.893695872616 -0.030952061087 0.016087648810
3.971533333000 -0.025290097105 0.023253864580 0.446403946382 0.900293368275 0.447499709660 0.892921153603 -0.030585645227 0.016310041535
3.971955555000 -0.025737005269 0.023093126507 0.447376184385 0.899193648081 0.448244263957 0.892218266943 -0.030974805421 0.015288234269
3.972377777000 -0.025476897581 0.022981997721 0.449263386450 0.899098818647 0.450426529613 0.891984190460 -0.031759092489 0.015845220456
3.972800000000 -0.024951029609 0.023486118458 0.450578283209 0.898175025123 0.452060479677 0.891055151317 -0.030178442811 0.016099928949
3.973222222000 -0.023812197066 0.023598157657 0.454306884247 0.897946803517 0.453562835502 0.890878243024 -0.029752556467 0.014137853849
3.973644444000 -0.023892184923 0.022840258544 0.455152835293 0.895530391642 0.456240672327 0.890675002789 -0.030497532024 0.014619622558
3.974066666000 -0.024527229196 0.023772994255 0.456146815072 0.896219875125 0.456204772825 0.889961808749 -0.030160480573 0.015527253682
3.974488888000 -0.024077169071 0.023479910993 0.458766419495 0.894902044952 0.458250387945 0.889066324366 -0.030476371791 0.014830913515
3.974911111000 -0.023401090034 0.023371272935 0.460099473772 0.893780360640 0.460729014297 0.888480675117 -0.029406386705 0.014739485715
3.975333333000 -0.023451478179 0.024102644532 0.461206301847 0.894244259705 0.461591929211 0.887963450744 -0.029736947734 0.015451352158
3.975755555000 -0.022734384036 0.023646086007 0.462954461340 0.893112153131 0.462933555490 0.888706755251 -0.030237005266 0.014289168328
3.976177777000 -0.022373369980 0.024374611126 0.465438387764 0.892474088999 0.465058425796 0.887205044771 -0.028449810478 0.015084210705
3.976600000000 -0.022919945466 0.023623086200 0.465595445154 0.891173476920 0.466977620028 0.887737420620 -0.028789022095 0.016354520326
3.977022222000 -0.021555624031 0.024484289470 0.468481601325 0.891632961129 0.467848789700 0.886915920557 -0.028127945234 0.013981464930
3.977444444000 -0.021766065327 0.024541058396 0.469754623683 0.890927918996 0.470716989497 0.885974181957 -0.028669880160 0.014287024834
3.977866666000 -0.021020869752 0.024469708324 0.471820384753 0.889415366672 0.471806802806 0.885652657866 -0.028642983919 0.014560541556
3.978288888000 -0.021166664980 0.024833845107 0.472961831616 0.888901683446 0.472010766289 0.884768202327 -0.027898694403 0.013881555033
3.978711111000 -0.020850875820 0.024398198469 0.474767615055 0.887974444277 0.474460048617 0.884322719286 -0.028932136323 0.013266246375
3.979133333000 -0.019420552608 0.024307298531 0.477355983340 0.887363308047 0.476386093298 0.884656819735 -0.028319042968 0.012360057887
3.979555555000 -0.019865630969 0.023833607160 0.477940238345 0.886338488704 0.478788471535 0.883154986166 -0.029138247529 0.012957291468
3.979977777000 -0.019462574153 0.024298833183 0.479584116737 0.885900506584 0.479988863917 0.883000573337 -0.028233660627 0.012479962522
3.980400000000 -0.019343530119 0.024594297987 0.482154867891 0.886140246046 0.480855225783 0.882346084840 -0.028255661707 0.012733761622
3.980822222000 -0.019191621819 0.024267778342 0.482932551241 0.884283201595 0.482313020363 0.880465696411 -0.027650443121 0.012511485374
3.981244444000 -0.019208000866 0.024227955198 0.484846309764 0.883098260350 0.485146176643 0.879758160676 -0.028335954712 0.012999979654
3.981666666000 -0.018988824436 0.023479644281 0.485305414069 0.882123969268 0.486855886247 0.880316945230 -0.028388951826 0.011902006548
3.982088888000 -0.018293762882 0.024644469973 0.487445112062 0.881318799360 0.487981507461 0.879143858698 -0.027205003043 0.012913811881
3.982511111000 -0.017987313655 0.024441489042 0.489270468241 0.880282662921 0.489238160963 0.877962358483 -0.027425000239 0.012011591714
3.982933333000 -0.017486337057 0.024844674411 0.490582666944 0.880040391070 0.490231993468 0.878225465211 -0.027406796790 0.011651942683
3.983355555000 -0.018089283775 0.024279726610 0.491576487795 0.878279605206 0.491711876709 0.876903793319 -0.027898954282 0.012094729864
3.983777777000 -0.016525929021 0.024173283775 0.495015595455 0.878155943101 0.494132354593 0.876717466408 -0.026273658758 0.010952150036
3.984200000000 -0.016566413360 0.024454057436 0.495030220387 0.877404870116 0.494309395531 0.876414471457 -0.027143372497 0.011944531291
3.984622222000 -0.016556422600 0.023908157287 0.497036251150 0.875589070865 0.497373938777 0.874209688038 -0.027458779917 0.010910350621
3.985044444000 -0.016673427057 0.023472359322 0.498494047066 0.875255470531 0.499730466546 0.872863656892 -0.027896419137 0.011345075932
3.985466666000 -0.015487865447 0.024297999252 0.500598142973 0.873905248608 0.500300582660 0.872525684357 -0.026574922507 0.010685866992
3.985888888000 -0.015393067868 0.024185695085 0.501397753378 0.873303510260 0.502132074593 0.872353507426 -0.025972354878 0.010725089191
3.986311111000 -0.014802847214 0.023258177469 0.504448969243 0.872034886884 0.505216057055 0.872089908074 -0.027016426007 0.009977528762
3.986733333000 -0.015177202365 0.024020100154 0.505374095060 0.870740978381 0.507135476702 0.869225149805 -0.027094147850 0.012310919888
3.987155555000 -0.014581968269 0.023188163897 0.506917913574 0.869592621892 0.507421580634 0.871598351377 -0.027919090428 0.009810840266
3.987577777000 -0.013854348926 0.024549586745 0.510002917210 0.870732700709 0.509225385646 0.870328922499 -0.027254072580 0.011139968965
3.988000000000 -0.014240935070 0.023221785940 0.510489336303 0.868847366426 0.510413293298 0.868901541426 -0.027463164062 0.009457507076
3.988422222000 -0.014019492139 0.023832857858 0.512117033474 0.867716311151 0.511255692838 0.867491214140 -0.026902343620 0.010064430380
3.988844444000 -0.013569248624 0.022911828391 0.513629275582 0.866536540822 0.513946689324 0.867109692618 -0.027569841253 0.009494674864
3.989266666000 -0.012820282662 0.022480801512 0.516181344932 0.864812917032 0.514736602059 0.867718748570 -0.027974928480 0.008768845187
3.989688888000 -0.013747435053 0.022336564232 0.516381184484 0.864889813598 0.516701800282 0.863980545375 -0.027751821512 0.008473463951
3.990111111000 -0.011961248444 0.022693689544 0.518672270286 0.864212360692 0.517454228199 0.866544856861 -0.026672657115 0.008466148858
3.990533333000 -0.012286256374 0.022369084856 0.519787967546 0.862662630462 0.519185920549 0.863896005037 -0.026784409652 0.008228052683
3.990955555000 -0.012553635955 0.022004425003 0.521036028965 0.861270807711 0.520634030817 0.862031598562 -0.027168744018 0.008434947632
3.991377777000 -0.012479398200 0.021664621718 0.523246185525 0.860768707532 0.523959672176 0.862248338548 -0.028132541638 0.007849457322
3.991800000000 -0.010898262501 0.021918130814 0.525678782599 0.859455461816 0.523517933814 0.863878297806 -0.027855463204 0.008178959760
3.992222222000 -0.011612910389 0.021384818575 0.526125921755 0.857869433959 0.525568248938 0.859994487100 -0.027101687806 0.008388013208
3.992644444000 -0.011509990869 0.021228015166 0.526742437907 0.856495885991 0.528128194045 0.858708543993 -0.028363226383 0.008229364649
3.993066666000 -0.011248939666 0.021649938986 0.528238311338 0.856057506335 0.529624970185 0.857919031979 -0.027522816051 0.008769123743
3.993488888000 -0.010881102137 0.020966936840 0.530321148410 0.855801618932 0.530966751630 0.856986834495 -0.027143417603 0.007253600150
3.993911111000 -0.011353676659 0.020277393745 0.530934765870 0.853927127161 0.533072978826 0.855555084758 -0.028129768784 0.007253885355
3.994333333000 -0.010521219929 0.020422507852 0.534885392542 0.852951150508 0.535564812558 0.855591651456 -0.028186601624 0.006936763878
3.994755555000 -0.011302265381 0.020502495161 0.534769622972 0.851899275198 0.534573578552 0.854311646523 -0.028607081697 0.006726962641
3.995177777000 -0.011138055162 0.020091831196 0.536035563057 0.850141456154 0.538091156567 0.852977933989 -0.029148293623 0.007293371433
3.995600000000 -0.010904049913 0.019861975030 0.536402151497 0.849670857920 0.538368898693 0.851586928563 -0.028470453176 0.007136504549
3.996022222000 -0.009847769667 0.019786633463 0.539064318552 0.848520677547 0.539739647305 0.852603978448 -0.028258283277 0.006335673463
3.996444444000 -0.010238910844 0.019711869596 0.540064443073 0.847477736772 0.541063925898 0.848992416280 -0.028244150494 0.007181952871
3.996866666000 -0.010711759704 0.019933565971 0.541113208761 0.847417059670 0.541238123474 0.848005019054 -0.028103467828 0.006520378333
3.997288888000 -0.010477148424 0.019201598450 0.543016181958 0.844893999944 0.545329553999 0.846960133072 -0.029529230247 0.006646917934
3.997711111000 -0.009750113735 0.019427699852 0.544802969372 0.844778066301 0.545552248480 0.847007416269 -0.029108625339 0.006733449483
3.998133333000 -0.009997800213 0.018691236795 0.546203580929 0.843059736780 0.546827744461 0.844457846998 -0.028901572900 0.006622638310
3.998555555000 -0.009444402575 0.018423331233 0.547284448381 0.842714937892 0.549314995036 0.844422404475 -0.028606225079 0.006587024000
3.998977777000 -0.009710576784 0.018576637091 0.548036126336 0.841087508209 0.549690482066 0.843729052499 -0.029175181635 0.006717620630
3.999400000000 -0.009386728707 0.018907633722 0.549743723956 0.839781441376 0.551587875288 0.843634487988 -0.030347709656 0.007038243882
3.999822222000 -0.009980127196 0.018068332649 0.550742195537 0.839500225529 0.554152783072 0.842672590901 -0.030179715797 0.005686735758
4.000244444000 -0.008595088529 0.018098001846 0.554231644481 0.838778880380 0.554074419131 0.842472314344 -0.029422957362 0.005891228955
4.000666666000 -0.009371440891 0.017474531444 0.553549927959 0.837959870491 0.557240923634 0.840434836369 -0.029661611351 0.005836892806
4.001088888000 -0.009928675135 0.017709587896 0.555901165040 0.834910420692 0.557176212568 0.837565370772 -0.030811891115 0.006262923391
4.001511111000 -0.009950064295 0.017105899167 0.556874362430 0.835085187736 0.559016630149 0.836930887363 -0.030003140174 0.005312477097
4.001933333000 -0.009821745258 0.016934193591 0.558634725918 0.834424825128 0.561343580409 0.834020808787 -0.030169612132 0.006310571295
4.002355555000 -0.009392920954 0.017510943334 0.558719848008 0.833532908156 0.561513852344 0.835835460005 -0.030895499135 0.006044807701
4.002777777000 -0.009119023120 0.016848294165 0.561167320855 0.831568822047 0.561260921145 0.833360301809 -0.029691340294 0.005891554132
4.003200000000 -0.009523548596 0.016463741042 0.561607995331 0.830648405166 0.565076668217 0.833203552174 -0.030216451700 0.006160831242
4.003622222000 -0.008711915582 0.016325964656 0.564491744416 0.830318593939 0.567582603378 0.832803947139 -0.030637515462 0.005834235743
4.004044444000 -0.009690581801 0.016829344591 0.565638779391 0.828051676027 0.565812751585 0.829268369651 -0.031574439139 0.006227596449
4.004466666000 -0.008931290688 0.016813657470 0.565005237080 0.824454229877 0.565026173622 0.830171054779 -0.030204269680 0.006867043365
4.004888888000 -0.009751372628 0.014841622087 0.567305108857 0.825071075195 0.570657275545 0.827221972856 -0.031026655620 0.005600024647
4.005311111000 -0.009940798127 0.015598036445 0.569192619413 0.824114046323 0.572381108356 0.826990331849 -0.032135209857 0.005428621296
4.005733333000 -0.009216901931 0.015851760027 0.570043846159 0.822814703469 0.571862101363 0.829001233482 -0.031738689441 0.005403466563
4.006155555000 -0.009402302313 0.015176244880 0.569922557561 0.823371006364 0.574631867890 0.826803970992 -0.031005586784 0.005202546037
4.006577777000 -0.009787700833 0.015392293319 0.571479355438 0.820654158148 0.573766515774 0.823308280934 -0.031442536013 0.006024481092
4.007000000000 -0.008822871016 0.015570349811 0.570494126607 0.819906323319 0.575161931182 0.828387861083 -0.030934861180 0.005668967753
4.007422222000 -0.010197292861 0.015073173831 0.574983239198 0.817385640334 0.577351532457 0.820639335677 -0.032602654606 0.005989440035
4.007844444000 -0.009829830147 0.014902561379 0.576539900868 0.817235522743 0.578740731155 0.821378708395 -0.032025337169 0.005689630198
4.008266666000 -0.010034822789 0.014087374934 0.576196602158 0.816132355023 0.583340629646 0.819421240275 -0.033068642021 0.005832067970
4.008688888000 -0.010146696962 0.015101171943 0.578692177768 0.815525658308 0.581708917077 0.818072038573 -0.032805963083 0.006437518009
4.009111111000 -0.010743425971 0.014637235952 0.577942443638 0.817173864388 0.584948428698 0.817905023392 -0.032738342085 0.006263563879
4.009533333000 -0.010437484631 0.014573177567 0.578729001502 0.813955830302 0.583336352852 0.814867505797 -0.032072453533 0.006722606526
4.009955555000 -0.010145752777 0.013903166472 0.581420815723 0.811855277658 0.584658155971 0.814059180727 -0.032204535519 0.006495203559
4.010377777000 -0.010579927904 0.013781791608 0.583397011093 0.811652126246 0.587632766482 0.814419840190 -0.032661302907 0.006252553010
