# GHZ S RI R 50.000000000000
3.950000000000 -0.016120227698 -0.472723316709 0.861233027236 -0.086482610362 0.848618220640 -0.094691158882 -0.078500743674 -0.462578737202
3.950422222000 -0.016604166664 -0.472182804890 0.861073926690 -0.088004021234 0.847866422242 -0.094221619538 -0.082039087875 -0.461634905748
3.950844444000 -0.018307278448 -0.471109621813 0.860272808117 -0.088757901492 0.848424614772 -0.094222499534 -0.082721667002 -0.460832961004
3.951266666000 -0.019130072987 -0.471092042279 0.860203227210 -0.089586485386 0.848760142752 -0.095548465268 -0.084986895396 -0.460481002055
3.951688888000 -0.021012307417 -0.470552583272 0.859362639480 -0.091657979011 0.848239490768 -0.095650533178 -0.085594647134 -0.459426966677
3.952111111000 -0.021740939035 -0.470437446151 0.860104947355 -0.094130902584 0.847213479097 -0.096929806952 -0.087906343190 -0.459237105946
3.952533333000 -0.022152031558 -0.470980822044 0.860068644931 -0.094978586374 0.848362060169 -0.097988862089 -0.088309284864 -0.459038539358
3.952955555000 -0.023069188740 -0.470541816191 0.860394643276 -0.097161819111 0.848036853201 -0.097898676450 -0.088641597070 -0.457612409264
3.953377777000 -0.023093721566 -0.470762977563 0.860581274689 -0.098567615790 0.848255224331 -0.099962588074 -0.089930415123 -0.457810313455
3.953800000000 -0.023949368277 -0.469858310838 0.860152595949 -0.101434856429 0.846979258359 -0.101484106665 -0.091735067706 -0.456733673871
3.954222222000 -0.025307640432 -0.469572048503 0.860578956726 -0.101512164420 0.848391636848 -0.102150294509 -0.090517211305 -0.457479483811
3.954644444000 -0.025652486351 -0.470498312120 0.860729267072 -0.102671443570 0.848920310810 -0.104703647314 -0.092423300811 -0.457703294028
3.955066666000 -0.025729536512 -0.469683124272 0.860377584598 -0.104804527651 0.848822806206 -0.104673648278 -0.092498769436 -0.456766856611
3.955488888000 -0.026880337051 -0.469359948893 0.860487139974 -0.105681593954 0.847977197706 -0.106269316786 -0.093593485932 -0.455846577833
3.955911111000 -0.026863564274 -0.469482468076 0.860678696703 -0.106674901845 0.848961359057 -0.106350523898 -0.093559992146 -0.455348163690
3.956333333000 -0.027438023588 -0.468289809550 0.861118933401 -0.109195464164 0.848782115720 -0.108428464781 -0.095372716299 -0.456514004012
3.956755555000 -0.028230054159 -0.468513842611 0.860995432454 -0.110535963417 0.848072156213 -0.110173640113 -0.096185231573 -0.455316522768
3.957177777000 -0.028112834008 -0.468773314059 0.861362623509 -0.110635637387 0.849980478004 -0.111338043873 -0.095785998011 -0.455919630090
3.957600000000 -0.029487143674 -0.469288386713 0.861837415977 -0.113148689234 0.848756982040 -0.112236784747 -0.096828163848 -0.454163305159
3.958022222000 -0.029064333750 -0.468265201949 0.861874992606 -0.113938565288 0.848188178577 -0.112436497702 -0.097440181867 -0.453848373555
3.958444444000 -0.030439621362 -0.468360615898 0.860886463184 -0.115590768808 0.848729577685 -0.115867165295 -0.100009264424 -0.453933703870
3.958866666000 -0.030858760862 -0.468225829034 0.861089640087 -0.118088651129 0.848330450684 -0.115703170548 -0.099216096373 -0.453677420960
3.959288888000 -0.031327467959 -0.467775206359 0.862053811387 -0.117699063279 0.850106059440 -0.118322242175 -0.099401866676 -0.454909072017
3.959711111000 -0.031931720278 -0.468277086458 0.862754573389 -0.120127978561 0.849052215141 -0.117902758910 -0.099854032171 -0.452339762334
3.960133333000 -0.032811961089 -0.468036019225 0.861859632812 -0.122019902124 0.849106559876 -0.121877373152 -0.102596775061 -0.453201568720
3.960555555000 -0.033268485833 -0.468804953235 0.862237705532 -0.123502460496 0.849407877070 -0.121827840393 -0.102382263956 -0.452325506939
3.960977777000 -0.033647268071 -0.467963617985 0.861717009050 -0.124376637549 0.849138148744 -0.122838668883 -0.103408098796 -0.451448995929
3.961400000000 -0.032467337703 -0.468482696672 0.861147200630 -0.126714787555 0.850756499083 -0.121630309062 -0.102862167439 -0.451562981456
3.961822222000 -0.035165033644 -0.467808733541 0.861746531338 -0.126705591209 0.850175932328 -0.126211168905 -0.104666142735 -0.451375147152
3.962244444000 -0.035555897949 -0.467767972859 0.861555239287 -0.128781983887 0.850088143473 -0.128182300323 -0.105983236583 -0.451545598235
3.962666666000 -0.036048058770 -0.466008707869 0.862039639901 -0.130497356069 0.848067622711 -0.128644350004 -0.107517918305 -0.450888643329
3.963088888000 -0.036595890304 -0.466800959157 0.862108558621 -0.132174805566 0.849191027016 -0.128997102284 -0.106985911858 -0.450127952775
3.963511111000 -0.037491464382 -0.467398571027 0.862032566934 -0.133180778594 0.849720332885 -0.132361713751 -0.108740326868 -0.449699897013
3.963933333000 -0.037248257284 -0.467362760731 0.862802812426 -0.134824863651 0.851087550875 -0.131581059018 -0.108272220281 -0.450126303147
3.964355555000 -0.038863804422 -0.467302583042 0.862020689589 -0.136302334239 0.849038452231 -0.134488033416 -0.109887174099 -0.448704610040
3.964777777000 -0.038515172003 -0.467433699387 0.862614077906 -0.137341342259 0.850998039662 -0.133504262320 -0.109547017141 -0.448485308051
3.965200000000 -0.039920602215 -0.467046213450 0.862161413116 -0.139567815266 0.849589679815 -0.136505697834 -0.111097584392 -0.447896516514
3.965622222000 -0.041204498360 -0.466505941987 0.862307766590 -0.140265391442 0.850021431000 -0.137889304858 -0.111316536459 -0.448150907621
3.966044444000 -0.040714540037 -0.467183239541 0.862016906935 -0.141564034784 0.849715477358 -0.138544783024 -0.112712906951 -0.446332340735
3.966466666000 -0.041647046575 -0.466000026746 0.861940774756 -0.143456117212 0.849004780231 -0.142632548813 -0.115617396661 -0.447022380523
3.966888888000 -0.042078307311 -0.466121854227 0.862502622844 -0.145014022708 0.849443802460 -0.140761036589 -0.113500565536 -0.446340520759
3.967311111000 -0.042784245527 -0.466181108280 0.862163914430 -0.146722441855 0.850563768498 -0.142963657341 -0.114744582409 -0.446889600227
3.967733333000 -0.043049863463 -0.466690225604 0.861983694672 -0.148458187891 0.851882481881 -0.143832779573 -0.115715117751 -0.446732608633
3.968155555000 -0.043331170139 -0.466348730352 0.862313138558 -0.149438780319 0.850565671751 -0.143124364192 -0.115285517920 -0.445505119309
3.968577777000 -0.044786244089 -0.466207013506 0.862117236115 -0.151178129059 0.850218795892 -0.145756459327 -0.116106177836 -0.445270792132
3.969000000000 -0.047257128490 -0.466982247781 0.861833520011 -0.152343924531 0.850913412595 -0.147934408854 -0.116667683715 -0.444472380858
3.969422222000 -0.047042188258 -0.465727947502 0.862007339491 -0.153795360004 0.850466020980 -0.148398900525 -0.116507567306 -0.444532559547
3.969844444000 -0.046237622484 -0.466648990587 0.862115226433 -0.155428952151 0.851516661688 -0.150388311658 -0.119060946537 -0.444378027514
3.970266666000 -0.047430914361 -0.465849095445 0.862094491521 -0.156776273611 0.850914276734 -0.152022231076 -0.119315429082 -0.443922570442
3.970688888000 -0.048171150974 -0.465798842005 0.862065724882 -0.158297353832 0.849851820229 -0.154958902805 -0.121442964757 -0.442903769185
3.971111111000 -0.048336624285 -0.465757454219 0.862349736692 -0.159858611532 0.850938128486 -0.153857596787 -0.120807458425 -0.442977115974
3.971533333000 -0.049249583603 -0.464687936487 0.862148953166 -0.160353168313 0.849197799309 -0.156655049762 -0.122695958122 -0.441749493845
3.971955555000 -0.049828574702 -0.465656040482 0.862196420313 -0.163051744682 0.851842746364 -0.156736160453 -0.122435861212 -0.442849852484
3.972377777000 -0.050836197447 -0.465500481493 0.862023493549 -0.164397327321 0.850159350402 -0.158642383077 -0.123185692429 -0.441241732624
3.972800000000 -0.051408671100 -0.465375111263 0.861868125069 -0.165755722297 0.851112702141 -0.159564392303 -0.123778698506 -0.441425517476
3.973222222000 -0.051045543621 -0.464751202926 0.861426256690 -0.167265747499 0.850971434947 -0.160617760322 -0.125232891795 -0.441047270442
3.973644444000 -0.052787131093 -0.465197876082 0.862416233802 -0.168708186998 0.851835513099 -0.162705727261 -0.125453969938 -0.441503462140
3.974066666000 -0.053218455071 -0.465247615880 0.862034269794 -0.169758562042 0.851477826964 -0.163204354353 -0.125824011114 -0.439835670657
3.974488888000 -0.053961968829 -0.464531580306 0.861633308716 -0.172076786667 0.852463437289 -0.166092095790 -0.127767184757 -0.440838313676
3.974911111000 -0.055160984214 -0.464240830841 0.861465725261 -0.172987495182 0.850282305485 -0.166813513011 -0.127691437174 -0.439129415978
3.975333333000 -0.055067271135 -0.465294899890 0.861750903669 -0.174686091472 0.851427255636 -0.168048407026 -0.128588679521 -0.438612038854
3.975755555000 -0.056067819249 -0.464469650634 0.861811605515 -0.176330408256 0.851898107549 -0.167927437294 -0.128095183780 -0.439075522423
3.976177777000 -0.056963389088 -0.464256154401 0.861116198031 -0.177916805338 0.851353123815 -0.171540836559 -0.130722193898 -0.438199494920
3.976600000000 -0.058812346410 -0.466390593430 0.862446952642 -0.180137725412 0.855106186727 -0.171190941001 -0.128755280078 -0.439490433131
3.977022222000 -0.058460918644 -0.464187739354 0.861597556022 -0.180367191626 0.850894322217 -0.173521643658 -0.131340716586 -0.437016922581
3.977444444000 -0.059528644455 -0.464601399997 0.861367780115 -0.182659171217 0.852775022320 -0.175817950016 -0.132440110869 -0.438316477732
3.977866666000 -0.059159488372 -0.464274600028 0.860983395264 -0.183423275104 0.851677800665 -0.176011266417 -0.132863039199 -0.436129148018
3.978288888000 -0.059993373058 -0.463762276342 0.861152297169 -0.184882686473 0.852313857210 -0.178412697785 -0.134267105747 -0.436773681425
3.978711111000 -0.061048729900 -0.464454863513 0.861776317439 -0.187007048574 0.853040521579 -0.178230267530 -0.133904971972 -0.436640908027
3.979133333000 -0.061800528246 -0.464706165155 0.861314008368 -0.187930416759 0.852762860044 -0.180537909816 -0.134640967535 -0.435712500419
3.979555555000 -0.061569018746 -0.463284415917 0.860878508963 -0.188923494977 0.851217310374 -0.180904778694 -0.135583363600 -0.434839462039
3.979977777000 -0.062790721331 -0.463864902078 0.862223523343 -0.190706847369 0.852948638016 -0.182545925307 -0.135899518584 -0.435995727326
3.980400000000 -0.063489730971 -0.463365468211 0.861225120018 -0.192109782991 0.852145486125 -0.184813544183 -0.137101886510 -0.434773133206
3.980822222000 -0.064466593432 -0.463927105097 0.861482857204 -0.193372377611 0.853402898575 -0.185051098756 -0.136820879510 -0.434777818542
3.981244444000 -0.064708446109 -0.463168975010 0.860979131136 -0.194495881755 0.852513745107 -0.186993797844 -0.138431510724 -0.433741344528
3.981666666000 -0.066801000602 -0.463809835864 0.861489520718 -0.196885706099 0.854238147137 -0.187827660689 -0.137534390421 -0.434169266602
3.982088888000 -0.067120896089 -0.462409670053 0.860618819890 -0.198317234118 0.851789328538 -0.191005870253 -0.139914444800 -0.432824878301
3.982511111000 -0.067610894900 -0.462592974418 0.861101733052 -0.200364160652 0.852887837610 -0.190665985950 -0.140327723030 -0.433412494859
3.982933333000 -0.067642620990 -0.463552239460 0.861135354667 -0.200486349029 0.853777165442 -0.191616123312 -0.139894649641 -0.432525634334
3.983355555000 -0.068983630821 -0.462491177610 0.861006395961 -0.202705775856 0.852630711523 -0.192907605272 -0.140557412342 -0.432587693572
3.983777777000 -0.069613300925 -0.463087990077 0.861429970994 -0.204032236614 0.853935957306 -0.193476579518 -0.141000156510 -0.432323446192
3.984200000000 -0.069216470511 -0.459175730454 0.859667311253 -0.202747934226 0.846799427218 -0.195310256473 -0.141107349643 -0.429611988351
3.984622222000 -0.071710285829 -0.461980175452 0.860363179449 -0.206733505287 0.852389178263 -0.198179815554 -0.143029368830 -0.430804697425
3.985044444000 -0.072465136289 -0.461498494886 0.860304295277 -0.208372386862 0.851899080807 -0.200062837637 -0.144277957349 -0.430289367796
3.985466666000 -0.072773797791 -0.462304258255 0.860951435854 -0.209401096988 0.853293053859 -0.199653774730 -0.143378021526 -0.430384893266
3.985888888000 -0.074031382197 -0.462018492388 0.859626041052 -0.211832006049 0.853601709594 -0.203328134250 -0.145561131240 -0.430102718107
3.986311111000 -0.074640409476 -0.461882600046 0.859484267704 -0.213114383512 0.853612080310 -0.203264079446 -0.145554024221 -0.429138591676
3.986733333000 -0.074888818425 -0.461301953023 0.861977672281 -0.214264388473 0.852910315524 -0.202360532258 -0.144308382385 -0.429565208733
3.987155555000 -0.076411788989 -0.462056177914 0.859758346327 -0.216054484887 0.853757929599 -0.206615782805 -0.146998255233 -0.428516925476
3.987577777000 -0.076123174943 -0.461234305060 0.860618916460 -0.216173637271 0.851718524235 -0.205593870395 -0.146081811615 -0.427792456861
3.988000000000 -0.077330039713 -0.461217357021 0.859734906170 -0.218865009453 0.853466099638 -0.207938485057 -0.147378762662 -0.427857306417
3.988422222000 -0.077956103730 -0.461605968239 0.860740208545 -0.219783404117 0.853209242003 -0.208943160229 -0.147751471252 -0.427330898947
3.988844444000 -0.079199293673 -0.461650235059 0.860246035214 -0.222611474424 0.854361766388 -0.211006540233 -0.149182912668 -0.427341017888
3.989266666000 -0.080000530476 -0.461521106058 0.859790170598 -0.223343923999 0.854505524174 -0.213630023294 -0.150544067526 -0.426169958921
3.989688888000 -0.079763796442 -0.460981611199 0.859773103818 -0.224158017945 0.852883986975 -0.212572055903 -0.149959127908 -0.425846680618
3.990111111000 -0.082201802512 -0.460662967704 0.858874150480 -0.226924907481 0.853162755764 -0.217753459114 -0.152339653938 -0.425120388288
3.990533333000 -0.082695381796 -0.460821858938 0.859419554742 -0.227867120972 0.853588878661 -0.217580264199 -0.151694602675 -0.424959994790
3.990955555000 -0.083335015206 -0.460134752032 0.858340376681 -0.228148641990 0.851661505978 -0.219665553167 -0.152291441270 -0.423316437007
3.991377777000 -0.083906992504 -0.460534328981 0.859505406005 -0.229790375874 0.854335117320 -0.219640020601 -0.152057406939 -0.424812375850
3.991800000000 -0.084105354682 -0.459314600795 0.857334063171 -0.230967222266 0.851863520116 -0.220995677856 -0.153105566007 -0.423276357142
3.992222222000 -0.084755028026 -0.459713309832 0.858264895878 -0.231504369010 0.852791311734 -0.222915535246 -0.154066157678 -0.422771521750
3.992644444000 -0.086480505907 -0.459708532047 0.857249440538 -0.234298530955 0.853032840700 -0.224919345626 -0.154592685348 -0.421858924741
3.993066666000 -0.087456330502 -0.460561799319 0.858422903417 -0.236594274464 0.855368014490 -0.225918316435 -0.155405540189 -0.422492896513
3.993488888000 -0.088320715260 -0.458842312025 0.858528325304 -0.238282545958 0.852450843780 -0.227163188889 -0.155842719716 -0.421493901320
3.993911111000 -0.089355409617 -0.458490822370 0.856860722606 -0.239977202700 0.852520343121 -0.230189374981 -0.156996279709 -0.420354677815
3.994333333000 -0.089378692721 -0.457569491804 0.856985079516 -0.240882875048 0.851894924652 -0.230592467439 -0.157422929830 -0.420787357703
3.994755555000 -0.091427430634 -0.459450714330 0.857568568941 -0.243664605185 0.854908919614 -0.232533297235 -0.158187966819 -0.420548019053
3.995177777000 -0.091410184003 -0.459120387493 0.858264760675 -0.244529126605 0.853045140458 -0.232185393813 -0.157997452393 -0.419565337154
3.995600000000 -0.092144164621 -0.459566296700 0.858046571153 -0.245613855689 0.854293888525 -0.234403813692 -0.159135153671 -0.419292342673
3.996022222000 -0.093403451737 -0.458039478349 0.856415843070 -0.247579932369 0.852724486941 -0.235833496834 -0.158665587377 -0.417679338389
3.996444444000 -0.094620282983 -0.457349693360 0.856033182668 -0.250649774415 0.852995291913 -0.238979908653 -0.161045892919 -0.417510057368
3.996866666000 -0.094470182882 -0.457669980498 0.856691191913 -0.251239437352 0.853764977912 -0.239017462991 -0.161364432641 -0.418225565390
3.997288888000 -0.097131095669 -0.457632910107 0.856615767418 -0.253437920010 0.853612455000 -0.242546209986 -0.162608975354 -0.416887766654
3.997711111000 -0.097393023851 -0.458142519760 0.856392028701 -0.253392107022 0.854543717615 -0.242600841400 -0.161761492486 -0.416716212575
3.998133333000 -0.099152679497 -0.456685079719 0.855611382695 -0.256588434172 0.853838039175 -0.245519305993 -0.163353445647 -0.415968030358
3.998555555000 -0.097825465838 -0.457314106698 0.857731637598 -0.255656944128 0.852790371483 -0.243392253259 -0.162303655844 -0.416169453320
3.998977777000 -0.100528495851 -0.456769833614 0.855292197816 -0.259787886837 0.853601794864 -0.248569989239 -0.165080618987 -0.414754917427
3.999400000000 -0.100663455187 -0.458366195404 0.856430707851 -0.258609506223 0.854873856525 -0.250702036814 -0.166330567116 -0.414865314492
3.999822222000 -0.101428108876 -0.455506641860 0.853742163593 -0.263189292328 0.852872786910 -0.250294306191 -0.165596781741 -0.414011570859
4.000244444000 -0.103998091899 -0.456167462111 0.856089477727 -0.264524595257 0.855336679335 -0.253024853202 -0.166379631011 -0.414647225671
4.000666666000 -0.104286615500 -0.456139364527 0.856454697667 -0.265697882708 0.853103863336 -0.255696496110 -0.168028213680 -0.413052069032
4.001088888000 -0.104161145926 -0.455412732510 0.856007004618 -0.267747485706 0.853364422887 -0.255013202138 -0.167615437005 -0.412978139730
4.001511111000 -0.104564733968 -0.454903161547 0.854778396895 -0.267753377795 0.852707483026 -0.256609652487 -0.168389687034 -0.411736004455
4.001933333000 -0.106119936212 -0.454456867527 0.852464150176 -0.270755583732 0.852292490339 -0.258812143668 -0.168893986644 -0.410964104812
4.002355555000 -0.106930672381 -0.453641038026 0.852926228963 -0.270834234209 0.852491408275 -0.260985515457 -0.169121609973 -0.411007804961
4.002777777000 -0.107877380074 -0.452790702251 0.852244845202 -0.272834302745 0.851322947080 -0.263079254422 -0.170539545857 -0.409758085292
4.003200000000 -0.108209245985 -0.454038183880 0.852971225832 -0.273428082494 0.853847384288 -0.262553833172 -0.170330800214 -0.410346495570
4.003622222000 -0.109893315685 -0.452657650861 0.851166314936 -0.275903119540 0.851940347279 -0.265841920821 -0.170346346682 -0.408599151374
4.004044444000 -0.111848299994 -0.453056301762 0.853239171964 -0.279926143794 0.852024277825 -0.266599551224 -0.172321026562 -0.408447380929
4.004466666000 -0.111930630772 -0.453988835180 0.854855659495 -0.278363226058 0.854518371651 -0.270087962593 -0.173658843968 -0.410429185167
4.004888888000 -0.112763057398 -0.451473449869 0.852190964859 -0.281197369290 0.850085537691 -0.269637465279 -0.172411331678 -0.407353811106
4.005311111000 -0.114279686267 -0.451977445537 0.850194769156 -0.282889770518 0.853376073874 -0.273568242392 -0.174192996810 -0.407334879497
4.005733333000 -0.115102390085 -0.451701353245 0.851492771495 -0.283617660252 0.853104529976 -0.276019524161 -0.175547050720 -0.407175648518
4.006155555000 -0.115549411529 -0.451593763182 0.851221492386 -0.286405057121 0.852320054401 -0.274913153989 -0.174996200510 -0.406303642579
4.006577777000 -0.117216183827 -0.450080695821 0.850585476236 -0.288557332265 0.850150128369 -0.278237297955 -0.175860356760 -0.404696578841
4.007000000000 -0.113386235314 -0.448726443578 0.844748898152 -0.289401287386 0.849879273013 -0.273401972676 -0.173940858997 -0.401722853361
4.007422222000 -0.118680841453 -0.450023312031 0.849283123723 -0.290657699343 0.851535246845 -0.281283198782 -0.176941016359 -0.404280415296
4.007844444000 -0.119014215042 -0.449722597384 0.849491098166 -0.292351904602 0.852121119979 -0.281343294423 -0.177389465296 -0.404540110206
4.008266666000 -0.117884135344 -0.449062738726 0.847022102194 -0.291107687256 0.850890127978 -0.281815494733 -0.175766534701 -0.403727930834
4.008688888000 -0.120205163620 -0.448009137208 0.847506797387 -0.292654759170 0.848478245470 -0.285282015555 -0.177002182403 -0.402148617535
