# GHZ S RI R 50.000000000000
3.950000000000 -0.035655719078 0.006361428838 0.369804211356 0.912666706420 0.371737147701 0.908069259446 -0.035874428506 0.022184998531
3.950422222000 -0.035283973082 0.006640105474 0.374050968455 0.912355374756 0.372574413260 0.906660618429 -0.035295471964 0.022709720921
3.950844444000 -0.036695538703 0.005662671618 0.371937501347 0.910763548526 0.373146411876 0.906801984129 -0.037094074970 0.023070939694
3.951266666000 -0.036075871110 0.005349817470 0.375498070430 0.909057080184 0.374619477078 0.906617867795 -0.036168496824 0.022949871087
3.951688888000 -0.036483906584 0.006538956805 0.375842265710 0.908311834826 0.375816128481 0.905917906486 -0.035523837295 0.024082873777
3.952111111000 -0.035711975662 0.007322202131 0.382053538640 0.907481873960 0.377662694642 0.906796001850 -0.035249075380 0.024547686683
3.952533333000 -0.036802342088 0.006173655364 0.379525605886 0.906828534621 0.377983035476 0.907262603817 -0.037028776213 0.024797181478
3.952955555000 -0.036426234132 0.006530811699 0.382307231921 0.907428097112 0.377981375838 0.905004801719 -0.035368087385 0.024329311670
3.953377777000 -0.036165039492 0.007355922927 0.382552732066 0.907386218673 0.379160495152 0.905337612427 -0.035879780602 0.024370537926
3.953800000000 -0.036603665299 0.007721416232 0.388004892950 0.904951910961 0.382801137917 0.903966224536 -0.034955053068 0.025443349960
3.954222222000 -0.036504299509 0.007838949282 0.386721655173 0.907400100888 0.382793728999 0.904610295095 -0.034998850445 0.025732493725
3.954644444000 -0.036368555079 0.007677867105 0.387071722251 0.906928412820 0.384116098669 0.904922152842 -0.035474604716 0.025160968295
3.955066666000 -0.036617386782 0.008690807119 0.389807983947 0.905402740054 0.384250196630 0.905855933841 -0.034756227148 0.025441367531
3.955488888000 -0.036720502881 0.008417712709 0.390797917590 0.905402269821 0.385360033452 0.904866170796 -0.035142966029 0.025928874183
3.955911111000 -0.036039864592 0.008689552866 0.392510509789 0.906020568390 0.386148025494 0.905728416999 -0.034327669594 0.025572357440
3.956333333000 -0.036210177820 0.009065634624 0.389761619186 0.906531708946 0.388328682083 0.902217224266 -0.034253420885 0.025204138773
3.956755555000 -0.036750303114 0.009793892444 0.394497041921 0.904574507880 0.390522228256 0.902506155042 -0.033777371500 0.026448349321
3.957177777000 -0.036226503124 0.009579382176 0.396484546783 0.904070087595 0.391474053216 0.904896215599 -0.033728903772 0.025905324886
3.957600000000 -0.036676411847 0.010279680722 0.398369173433 0.906158556987 0.391894736001 0.904179435739 -0.033641705042 0.026382512303
3.958022222000 -0.036423485820 0.010924495365 0.399546791210 0.905538897965 0.392074158716 0.903521378960 -0.032974099406 0.026403476337
3.958444444000 -0.035436449875 0.011295397534 0.399841596829 0.904796617994 0.395865543051 0.902859980830 -0.032215053919 0.026679695499
3.958866666000 -0.036365394820 0.011905250124 0.401158785795 0.905136480270 0.394974040505 0.902224744235 -0.033238760980 0.027213821488
3.959288888000 -0.036304727477 0.012880398315 0.403635391781 0.907296630894 0.398582933235 0.903963672439 -0.032397501908 0.028344558937
3.959711111000 -0.035002840411 0.012943011588 0.406808378835 0.907232966058 0.400854301057 0.903394220898 -0.031346670083 0.027393145649
3.960133333000 -0.034641930409 0.012495748183 0.408211076834 0.902581122640 0.402596452220 0.901268415513 -0.031643797817 0.026208889593
3.960555555000 -0.036256735944 0.013529973105 0.408940892240 0.905016026283 0.400573981175 0.902758839327 -0.031635545968 0.027352250970
3.960977777000 -0.034806677639 0.014191187087 0.412395594754 0.903902757297 0.403872625359 0.902811928855 -0.030366104543 0.027612682830
3.961400000000 -0.033843682332 0.014075874370 0.411263479929 0.902109984106 0.406223304082 0.902853536885 -0.031501565228 0.027971505483
3.961822222000 -0.034896322907 0.013842152219 0.412337822058 0.905677069330 0.406610223868 0.902977280638 -0.031398537350 0.027297940743
3.962244444000 -0.034461882853 0.014242955400 0.413719231446 0.903727398297 0.407235702686 0.901523142574 -0.030961402317 0.026489535259
3.962666666000 -0.035703430796 0.015781086646 0.414836188881 0.904974810835 0.407507267249 0.902301864254 -0.030779807680 0.027810635980
3.963088888000 -0.034794630295 0.016041375379 0.417718380336 0.904919050870 0.410367445114 0.902351141422 -0.030207312152 0.028339147868
3.963511111000 -0.034349278781 0.014980160116 0.417315923867 0.902875575031 0.413460423298 0.900560912473 -0.029915733698 0.027264484922
3.963933333000 -0.033956234044 0.013670141412 0.419487222391 0.899255262158 0.414891887176 0.900399833295 -0.030331567625 0.026711456823
3.964355555000 -0.033518069207 0.015425615725 0.423877094599 0.901699119741 0.416842314872 0.899486056772 -0.029119926110 0.028182729466
3.964777777000 -0.032803636446 0.016982903765 0.425412202757 0.905037210824 0.417700168948 0.904461196842 -0.029217898838 0.027731107323
3.965200000000 -0.033592456349 0.015777562113 0.424282866021 0.899455842318 0.418685655837 0.898947879377 -0.028948658753 0.027140487365
3.965622222000 -0.032909684473 0.016471301964 0.427363758006 0.900256862414 0.421670633079 0.899526258016 -0.027880718957 0.028385536231
3.966044444000 -0.033029537464 0.016050462946 0.425699178416 0.898948412652 0.421587374293 0.899822122772 -0.028815805108 0.026600091591
3.966466666000 -0.032712345454 0.017884043907 0.430306505295 0.900478749624 0.424389992532 0.898890434150 -0.027221583772 0.028238097767
3.966888888000 -0.032240530485 0.016841415520 0.432169805450 0.899933269990 0.423511235018 0.898167837292 -0.027996495620 0.026007150751
3.967311111000 -0.032651134095 0.017985223919 0.432878294251 0.901356806114 0.425991273053 0.898697523559 -0.027085349883 0.027623799724
3.967733333000 -0.032308934918 0.017013019344 0.434634163324 0.896605467130 0.428785294879 0.898852916618 -0.027367295042 0.027378144152
3.968155555000 -0.030876084905 0.017880892848 0.437962620988 0.898621268897 0.428408688849 0.899386793673 -0.026439293940 0.026301920772
3.968577777000 -0.031396126105 0.018027398707 0.436035547504 0.897039237027 0.431215808057 0.896827243929 -0.027098618018 0.028001993066
3.969000000000 -0.034289388493 0.017662910296 0.432900440101 0.901725554623 0.429878485173 0.896345992712 -0.027188191431 0.028387474051
3.969422222000 -0.030791932998 0.017684173533 0.441063936025 0.896143979888 0.434404099052 0.896106030752 -0.026194032340 0.027580083202
3.969844444000 -0.029990793569 0.018463484106 0.447050019899 0.895691696411 0.434080656915 0.897672227828 -0.025704416355 0.025755887220
3.970266666000 -0.030042121625 0.019303091281 0.445408058698 0.896289283102 0.437607352952 0.896994495936 -0.024992842062 0.027194586026
3.970688888000 -0.029924114011 0.018833360236 0.446497206881 0.895349321501 0.439413542624 0.895610469132 -0.025706945813 0.026715235751
3.971111111000 -0.029681670828 0.019567587968 0.448589894390 0.896164630957 0.440570511308 0.896304302005 -0.024745045647 0.027015337931
3.971533333000 -0.029119851381 0.019777523895 0.450712628602 0.895850853400 0.442053550909 0.895564200674 -0.023994448554 0.026254960783
3.971955555000 -0.028458154303 0.019568841018 0.452782383478 0.893752053902 0.443865215028 0.895567527653 -0.024484398223 0.026748840838
3.972377777000 -0.029249157075 0.019221043078 0.453071016380 0.893950537313 0.444998662696 0.893923223706 -0.024621664870 0.025741391147
3.972800000000 -0.028060525201 0.020187205679 0.454613171227 0.893346924286 0.447581682873 0.894609021150 -0.023286787189 0.026179040531
3.973222222000 -0.027920987933 0.019865400316 0.455304952584 0.891553882813 0.447424612865 0.892949292792 -0.022676084856 0.025474892356
3.973644444000 -0.027496429406 0.019441206211 0.457895165945 0.890681410603 0.451075176840 0.893290007486 -0.023210544981 0.025453667504
3.974066666000 -0.027017306014 0.020225302808 0.461047228409 0.891469437938 0.452278426520 0.893436831124 -0.021851760681 0.025455600983
3.974488888000 -0.026744840616 0.019697245715 0.462715919441 0.889081756606 0.454096119281 0.891656741329 -0.022649101782 0.024975445088
3.974911111000 -0.026606597990 0.020115580975 0.464085532988 0.888748184061 0.456516895457 0.890828271504 -0.022417683775 0.026147276286
3.975333333000 -0.025712462378 0.020365927644 0.466361779420 0.889221289969 0.458001514252 0.891209418431 -0.022548763533 0.025122894962
3.975755555000 -0.025929329116 0.019923089608 0.466888867085 0.886772613946 0.458499391798 0.890590009001 -0.022515970701 0.024881622992
3.976177777000 -0.025477751708 0.020742629509 0.468667323553 0.887538723001 0.461025930843 0.890530196239 -0.021930661763 0.025536404021
3.976600000000 -0.023993819034 0.019211818183 0.473366452986 0.883937884932 0.464674110643 0.891223177107 -0.023037569859 0.024562713492
3.977022222000 -0.025252619143 0.020895467334 0.472930603942 0.886808602220 0.464440440935 0.889098251099 -0.021546830731 0.025049538505
3.977444444000 -0.024806415022 0.020612638332 0.474139330254 0.885333361180 0.465622708313 0.889352789863 -0.022107162737 0.024205223460
3.977866666000 -0.024151625524 0.020261723326 0.476104176051 0.884109339456 0.467522408403 0.888405709808 -0.021696386588 0.023665111696
3.978288888000 -0.023452665255 0.020496157166 0.478553372629 0.883843474981 0.469704134951 0.887275784859 -0.020466258533 0.023471029905
3.978711111000 -0.023706458340 0.020181507951 0.478117942773 0.882597023924 0.470926751147 0.887188087954 -0.020582938248 0.023868360374
3.979133333000 -0.023800634147 0.020577021458 0.479210242076 0.883184281244 0.472530925138 0.885964104674 -0.020452654906 0.023560472736
3.979555555000 -0.022711043250 0.020534964355 0.481937319722 0.880779976827 0.473766179014 0.885905771875 -0.019719333875 0.023852593968
3.979977777000 -0.022363273966 0.020759474425 0.483945495362 0.881658922197 0.475386297760 0.885837133947 -0.019996230416 0.022608035779
3.980400000000 -0.022620271058 0.020658734156 0.484394861600 0.880408241629 0.477144994078 0.885085762304 -0.020200827526 0.022624004724
3.980822222000 -0.022014119681 0.020315828592 0.487215802852 0.879111517280 0.478906030502 0.884351045344 -0.019894916794 0.022888940040
3.981244444000 -0.021434618876 0.020222548047 0.488685805685 0.877614265590 0.480971109077 0.883520282155 -0.019620711963 0.021903949034
3.981666666000 -0.021819338017 0.019281271611 0.489350015536 0.876719462655 0.483421088289 0.883041700088 -0.020332270300 0.021193286141
3.982088888000 -0.021217591923 0.019834982588 0.492452234677 0.876489832885 0.484508306348 0.880510346943 -0.019545332581 0.021777484781
3.982511111000 -0.020818467266 0.020407872752 0.494565575504 0.876054812194 0.485373432645 0.880813127697 -0.019172996777 0.022050780740
3.982933333000 -0.020508472210 0.019985987622 0.494526742829 0.875306771682 0.487791864061 0.881395325716 -0.019405676544 0.020485535232
3.983355555000 -0.020313252399 0.019749966804 0.497143142323 0.873101211275 0.488617808369 0.878926769209 -0.018981424317 0.021163691198
3.983777777000 -0.019775311410 0.019407806013 0.497964325084 0.872738199372 0.490665719931 0.879424041830 -0.018509492130 0.020247916643
3.984200000000 -0.019706907287 0.019574234287 0.498440762082 0.871785210939 0.490034796374 0.877087171677 -0.019071568556 0.020180147402
3.984622222000 -0.018667689806 0.019829525640 0.502452117707 0.871058634130 0.494010370208 0.876882722230 -0.018098987309 0.020128522719
3.985044444000 -0.019338523497 0.019332085053 0.502243574651 0.870242059623 0.495392498487 0.875529316400 -0.018186292845 0.021108268143
3.985466666000 -0.018553158624 0.019348843514 0.504886058922 0.869944122315 0.497878424496 0.875652686993 -0.017857648747 0.019153234383
3.985888888000 -0.019107847954 0.018432961258 0.503769035439 0.867536900519 0.498746270653 0.874466226939 -0.018355444471 0.019515590521
3.986311111000 -0.017959691962 0.019289616697 0.508270343506 0.867762164281 0.500156525161 0.874732642514 -0.017453069355 0.019154818708
3.986733333000 -0.017913702471 0.018694277434 0.508582180281 0.865535497257 0.501730323294 0.871240547829 -0.017472766050 0.019142126354
3.987155555000 -0.017568609306 0.018609966202 0.511200035210 0.865792139195 0.504352805841 0.872254875220 -0.018178888286 0.019178714294
3.987577777000 -0.017661167153 0.018762487214 0.512327757168 0.865212153493 0.504629162374 0.870577515482 -0.017738977379 0.018665194418
3.988000000000 -0.016677974340 0.018824896671 0.513886771504 0.864074724066 0.506096090420 0.870624381791 -0.017377128496 0.018690172744
3.988422222000 -0.016686958210 0.018897076936 0.515434147241 0.863404697996 0.507803292681 0.870491875391 -0.017667062401 0.018456105873
3.988844444000 -0.016610312187 0.018330494406 0.517100214569 0.862272361599 0.509427088083 0.869516543471 -0.017007683216 0.017873101413
3.989266666000 -0.016152793255 0.017279643563 0.518263005235 0.860593637101 0.512722617590 0.868857052963 -0.017591254810 0.017396377546
3.989688888000 -0.016021444818 0.018572034227 0.519629047860 0.860299786302 0.512276034935 0.868789088577 -0.017850093131 0.017858164649
3.990111111000 -0.015361118947 0.016922952441 0.522851807696 0.858818417277 0.515677259162 0.867343510669 -0.018328694980 0.016706861304
3.990533333000 -0.015382723073 0.017713086881 0.523055474660 0.857930290047 0.516234230762 0.865910436340 -0.017893419499 0.017734400277
3.990955555000 -0.015150500743 0.017239507924 0.525095675835 0.857019855100 0.518565982814 0.864428519419 -0.017816475935 0.017035347598
3.991377777000 -0.014812965064 0.016930536755 0.526207889356 0.855828251815 0.520149346837 0.864013955020 -0.017479765605 0.016462115725
3.991800000000 -0.014605681177 0.017467913445 0.528398056890 0.854003394392 0.519376211487 0.863300729824 -0.018676704542 0.016137184655
3.992222222000 -0.014198996535 0.016291224708 0.529193394693 0.853367106445 0.523457387841 0.863441179099 -0.017488024448 0.015698252550
3.992644444000 -0.014368933923 0.016345908388 0.530766199311 0.852379719027 0.525062029637 0.862075626322 -0.017831873914 0.015309863893
3.993066666000 -0.013868092363 0.015910120218 0.531957446638 0.851292382594 0.527083438843 0.861477033244 -0.017643542007 0.015772950291
3.993488888000 -0.014219026114 0.016407757538 0.533631287715 0.849785970765 0.526816628206 0.858903512616 -0.018211593400 0.015822271988
3.993911111000 -0.014213747354 0.015317069021 0.534793875474 0.849381074379 0.529047569252 0.858244645777 -0.017700142120 0.015139825461
3.994333333000 -0.014352035084 0.016262795162 0.535701845617 0.849430269949 0.529361166194 0.856262660840 -0.017565272799 0.015899420186
3.994755555000 -0.013764229768 0.015428377722 0.538134738470 0.847761445643 0.532677926518 0.856800257364 -0.017777034249 0.014584896845
3.995177777000 -0.013962600007 0.015034578228 0.539850157269 0.846503669106 0.533664212584 0.854160956645 -0.018143666805 0.014432053690
3.995600000000 -0.013382508365 0.015111676027 0.540763783783 0.845929425893 0.535267072871 0.854885052392 -0.018062088272 0.014048605467
3.996022222000 -0.013538601110 0.014716924051 0.541275871952 0.844277826561 0.536257148438 0.852132876098 -0.017995757009 0.014450230383
3.996444444000 -0.013332435890 0.014415207025 0.542801587114 0.843514317897 0.538540534520 0.853035113596 -0.017827558094 0.014100229204
3.996866666000 -0.013018711180 0.014647736165 0.544715581661 0.842654217436 0.538708305450 0.852296101317 -0.018072193730 0.013534090291
3.997288888000 -0.013069238563 0.014038688200 0.546589185771 0.841527068125 0.542113714677 0.850518413209 -0.018309981211 0.013655133906
3.997711111000 -0.012869789595 0.013643855111 0.546964013216 0.839319435236 0.543783264002 0.849736426441 -0.018638482202 0.013084318238
3.998133333000 -0.012718951971 0.013273985926 0.549277782437 0.838244008810 0.544935871877 0.847878066995 -0.018163168719 0.013431111590
3.998555555000 -0.012967363514 0.014229144243 0.549707497189 0.838253544869 0.543847604616 0.847217131316 -0.018248640766 0.013516541043
3.998977777000 -0.012485281862 0.013082627096 0.552239171794 0.836149691764 0.547614726072 0.846416902999 -0.018762969725 0.013082212608
3.999400000000 -0.012077216494 0.013336184801 0.553004499134 0.834825747638 0.549462275889 0.846733613743 -0.019515801314 0.013475097217
3.999822222000 -0.012844865014 0.013074834851 0.555633560348 0.833850232793 0.549328299239 0.843420461315 -0.019146366500 0.012358095101
4.000244444000 -0.012550433468 0.012484839140 0.555427214947 0.834149301322 0.551365628655 0.843601510161 -0.018003196703 0.012516096756
4.000666666000 -0.012842829367 0.012100660043 0.557808329259 0.833463721020 0.555135214545 0.842387289081 -0.018979408127 0.012185282256
4.001088888000 -0.012758326569 0.012542396603 0.558294022042 0.833410714546 0.552464574175 0.842372218173 -0.018243586802 0.012140455208
4.001511111000 -0.012523445444 0.011655475747 0.559063487762 0.829787808471 0.554615078702 0.838771210246 -0.018136938450 0.012504803506
4.001933333000 -0.013530681017 0.012144945930 0.561291563958 0.827709680494 0.556300304399 0.835646269403 -0.020764401713 0.012348948787
4.002355555000 -0.013281520630 0.011659779962 0.561195532745 0.828492061587 0.559431540162 0.837644426558 -0.019223096551 0.012061578592
4.002777777000 -0.012399601772 0.011911522695 0.563243845808 0.825782752559 0.559081771850 0.837033966626 -0.019267131650 0.012370783198
4.003200000000 -0.011977538666 0.011157841390 0.564865840637 0.825494381913 0.560616361163 0.836186494847 -0.018754894346 0.012096436940
4.003622222000 -0.013029492850 0.011308546697 0.564644938182 0.824593652820 0.562468211539 0.833943289996 -0.019585863893 0.011939521364
4.004044444000 -0.012348563093 0.011143399771 0.567918513664 0.823337600685 0.563796378384 0.832968689988 -0.019827000990 0.012471498453
4.004466666000 -0.013446496814 0.011149574468 0.569141088530 0.823921728296 0.566305539760 0.832714246750 -0.020354108389 0.010752927061
4.004888888000 -0.012449104374 0.010709908813 0.570638162783 0.821619237478 0.566086258319 0.831036396320 -0.019399124570 0.011311067955
4.005311111000 -0.013403037670 0.010111055067 0.571470494146 0.818800073167 0.567532467554 0.828050997757 -0.020716228320 0.011355180586
4.005733333000 -0.012655625385 0.010022380633 0.571706898018 0.819627105488 0.571445228853 0.829925003477 -0.019922791036 0.011282016342
4.006155555000 -0.012714029284 0.010281725266 0.574202311202 0.817732717319 0.570372243229 0.828322096816 -0.020179795261 0.011099082396
4.006577777000 -0.013302230920 0.009862797761 0.574998231847 0.816535405471 0.571783157619 0.826113113950 -0.020192465269 0.011305628920
4.007000000000 -0.011119175876 0.009568109565 0.573396817943 0.813531023925 0.570095714824 0.829898815246 -0.016886143950 0.011790832130
4.007422222000 -0.013085563481 0.009473990421 0.576396707650 0.815349231433 0.575902671638 0.823951855329 -0.020351009318 0.011492984416
4.007844444000 -0.012892375789 0.010006376292 0.578458261708 0.813204343947 0.575776767907 0.824044768828 -0.020186007006 0.011537434950
4.008266666000 -0.012618421075 0.010473326922 0.575436995923 0.814694563780 0.575243178712 0.822461848299 -0.020270627491 0.011912559197
4.008688888000 -0.012430800530 0.009786714395 0.577048402571 0.812282215313 0.578657885057 0.820092194734 -0.020760520101 0.012284989075
4.009111111000 -0.012585328598 0.009956644611 0.577657674698 0.811771692205 0.578034597264 0.818827049662 -0.020964684019 0.012520417684
4.009533333000 -0.013427001968 0.008757871693 0.578803993129 0.812115944726 0.582629328021 0.816218412630 -0.020813830254 0.011000576826
4.009955555000 -0.013100617120 0.008627378167 0.579962561383 0.811034310621 0.582384088362 0.818270300202 -0.019568645870 0.010854307800
4.010377777000 -0.013582075659 0.009281925729 0.580601033261 0.810715260554 0.584304648838 0.816588347151 -0.020548422513 0.010516986477
