# GHZ S RI R 50.000000000000
3.950000000000 -0.037054419536 0.006016449271 0.366908883587 0.919573582696 0.376177598292 0.909158201730 -0.033564753035 0.021423744176
3.950422222000 -0.037056755619 0.006511586449 0.371615806605 0.918809247652 0.375938666018 0.909855401531 -0.033679481291 0.021914356243
3.950844444000 -0.037752804277 0.005512962504 0.371880806675 0.916849713353 0.377725740095 0.908976438097 -0.034419661955 0.022526084855
3.951266666000 -0.037542282600 0.005593086649 0.372884322588 0.917166919710 0.378768825834 0.909734376808 -0.034688301519 0.022977971259
3.951688888000 -0.038080547337 0.006906562735 0.374826253009 0.917106942766 0.378756021752 0.910022386261 -0.034185999463 0.024004741889
3.952111111000 -0.037249278447 0.007340286506 0.379953535647 0.915687194757 0.380069658938 0.908951667192 -0.033759749243 0.023892973005
3.952533333000 -0.038017938625 0.006014131118 0.378444675365 0.914961664543 0.381140355023 0.908671651212 -0.034763461752 0.024110070080
3.952955555000 -0.037861505257 0.006798696944 0.381642097514 0.915166362400 0.381486199879 0.909031409224 -0.033868981287 0.024064004128
3.953377777000 -0.036870429711 0.007530997353 0.384882734484 0.915220968213 0.383205156876 0.908688120889 -0.033390710246 0.024054368545
3.953800000000 -0.037719153169 0.007025006226 0.384796519546 0.910320815965 0.386905390708 0.903525278675 -0.032740440213 0.024023808252
3.954222222000 -0.038181412059 0.007910986831 0.385118517058 0.914398877720 0.385216345476 0.907911116897 -0.033536002226 0.024760858097
3.954644444000 -0.037323670529 0.007625782170 0.387820176829 0.914105592409 0.387598656204 0.907459285198 -0.033212675435 0.024441021191
3.955066666000 -0.037639695881 0.008850145702 0.389653396772 0.914321311435 0.387865280327 0.908147962724 -0.032513542516 0.025073929783
3.955488888000 -0.037662625101 0.008762401761 0.391229965906 0.914282041283 0.388772659010 0.907224020538 -0.032706431306 0.025428122721
3.955911111000 -0.036831791952 0.009213310819 0.392501470204 0.914205827594 0.390336402254 0.908742020763 -0.032156077105 0.025363473931
3.956333333000 -0.036670104027 0.009456748002 0.393617629945 0.914574024596 0.391661069264 0.906366689840 -0.031635147764 0.024559091594
3.956755555000 -0.037347831626 0.010703800339 0.397106205083 0.915240265530 0.393563434700 0.906714334487 -0.031479851391 0.026659298817
3.957177777000 -0.037319846883 0.010199907892 0.395576572836 0.914582637711 0.394353947747 0.907560898789 -0.031799071539 0.025796002195
3.957600000000 -0.037343550656 0.010552049364 0.398063597960 0.914289408399 0.396431878797 0.906880016333 -0.031337394343 0.026298181769
3.958022222000 -0.037149857131 0.011275142846 0.399215798429 0.913355100497 0.396353262042 0.906357946059 -0.030733526953 0.026062565505
3.958444444000 -0.037298380811 0.012060184076 0.396899815826 0.915206523885 0.398684424435 0.907236279090 -0.030540829647 0.026016323364
3.958866666000 -0.038089292775 0.011958721451 0.398971986428 0.913001053491 0.397034305029 0.905561800817 -0.031396430462 0.025492177382
3.959288888000 -0.037900352803 0.012458160883 0.400769654013 0.915021302698 0.401219885345 0.905153687122 -0.029792566789 0.026392831661
3.959711111000 -0.037243107422 0.012849513208 0.400793364363 0.913720356302 0.403447055065 0.907323422445 -0.030804672077 0.025727857767
3.960133333000 -0.036497919711 0.013231690232 0.404656828721 0.913962547570 0.405334469928 0.904917477712 -0.029959597806 0.025532675487
3.960555555000 -0.038099835034 0.013738216315 0.402810878423 0.914399014659 0.404415095884 0.904930987778 -0.030002558720 0.026675686446
3.960977777000 -0.036696003339 0.014637776487 0.407083965310 0.914104916206 0.407371613687 0.905776813694 -0.028731157643 0.027286104790
3.961400000000 -0.034879659954 0.014124609705 0.411932312974 0.910722867946 0.408559260156 0.905261463695 -0.028427850714 0.025914205606
3.961822222000 -0.035881963466 0.013440343742 0.410065860325 0.912374015256 0.411012918640 0.904594393794 -0.028697492867 0.026146492196
3.962244444000 -0.035265781082 0.014659864882 0.413127439194 0.913092663060 0.410930156224 0.904512063811 -0.028175198868 0.025494363746
3.962666666000 -0.036320885308 0.015148346394 0.413471489308 0.910298338902 0.412468704719 0.903767502919 -0.027695313200 0.026226207088
3.963088888000 -0.035654518139 0.015857980506 0.416271769734 0.911943894568 0.414286111834 0.905121629600 -0.027868343195 0.026868672977
3.963511111000 -0.035531092669 0.015234295532 0.415944035247 0.911465732748 0.416642038001 0.903436418175 -0.027351562026 0.025804329558
3.963933333000 -0.035310309274 0.014663908528 0.417881848944 0.911352325249 0.417298147314 0.904043993461 -0.028065960149 0.025885529451
3.964355555000 -0.035568628192 0.015967445107 0.418819234562 0.911168380602 0.418598198615 0.903362541083 -0.028069378465 0.026962538955
3.964777777000 -0.034321053042 0.016114415054 0.420831142778 0.910464361046 0.420736178044 0.905464723342 -0.026895386692 0.025468349159
3.965200000000 -0.034575576107 0.016584347739 0.423492710246 0.910468060543 0.421844966248 0.902069925038 -0.026369381288 0.026117479033
3.965622222000 -0.034158778771 0.016717118210 0.425504245492 0.909237408776 0.424366121766 0.902407784383 -0.025393759773 0.026848789381
3.966044444000 -0.033296339294 0.016991949409 0.427486343052 0.909861570171 0.425203464444 0.903232765563 -0.025554815213 0.025336548169
3.966466666000 -0.033696856254 0.018072988178 0.427957419592 0.908577782169 0.427999816221 0.902102880159 -0.025054807494 0.026865648565
3.966888888000 -0.032833507201 0.016531616486 0.430117204435 0.906698828877 0.427867738627 0.900214510181 -0.025233327177 0.024663179439
3.967311111000 -0.033093970827 0.017775302012 0.432251325688 0.907354116945 0.429427736143 0.902017744542 -0.024908384492 0.025901985735
3.967733333000 -0.033588741756 0.017788082443 0.432792363281 0.908148837130 0.430786809260 0.901844939331 -0.024831678713 0.026124360568
3.968155555000 -0.032172337726 0.018527181921 0.435324626869 0.908956562243 0.430923520332 0.902785944085 -0.024228356348 0.024985435637
3.968577777000 -0.031788613546 0.018989936959 0.436744186773 0.907554445129 0.434103365879 0.900863041014 -0.024427844244 0.026712874240
3.969000000000 -0.031292075167 0.017824698667 0.442166356262 0.904303856551 0.438175560139 0.902600099801 -0.024751845272 0.027111706148
3.969422222000 -0.031480379415 0.018064207475 0.439469366515 0.905059536899 0.437843319111 0.899199485065 -0.023941351850 0.026105845021
3.969844444000 -0.031506998897 0.018952228794 0.441657128600 0.906596001215 0.437616080444 0.900282876730 -0.023681007669 0.025120056053
3.970266666000 -0.031005464132 0.019365011506 0.442564054561 0.904378095473 0.440805570293 0.899776157353 -0.022618691715 0.025627224552
3.970688888000 -0.030512971508 0.019573081173 0.446045122040 0.905633801043 0.442633418236 0.898515475192 -0.022654144428 0.025114548362
3.971111111000 -0.030277513070 0.019463608626 0.447286872035 0.903799764290 0.443779167820 0.898691064129 -0.022196610612 0.024987504588
3.971533333000 -0.030247862609 0.020070501825 0.447609965846 0.905140876505 0.444848074419 0.898129332010 -0.021623014439 0.024713709899
3.971955555000 -0.029147865471 0.019380969149 0.450546774808 0.901613002088 0.447042280028 0.898035504717 -0.022052429920 0.024732210509
3.972377777000 -0.029896024412 0.019492629455 0.451145084861 0.902546366694 0.448468829228 0.896442160618 -0.022005584271 0.024138920796
3.972800000000 -0.028583997503 0.020658404025 0.453583618672 0.902315068655 0.450492269361 0.898218586051 -0.021126949707 0.024381279640
3.973222222000 -0.028062346596 0.020342959952 0.455240013541 0.899871342929 0.450832081759 0.896673955041 -0.020494196233 0.023600854219
3.973644444000 -0.028046157991 0.019965923923 0.456714356419 0.900451322790 0.453613989326 0.896482173106 -0.020780142214 0.023467031337
3.974066666000 -0.027989904457 0.020201074896 0.457636579767 0.899868151558 0.455150551339 0.895762407411 -0.019750615089 0.023624247917
3.974488888000 -0.027556292589 0.020157695830 0.460556679959 0.898818985865 0.456964929194 0.894621681237 -0.020182477466 0.023165776742
3.974911111000 -0.027471512083 0.020918599647 0.462215445593 0.899353389101 0.458853545064 0.894141886545 -0.019853005346 0.024109895367
3.975333333000 -0.026761469045 0.020422660801 0.462979936532 0.898147402873 0.460594666380 0.894028790582 -0.020201717183 0.023651034165
3.975755555000 -0.026572785384 0.020386843567 0.464998349786 0.896804352656 0.461119931255 0.893730361507 -0.019983438886 0.023069382899
3.976177777000 -0.025861569737 0.021490428237 0.467950167895 0.897782302481 0.464155950319 0.893943539280 -0.019434588003 0.023739144056
3.976600000000 -0.026119598523 0.020781992465 0.468265852570 0.898944507522 0.466127376784 0.894449790317 -0.020436159614 0.022883836218
3.977022222000 -0.025411572048 0.020723597780 0.471783350138 0.894497287453 0.467643451093 0.892039841747 -0.019435045552 0.022743552826
3.977444444000 -0.025059861983 0.020776677689 0.472792336119 0.893887314188 0.468820891852 0.892276966577 -0.019911447391 0.022269942632
3.977866666000 -0.024504038015 0.020775761785 0.475099681100 0.893645672656 0.470505479470 0.891329984195 -0.019069383286 0.021584685937
3.978288888000 -0.024126603925 0.020422089287 0.475612842585 0.891689693409 0.472309061474 0.890402492240 -0.018650190677 0.021563237957
3.978711111000 -0.023383229719 0.020600656222 0.478720174763 0.891579325149 0.474159331958 0.890091931448 -0.017883536630 0.021778204931
3.979133333000 -0.023789166990 0.020607511992 0.478535276133 0.891255724055 0.475748770462 0.888922593613 -0.017932813150 0.021246112324
3.979555555000 -0.022743295279 0.020696012687 0.480651180508 0.889763126781 0.477234468467 0.888749769078 -0.017438400627 0.021678804472
3.979977777000 -0.022201514068 0.020641147629 0.483045686129 0.889187568797 0.479252331509 0.888239949602 -0.017581221787 0.020322551795
3.980400000000 -0.022237242628 0.020958203825 0.484773147569 0.888793881731 0.480470057957 0.887903302200 -0.017829907225 0.020065123625
3.980822222000 -0.022252826850 0.020676483834 0.485757698673 0.888628065560 0.482216994548 0.887190032477 -0.017253058965 0.020711451157
3.981244444000 -0.021772937594 0.020536629526 0.486997134996 0.887229479949 0.484084681256 0.886252939702 -0.017068793776 0.019765161508
3.981666666000 -0.021100334543 0.020152834184 0.490964255235 0.886499453371 0.486875947131 0.886219629963 -0.017769511635 0.018715086465
3.982088888000 -0.021323105534 0.019624868899 0.491029481863 0.884449382825 0.487401433199 0.883426412523 -0.016840065061 0.019404844670
3.982511111000 -0.021135119308 0.020298948710 0.492189446893 0.884666919090 0.488321355680 0.883666776135 -0.016875084581 0.019979168914
3.982933333000 -0.020706077994 0.019768532290 0.492250648236 0.883417543719 0.490634326280 0.884276491714 -0.017028886965 0.018307244084
3.983355555000 -0.020615972791 0.020165677897 0.495196821165 0.882801485307 0.491516437475 0.882059070414 -0.016539150040 0.018974250062
3.983777777000 -0.019374803413 0.019606227931 0.497887524441 0.881271360366 0.493780369728 0.882266275833 -0.016174375882 0.017948403475
3.984200000000 -0.018455235699 0.019585241671 0.500270770561 0.878815975651 0.493057092522 0.880212272352 -0.016824939840 0.017833095871
3.984622222000 -0.018915634153 0.019928890347 0.500042708560 0.880513135184 0.496949199800 0.880209531906 -0.015475380774 0.018042578297
3.985044444000 -0.019209956553 0.019356795704 0.500835386679 0.878765542124 0.498269193993 0.878614095334 -0.015649758317 0.018576707646
3.985466666000 -0.018711011302 0.019457375240 0.502865157149 0.879039627549 0.500379713621 0.878851319938 -0.015508467335 0.017091666630
3.985888888000 -0.019107278995 0.019006412439 0.502524345187 0.877540041458 0.501061190264 0.877797236240 -0.015896583145 0.017531909185
3.986311111000 -0.017562108732 0.018956593475 0.507010310395 0.875222579332 0.502881624867 0.877931240533 -0.015530139147 0.016770551340
3.986733333000 -0.018100455813 0.019350175293 0.507112185145 0.876560972081 0.504738618751 0.874516296699 -0.014850446440 0.017200355683
3.987155555000 -0.017794303757 0.018492876718 0.508820555652 0.874573997666 0.507027150240 0.875314863267 -0.015883594655 0.016952615175
3.987577777000 -0.017427524204 0.018951958346 0.511368825040 0.874307104718 0.507629965292 0.873933463804 -0.015042851533 0.016415088467
3.988000000000 -0.016190934232 0.018685236557 0.513156721223 0.872343844510 0.509349861092 0.874578834007 -0.014704933605 0.016615799024
3.988422222000 -0.016142053124 0.019036299389 0.514962613749 0.872391746711 0.511070001062 0.873257434586 -0.015341342910 0.015864850001
3.988844444000 -0.015938570730 0.018302431836 0.516893553271 0.871045164785 0.512490738143 0.872310542715 -0.014751438461 0.015498300729
3.989266666000 -0.015723573174 0.017215245596 0.517367102601 0.869251562982 0.516291556030 0.871723150846 -0.015045856420 0.014698952374
3.989688888000 -0.015291933588 0.018578637651 0.519504939094 0.869092307314 0.515440772035 0.871387279419 -0.015517185398 0.015137287591
3.990111111000 -0.014517318352 0.017262129996 0.523141316249 0.867687439757 0.519147255597 0.870559414378 -0.015597978887 0.013814904355
3.990533333000 -0.014850942049 0.017591437064 0.522154166603 0.866290964158 0.519352073829 0.868891959894 -0.015492919661 0.015172634277
3.990955555000 -0.014546774243 0.017155655952 0.524172157601 0.865639154212 0.521434843441 0.867939453316 -0.015303346548 0.014764319215
3.991377777000 -0.014440672246 0.016866894807 0.525114339383 0.864744939593 0.523002629262 0.867258532756 -0.015396553903 0.014233860335
3.991800000000 -0.014342637911 0.017016533992 0.526826361585 0.862650822558 0.522947417504 0.866796375028 -0.016205472430 0.013772526912
3.992222222000 -0.013923572320 0.016221282337 0.528073445426 0.862296998663 0.526288445439 0.866558117423 -0.015155304531 0.013186518651
3.992644444000 -0.013827568857 0.016345574928 0.530408038060 0.861011443284 0.527332378776 0.864658812844 -0.015712549587 0.012746557621
3.993066666000 -0.013221910140 0.015730965694 0.531126212855 0.859778885981 0.529960423466 0.864258992655 -0.015276304251 0.013230407956
3.993488888000 -0.013846601332 0.016171785963 0.532584313602 0.858680873275 0.529399766528 0.862011998625 -0.015848313236 0.013450668845
3.993911111000 -0.013334130228 0.015412574170 0.534436070413 0.858267952213 0.531346077274 0.861392470327 -0.015518553590 0.012695734864
3.994333333000 -0.013280953322 0.016161482669 0.535881076530 0.857584145199 0.531120328218 0.859339790823 -0.015438801683 0.013445293863
3.994755555000 -0.013173586565 0.014946608958 0.537196603431 0.856121691768 0.535772311768 0.860162618928 -0.015555675416 0.012016208464
3.995177777000 -0.013488923476 0.014928358388 0.538876514461 0.855524949149 0.536086557433 0.857461851883 -0.015882429112 0.012077819936
3.995600000000 -0.012576128760 0.014780283217 0.540152346536 0.854706864009 0.538916855475 0.858547316302 -0.015589235599 0.011513936175
3.996022222000 -0.012722370465 0.014433572085 0.540748300677 0.852927950382 0.539255189787 0.855293255522 -0.015713180803 0.011819837458
3.996444444000 -0.012650122052 0.014215009017 0.542597831442 0.852371337123 0.540727430118 0.855362189522 -0.015622687895 0.011526331320
3.996866666000 -0.012582068439 0.014537992875 0.543752677088 0.852033248249 0.541394359846 0.855274911708 -0.015792213179 0.011187162597
3.997288888000 -0.012144104286 0.013372458901 0.545804696368 0.849495128562 0.544471137360 0.852973179109 -0.016326990907 0.010825959923
3.997711111000 -0.012410964998 0.013154119811 0.546159734045 0.848368007568 0.546506963894 0.853033503260 -0.016472814242 0.010683760910
3.998133333000 -0.011861741145 0.013070053411 0.548662128930 0.847368315408 0.547106005912 0.851341214213 -0.015867103572 0.011093774778
3.998555555000 -0.012331762095 0.013366503167 0.548544755561 0.847308098663 0.548285239807 0.850163408929 -0.015973187459 0.010879239078
3.998977777000 -0.011757057762 0.013086948020 0.552090503214 0.845118219480 0.550490536829 0.848514059204 -0.016675363252 0.010342975681
3.999400000000 -0.011272848556 0.013397497767 0.553370378654 0.843799662080 0.552455888279 0.849452171451 -0.017263278700 0.010733225519
3.999822222000 -0.012153531621 0.012546532200 0.555467460048 0.842749901037 0.552486007764 0.845938956656 -0.016964954901 0.009731466122
4.000244444000 -0.011214324029 0.011883030512 0.555423177011 0.842113497622 0.553902476512 0.846682447855 -0.015968571440 0.009818241905
4.000666666000 -0.011894871939 0.011475840704 0.557377225434 0.841807153122 0.557497628877 0.844746965967 -0.017058659110 0.009562931634
4.001088888000 -0.011250041556 0.011826693720 0.558239760517 0.841798403345 0.557003525560 0.845106578791 -0.016085981758 0.009270344207
4.001511111000 -0.011312490507 0.011179039503 0.558965420378 0.838142082860 0.557679355013 0.842813633057 -0.015966933757 0.009924834945
4.001933333000 -0.012383210480 0.011813669109 0.561228513780 0.836005029431 0.559223406695 0.839612204401 -0.018626299063 0.009730009548
4.002355555000 -0.012169628607 0.011081484117 0.561037916641 0.837026210375 0.561964561210 0.840096550099 -0.017239981130 0.009431066030
4.002777777000 -0.011577883218 0.010982018548 0.562938221399 0.834463573013 0.563198272905 0.838598555246 -0.017288701158 0.009502564828
4.003200000000 -0.011164109844 0.010568732318 0.564369426240 0.834054736493 0.563626019401 0.839316347250 -0.016619640343 0.009456818718
4.003622222000 -0.012217242786 0.010314121727 0.564427157562 0.833144075801 0.566253798419 0.835764078614 -0.017676292064 0.009024404407
4.004044444000 -0.011422629285 0.010483784169 0.567745596139 0.831824834808 0.566412445146 0.835864958582 -0.017905199975 0.009763281428
4.004466666000 -0.012036245173 0.009895103695 0.568954099481 0.832188843993 0.569879956478 0.835036245538 -0.018495891040 0.007972689598
4.004888888000 -0.011609220483 0.009921453905 0.570612659468 0.829824545796 0.568580792790 0.833350629126 -0.017534911771 0.008504165827
4.005311111000 -0.011801340657 0.009389225502 0.571268633944 0.827482518143 0.571438563104 0.832099235873 -0.018726455064 0.008499011210
4.005733333000 -0.011809799369 0.009257184169 0.571381219252 0.827915792680 0.574113455347 0.832404975119 -0.018060431160 0.008559136810
4.006155555000 -0.011515944642 0.009356409278 0.574221022858 0.826380985176 0.574280845203 0.830128271675 -0.018245140497 0.008224720365
4.006577777000 -0.011568242152 0.008771075488 0.574831298040 0.824997236117 0.576361530190 0.828860351738 -0.018324692440 0.008454757468
4.007000000000 -0.009910745084 0.008606935509 0.573467525904 0.821912253923 0.573485480101 0.832701128257 -0.015080791946 0.009059860786
4.007422222000 -0.012225193148 0.008788474076 0.576403614282 0.823644731134 0.578164427521 0.826939592626 -0.018582960383 0.008775469415
4.007844444000 -0.011739447605 0.009050507772 0.578071777931 0.821731147894 0.578704969838 0.825903698500 -0.018432247441 0.008859947337
4.008266666000 -0.011296457666 0.008292979052 0.579474006367 0.820123491014 0.578776329668 0.825464332210 -0.018928779960 0.009205941217
4.008688888000 -0.011205201190 0.008201530815 0.581225768350 0.818147693145 0.581291118053 0.823682081944 -0.019378991098 0.009585133292
4.009111111000 -0.011064914618 0.008262249678 0.581602502988 0.817794566673 0.582121386614 0.822242872588 -0.019547359537 0.009920325728
4.009533333000 -0.011750626110 0.007738432757 0.582833050943 0.817902903598 0.585012280558 0.822356691195 -0.019188529714 0.008397409095
4.009955555000 -0.011180331197 0.007167999896 0.583500336949 0.816911853197 0.586623024995 0.822241583940 -0.018311092548 0.008231219643
4.010377777000 -0.012392908540 0.007437346018 0.584388285355 0.816066764598 0.586516737663 0.819641903769 -0.019357100608 0.007861748792
