# GHZ S RI R 50.000000000000
3.950000000000 -0.038358785085 0.000040621446 0.337511716272 0.921693155617 0.381496710257 0.897138509379 -0.042136391256 0.005876026881
3.950422222000 -0.036787373536 0.002041452642 0.348013708968 0.919188671191 0.381474353229 0.897780911674 -0.041628890988 0.008228415324
3.950844444000 -0.035896083415 0.003504200784 0.357810199406 0.915833433906 0.380821753946 0.899670524209 -0.040559652139 0.009704167004
3.951266666000 -0.033998935575 0.004260369966 0.362996910864 0.913660219008 0.380780498080 0.899712476046 -0.040817522440 0.009357234891
3.951688888000 -0.033663420878 0.005086958993 0.366082214063 0.912137106337 0.382264042329 0.899823273155 -0.039982615700 0.010351738807
3.952111111000 -0.034092931724 0.005948459141 0.367333770745 0.912728746175 0.382514379838 0.900624245403 -0.040122856450 0.011734188602
3.952533333000 -0.033607062747 0.005195372505 0.373288769512 0.909567798449 0.383008616260 0.899433718762 -0.039893235166 0.011070826374
3.952955555000 -0.032862342640 0.006513173834 0.375262871375 0.910111998908 0.384411251684 0.899972045157 -0.039496197284 0.011844071566
3.953377777000 -0.032768260980 0.006825561125 0.377710342169 0.909783775322 0.386107167368 0.899626067230 -0.039311029798 0.012126698551
3.953800000000 -0.031714279941 0.006837591563 0.376346705454 0.907191546957 0.385788538661 0.897673705304 -0.038195818861 0.011269197473
3.954222222000 -0.032861814891 0.007941303591 0.379830794997 0.911371962252 0.388012819718 0.899653154180 -0.038582074814 0.012905327617
3.954644444000 -0.033341838525 0.008257811233 0.380812319314 0.911184684852 0.389039698942 0.899208586024 -0.038755009729 0.012665125891
3.955066666000 -0.032886314838 0.008248008224 0.382749001498 0.910194176066 0.388560418104 0.898255152122 -0.038317103286 0.012739082360
3.955488888000 -0.032072433743 0.008496128629 0.386732784373 0.908078254128 0.391449937189 0.898141241526 -0.037134136831 0.012606508277
3.955911111000 -0.032939927758 0.008425720159 0.386077853376 0.909300426647 0.392208965255 0.898052246511 -0.038801726527 0.013289941221
3.956333333000 -0.032087891754 0.008067525196 0.389175698607 0.906261209564 0.396457190388 0.897990023535 -0.036901100225 0.013151500225
3.956755555000 -0.033234714020 0.010356044353 0.390504583044 0.908351248188 0.394608756529 0.898979094927 -0.037381541336 0.013492819597
3.957177777000 -0.032689617177 0.009528023764 0.389996337036 0.908539764050 0.395914966403 0.897660004265 -0.037488306152 0.013327683556
3.957600000000 -0.033035577546 0.009807814042 0.392752707500 0.906661905782 0.397138254620 0.896444914115 -0.037004292420 0.012972962851
3.958022222000 -0.032792508148 0.011044757562 0.394820080165 0.908170905050 0.398174137850 0.897959475004 -0.037393781744 0.014162610189
3.958444444000 -0.032274250032 0.011431808072 0.395789540597 0.907973362641 0.399947353552 0.897341317243 -0.036597653009 0.013810664309
3.958866666000 -0.032000559613 0.011438182085 0.397935667079 0.907520940545 0.403374210202 0.896456045310 -0.036067646460 0.014689973171
3.959288888000 -0.032432523513 0.010953874186 0.398826625312 0.904665387063 0.403857527813 0.895816860563 -0.035953879470 0.013545295287
3.959711111000 -0.031981356584 0.011187628957 0.400450976141 0.906712105394 0.405325010490 0.896743042972 -0.036263776888 0.014012345286
3.960133333000 -0.032202919126 0.012394764682 0.402039061563 0.907119048002 0.406548187710 0.897338658367 -0.036210657004 0.015064448901
3.960555555000 -0.031736244310 0.013078586970 0.402494521911 0.906903482051 0.406428146660 0.896422842612 -0.035490334691 0.013672242897
3.960977777000 -0.031553257818 0.013138735375 0.405918663470 0.906861168762 0.408958274681 0.896834728905 -0.035602808551 0.014599281879
3.961400000000 -0.030517250131 0.013894596600 0.409317948609 0.904519821358 0.411262501490 0.896400491227 -0.033934072435 0.014553651907
3.961822222000 -0.031720147107 0.013690605309 0.408544488009 0.905143788504 0.411579758831 0.894944662521 -0.034853986680 0.014614465667
3.962244444000 -0.031401831069 0.013783665124 0.409566283641 0.906466611438 0.413097593466 0.896276210868 -0.034937987498 0.014925976878
3.962666666000 -0.031323696972 0.013852113994 0.411892304235 0.903944836525 0.414851222351 0.894093283837 -0.034791095280 0.014734134004
3.963088888000 -0.031520476027 0.014857193432 0.412384969857 0.905101213764 0.415250568921 0.895566443598 -0.034751629990 0.014723554331
3.963511111000 -0.030671556126 0.014737153442 0.415143708848 0.904002253838 0.418150133148 0.895210381333 -0.034167474186 0.015551412006
3.963933333000 -0.031686860843 0.014789005594 0.415050543883 0.904032064373 0.418876428261 0.894335720125 -0.034458159273 0.015400601420
3.964355555000 -0.030460457587 0.015616687555 0.419123230298 0.904079874790 0.420075565552 0.894066741464 -0.033358305913 0.014863377418
3.964777777000 -0.030281375446 0.015801836990 0.420942849103 0.905643858763 0.420988152337 0.895867410597 -0.035493802755 0.014473832316
3.965200000000 -0.031071647239 0.015685776256 0.419736963428 0.903272096993 0.422831762141 0.894116593818 -0.034106363953 0.015133551185
3.965622222000 -0.029800453794 0.015951389574 0.422646091485 0.901775394224 0.425810525205 0.893829988015 -0.033171034144 0.014907434838
3.966044444000 -0.029725493755 0.015582601428 0.424462093940 0.900829331913 0.426958764274 0.892953890091 -0.033700246231 0.014516750533
3.966466666000 -0.030052330771 0.016986258801 0.427012040892 0.901039279572 0.427727196114 0.891961393188 -0.032755636360 0.015581003793
3.966888888000 -0.029806621135 0.016815939250 0.427431572359 0.900892215340 0.429666405045 0.892572249796 -0.032417814947 0.015467827431
3.967311111000 -0.029528141209 0.017142053376 0.430048637715 0.901281508358 0.431680075491 0.892625580113 -0.033046363478 0.014927442422
3.967733333000 -0.029031205875 0.017533689928 0.431893341970 0.901175060886 0.432400942494 0.891715156460 -0.032450961114 0.015060820500
3.968155555000 -0.029128337275 0.018377712830 0.432209485182 0.900462209917 0.432898199424 0.891668712507 -0.031397097325 0.015109110376
3.968577777000 -0.028800882315 0.018665294148 0.433980631049 0.900103125018 0.434548237156 0.891855119121 -0.031385027820 0.015530433907
3.969000000000 -0.028785145866 0.019048512431 0.433864629606 0.900924064183 0.433346455819 0.892710595934 -0.031567083581 0.014477805264
3.969422222000 -0.028765614393 0.018225361793 0.437287590030 0.897940542905 0.438444667154 0.891280368259 -0.031816863138 0.014927066605
3.969844444000 -0.028339408798 0.018705837979 0.438531775342 0.897962312708 0.439775831035 0.889893109820 -0.031320752437 0.015160134247
3.970266666000 -0.027559311796 0.018984058746 0.441072858645 0.897091430680 0.441409688326 0.890074998022 -0.030424795105 0.014886498752
3.970688888000 -0.027918194630 0.018845658922 0.442309572805 0.897549935302 0.443032857173 0.889473791634 -0.031689782238 0.014492593233
3.971111111000 -0.026784518594 0.019709169463 0.444128615012 0.895838486506 0.444614688532 0.890133649369 -0.030257564565 0.014951527406
3.971533333000 -0.026559954920 0.019908533306 0.445957933526 0.896030548763 0.445962114764 0.888987371226 -0.030214906658 0.014952194250
3.971955555000 -0.026868798729 0.019883544946 0.447201496197 0.895317427381 0.447063629363 0.888375077998 -0.030431375173 0.014221297203
3.972377777000 -0.026521099207 0.019578623263 0.449420990423 0.894004575920 0.449307525557 0.888066807421 -0.031205114440 0.014655308696
3.972800000000 -0.026133134199 0.020403261678 0.450509103667 0.894471450576 0.450434961171 0.887284302810 -0.029727650200 0.014644102614
3.973222222000 -0.024496445855 0.020362452150 0.454966019022 0.893545578797 0.453133052433 0.887184615389 -0.029237151428 0.013056993049
3.973644444000 -0.025660298944 0.019902147124 0.453629573251 0.892612055154 0.454386732662 0.886913634364 -0.030179503417 0.013435681871
3.974066666000 -0.025554170300 0.020493916098 0.456398370894 0.891780854117 0.454639647571 0.886131031589 -0.029622188446 0.014049226893
3.974488888000 -0.025709307501 0.020573523922 0.457497134808 0.892166400076 0.456254460540 0.885184723719 -0.030164451592 0.013688571890
3.974911111000 -0.024925480116 0.020303275185 0.458870490178 0.890089899978 0.458810067168 0.884669557602 -0.029316520900 0.013409970572
3.975333333000 -0.024225732252 0.020955631217 0.461855834774 0.890058507581 0.460498712430 0.884403706136 -0.029456866369 0.014224920545
3.975755555000 -0.023714103319 0.020278620638 0.463150836895 0.888374326701 0.461738003441 0.884632895977 -0.029822591924 0.012643504273
3.976177777000 -0.023662829508 0.020792507871 0.464368436240 0.887293863294 0.463485800960 0.883304725305 -0.028574800828 0.013551767345
3.976600000000 -0.023815941190 0.021070443916 0.466857303188 0.888732984774 0.465531078570 0.884216484838 -0.028132652562 0.015133099622
3.977022222000 -0.022546279671 0.021442252225 0.468673793448 0.887754209425 0.466523965781 0.883387689003 -0.028103394577 0.012809865135
3.977444444000 -0.022659507746 0.020972457142 0.469627231799 0.885581411289 0.469538717929 0.881667215418 -0.028147463167 0.012853390047
3.977866666000 -0.022011453084 0.021022493692 0.471741858559 0.884485611484 0.470273142693 0.881362455593 -0.028260414117 0.012941209077
3.978288888000 -0.022348973198 0.021816392619 0.472527749891 0.885126586666 0.470624078273 0.880969258956 -0.027667460885 0.012450219625
3.978711111000 -0.022157873517 0.021312206488 0.474065789505 0.884156789981 0.472966525517 0.880595157725 -0.028961931183 0.011805616672
3.979133333000 -0.021219942720 0.021137280268 0.475292171043 0.883876134391 0.474642298037 0.880603750411 -0.027981508861 0.011069174894
3.979555555000 -0.021076865129 0.020742901657 0.477276453545 0.882418983549 0.477318600363 0.879189359206 -0.028810302991 0.011756198126
3.979977777000 -0.020722831424 0.021346093618 0.479326687287 0.882239844286 0.478174359753 0.879202364025 -0.027991162411 0.011006741020
3.980400000000 -0.020722630459 0.020994339638 0.480633068103 0.880716129813 0.479299563553 0.878212353519 -0.028108241007 0.011137670262
3.980822222000 -0.020295930119 0.021107870266 0.482761883214 0.879872091591 0.480671942192 0.876379754526 -0.027446243016 0.010658033493
3.981244444000 -0.020089462306 0.021422266702 0.485323602940 0.879226269545 0.483698459319 0.876001038166 -0.028169539195 0.011435106281
3.981666666000 -0.019930312248 0.020869357954 0.486171917605 0.878920045876 0.484965997947 0.876838300640 -0.028479391792 0.010467187199
3.982088888000 -0.019320200898 0.021512641195 0.487442380568 0.876748759016 0.486196828013 0.875337773218 -0.027275720710 0.011186098709
3.982511111000 -0.018989120215 0.021334346782 0.489427209901 0.875909630408 0.487526682035 0.874006409994 -0.027308482553 0.010240188589
3.982933333000 -0.018530937979 0.021753086253 0.490625777927 0.875763996378 0.488655363090 0.874309747320 -0.027324781974 0.010095658043
3.983355555000 -0.019060476065 0.021314547210 0.491648237448 0.873919993921 0.489922396295 0.873189770326 -0.027760755898 0.010595593161
3.983777777000 -0.017642891146 0.020757522505 0.494202983075 0.872752465409 0.492277241605 0.872865804518 -0.026317212953 0.009343390107
3.984200000000 -0.017335893577 0.021275289688 0.495598625374 0.872205115808 0.492538652080 0.872689824549 -0.027481175591 0.010099298558
3.984622222000 -0.017826490825 0.021158903341 0.496759710889 0.872243404424 0.495814494199 0.870367980109 -0.027426947924 0.009336193412
3.985044444000 -0.017589867191 0.020883122309 0.499160442074 0.871562102183 0.497976362735 0.869045588568 -0.027833485770 0.009602299156
3.985466666000 -0.016720192235 0.021322112446 0.499884174866 0.869750603652 0.498544643967 0.868985041733 -0.026555739158 0.009325133985
3.985888888000 -0.016307749375 0.021432216650 0.501802497214 0.869153169455 0.500174163315 0.868650354879 -0.026138922923 0.008940246966
3.986311111000 -0.016147827700 0.020266693305 0.503463430966 0.868223358738 0.503548267059 0.868117931179 -0.026991669098 0.008326059568
3.986733333000 -0.016355997988 0.021443542882 0.505153975373 0.867189325366 0.505369603113 0.865494844641 -0.027070212016 0.010521522724
3.987155555000 -0.015897250245 0.020490038716 0.506281957054 0.866273262296 0.505747483506 0.867978999591 -0.028023365131 0.008268986468
3.987577777000 -0.014966248248 0.021610915735 0.509568038430 0.866458516375 0.507268300685 0.866492626419 -0.027494860912 0.009426034222
3.988000000000 -0.015116210682 0.020500745158 0.510898131469 0.864794282401 0.508665416932 0.864977358635 -0.027653895979 0.007593940319
3.988422222000 -0.014998242402 0.021075384784 0.512142683649 0.863442232515 0.509316466838 0.863815949775 -0.027148701656 0.008392157410
3.988844444000 -0.014419042168 0.020245247069 0.513911362261 0.862747360341 0.512281102590 0.863368019675 -0.027680876529 0.007802996253
3.989266666000 -0.014131562557 0.019985824781 0.515613807648 0.861446805713 0.512941886178 0.864221415272 -0.028048043155 0.007219340405
3.989688888000 -0.014671270391 0.019593646555 0.516454801472 0.860620021507 0.514873149805 0.860196933060 -0.027946120509 0.006590050412
3.990111111000 -0.013081972379 0.020096148522 0.518232694755 0.860578461360 0.515871205988 0.862982629678 -0.026787458950 0.006695887193
3.990533333000 -0.013436112252 0.019528550859 0.518881938498 0.858280649332 0.517188604888 0.860813151327 -0.026987210675 0.006590133771
3.990955555000 -0.013737447194 0.019397642237 0.520548020191 0.857528146470 0.518757679054 0.858222068979 -0.027426510000 0.006638920148
3.991377777000 -0.013713707261 0.018632401271 0.522127658531 0.856339495549 0.521930815789 0.858676532342 -0.028632043040 0.006188864513
3.991800000000 -0.011956284816 0.019372766334 0.525643455207 0.855590552473 0.521213546765 0.860010409693 -0.028246276461 0.006343109757
3.992222222000 -0.012758829702 0.018799856606 0.525823617283 0.854062174259 0.523549894671 0.856132822987 -0.027467911365 0.006518699182
3.992644444000 -0.012501097187 0.018741884547 0.526462715442 0.852639791883 0.526156210611 0.855184471776 -0.028664469558 0.006251058751
3.993066666000 -0.012511246622 0.018756596765 0.526816726041 0.851939122715 0.527969825326 0.854340605833 -0.027974162113 0.006971266589
3.993488888000 -0.011978539634 0.018206939915 0.529622188697 0.851406146900 0.528643863867 0.853423432169 -0.027751460353 0.005455644779
3.993911111000 -0.012554107601 0.017941363073 0.530657123477 0.850512405577 0.531431343780 0.851938920781 -0.028344686548 0.005423378431
3.994333333000 -0.011259104319 0.017848766715 0.534980634506 0.848453718287 0.533239330756 0.851992895207 -0.028629630024 0.005059293341
3.994755555000 -0.012576376862 0.018021659348 0.534330036548 0.848535568525 0.533199670045 0.850063518108 -0.028952446920 0.004811785717
3.995177777000 -0.012026954444 0.017591455938 0.535729815523 0.846028389429 0.536372287622 0.849769926774 -0.029536522071 0.005472583143
3.995600000000 -0.012101064405 0.017332208484 0.535890707970 0.845734704148 0.536453887944 0.847804276619 -0.028871524779 0.005243159654
3.996022222000 -0.010987744846 0.017494501123 0.538744722758 0.844981630972 0.537828149362 0.848851466699 -0.028605663458 0.004508099280
3.996444444000 -0.011587481162 0.017424086874 0.539486777936 0.844052415553 0.538739209167 0.844675119796 -0.028750787380 0.005231857916
3.996866666000 -0.011730535655 0.017578882239 0.540522817401 0.843395576472 0.538802281271 0.844486440676 -0.028620689301 0.004682008747
3.997288888000 -0.011576795009 0.016868296141 0.542643226870 0.841327754598 0.543657109717 0.843151115980 -0.029988961692 0.004836431845
3.997711111000 -0.011056992616 0.016928362523 0.544010992208 0.841068469808 0.543912750618 0.843436615235 -0.029634067968 0.004782599193
3.998133333000 -0.011212031473 0.016222252796 0.545262565527 0.839270154981 0.544807869496 0.841462502845 -0.029518249463 0.004972114122
3.998555555000 -0.010359240360 0.016012228536 0.546767519483 0.838551330160 0.546671011855 0.841332467504 -0.029217224731 0.004682022744
3.998977777000 -0.010708263127 0.016213148030 0.547509581871 0.837279097676 0.547831300296 0.840933369443 -0.029732881989 0.004777731804
3.999400000000 -0.010032521331 0.016747772815 0.549408353439 0.835793979354 0.550363801777 0.841020108735 -0.030852040032 0.005093762564
3.999822222000 -0.010811030950 0.015294717361 0.550184106636 0.835381551321 0.552802328185 0.839383417556 -0.030749584317 0.003766827676
4.000244444000 -0.009689463198 0.016163954092 0.553756907441 0.834908025281 0.551106269839 0.839493142476 -0.030111704306 0.004035517681
4.000666666000 -0.010348873861 0.015175570109 0.553098225954 0.833948442885 0.555024598442 0.836867426977 -0.030323000439 0.003924358960
4.001088888000 -0.010824858589 0.015576352268 0.555287352308 0.831045286246 0.555547885852 0.834485527197 -0.031398128521 0.004236592247
4.001511111000 -0.010674723712 0.014646177756 0.556281535540 0.831103061503 0.557534087611 0.833240113019 -0.030742904466 0.003295500271
4.001933333000 -0.010942501874 0.014699034764 0.557916412999 0.830749929826 0.559027449323 0.830129555664 -0.030889939324 0.004334269502
4.002355555000 -0.010522950921 0.015327709402 0.557887724075 0.830066574583 0.559898679923 0.832383304125 -0.031472125573 0.004032886986
4.002777777000 -0.010459878013 0.014569931847 0.560315073002 0.827725892793 0.558764437995 0.829654426478 -0.030393437650 0.003852873939
4.003200000000 -0.010179116843 0.014101829384 0.560927462212 0.826634911791 0.563320424681 0.829827069473 -0.030989049225 0.004036224627
4.003622222000 -0.009799863468 0.014130595931 0.563827369698 0.826379562381 0.566025583627 0.828997648734 -0.031358386794 0.003773790825
4.004044444000 -0.010500311234 0.014640474620 0.565113597722 0.824229612855 0.564289034697 0.825781653952 -0.032362346320 0.004139075896
4.004466666000 -0.009903052472 0.014442378795 0.564363581125 0.820519021446 0.563027489114 0.826927280440 -0.030989814072 0.004847258550
4.004888888000 -0.010621455816 0.012908994698 0.566485202031 0.821302070652 0.568928616582 0.824418278759 -0.031838286646 0.003546916112
4.005311111000 -0.011283050677 0.013312463699 0.568576511125 0.820453730986 0.570252865065 0.822474786883 -0.032951114078 0.003341701201
4.005733333000 -0.009534495971 0.013546447283 0.569172774076 0.819077493291 0.570934128581 0.826065401231 -0.032619670028 0.003280508647
4.006155555000 -0.010465405137 0.012750195186 0.569385310097 0.819551475581 0.572468664897 0.823019185421 -0.031938148955 0.003108075494
4.006577777000 -0.010840232391 0.012740008069 0.570769855695 0.816927714708 0.572796814643 0.818963984418 -0.032363019929 0.003893582356
4.007000000000 -0.010337976022 0.013220155062 0.570065580926 0.815916712268 0.572614885037 0.822997013897 -0.031811917505 0.003567119833
4.007422222000 -0.010660051112 0.013027025777 0.574273045944 0.813577389548 0.576537467364 0.817276233846 -0.033526051335 0.003898866065
4.007844444000 -0.011130269571 0.012679988115 0.575810656914 0.813182878157 0.576586357228 0.816378772165 -0.033015913974 0.003688629814
4.008266666000 -0.010898196933 0.012051572481 0.575601883090 0.812207223551 0.581588724690 0.816226820524 -0.033942793726 0.003766795356
4.008688888000 -0.011041283949 0.012730177620 0.578167449653 0.812035467144 0.579812545624 0.813056654835 -0.033742562147 0.004260971786
4.009111111000 -0.011427530609 0.012557827185 0.577525271119 0.813391592240 0.582696362294 0.814008756763 -0.033631995604 0.003970234691
4.009533333000 -0.011429336262 0.012216981242 0.578437465402 0.810404970957 0.580670268486 0.810834408575 -0.032901984946 0.004508545060
4.009955555000 -0.011204441921 0.012187465371 0.580599545302 0.807879225793 0.581616034862 0.810374482447 -0.033205704884 0.004269477887
4.010377777000 -0.011078605295 0.011519662815 0.582499742175 0.807939706644 0.587693497061 0.810740237526 -0.033770341348 0.004083811388
