# GHZ S RI R 50.000000000000
3.950000000000 0.129801195176 -0.491502515933 0.822662857441 0.167714994152 0.811028823733 0.169124152574 0.059100906534 -0.483692031802
3.950422222000 0.126899814466 -0.490571073178 0.822747840283 0.167056891787 0.810470185408 0.168626102848 0.056572028019 -0.485064505923
3.950844444000 0.124984340339 -0.491717202089 0.821909178922 0.165916610455 0.809751633254 0.168937530548 0.054757036729 -0.483431407735
3.951266666000 0.123014903181 -0.493236277480 0.824078343356 0.162657616894 0.809932085050 0.167133916198 0.052369236408 -0.483484465203
3.951688888000 0.121894461971 -0.491614837917 0.822140740184 0.163189331824 0.809072839859 0.167297571280 0.051564536389 -0.482761342739
3.952111111000 0.120392324023 -0.492584262597 0.823154102453 0.160415139937 0.809948584161 0.166015049461 0.050125119595 -0.483661621304
3.952533333000 0.119142062080 -0.491740391706 0.823017177247 0.160769197172 0.809320216911 0.165543879765 0.050392481792 -0.483475949775
3.952955555000 0.118748701492 -0.491795524796 0.823468603921 0.159928422323 0.810212862003 0.164301616117 0.048947726171 -0.483515032308
3.953377777000 0.117891760878 -0.492521821701 0.824445838243 0.157010193392 0.810705458865 0.163354011682 0.047882688032 -0.483713702628
3.953800000000 0.118702000714 -0.491158241867 0.822220756230 0.158275055161 0.811309460868 0.162822544872 0.047817482290 -0.483086681548
3.954222222000 0.116584383370 -0.491702049314 0.824125391484 0.156933811771 0.811856102222 0.161231400936 0.047250827832 -0.483142130396
3.954644444000 0.115940494545 -0.492335761054 0.825842688045 0.153718139655 0.811744966466 0.160474504292 0.046118602095 -0.482703666388
3.955066666000 0.116020325531 -0.492219881237 0.825593544021 0.152604600533 0.811989538425 0.160066767804 0.045222012721 -0.483386334547
3.955488888000 0.114878707634 -0.492493697694 0.826013897747 0.152521251445 0.813496425386 0.158091657268 0.045488256629 -0.482712752799
3.955911111000 0.113488716278 -0.493347321477 0.828681377273 0.151090617121 0.813204514454 0.155766851582 0.044693320258 -0.484116210875
3.956333333000 0.113079767684 -0.492699885138 0.826649697573 0.149667466341 0.814741428839 0.154893576454 0.044265426615 -0.483983414914
3.956755555000 0.113059912004 -0.491776665239 0.828241351025 0.148139711871 0.814084452567 0.155070569255 0.043064504259 -0.484920716068
3.957177777000 0.112287791061 -0.493860377395 0.829122745770 0.147328583197 0.815270514564 0.153279741255 0.042010396489 -0.483585528167
3.957600000000 0.112213834652 -0.493460827339 0.829885330826 0.145370828819 0.814880459672 0.152089041579 0.040865517849 -0.483824265075
3.958022222000 0.111112664223 -0.493953206735 0.829636188404 0.144524417628 0.815728672677 0.151524011247 0.040872810266 -0.483235838861
3.958444444000 0.112139394522 -0.493841093366 0.830601948735 0.143713823377 0.816476253569 0.150715927789 0.039484963792 -0.484152271715
3.958866666000 0.109012860794 -0.494441135972 0.831028309774 0.143276099527 0.817528833138 0.149532355666 0.041008957037 -0.483501949568
3.959288888000 0.109176573720 -0.493589311177 0.831855458039 0.140072975256 0.817234017718 0.148664991068 0.039499639993 -0.484716101386
3.959711111000 0.109668720205 -0.494551350578 0.832451256612 0.139471553039 0.818228198406 0.147262244474 0.037602906711 -0.485019975428
3.960133333000 0.108158532318 -0.494245261560 0.833120051230 0.138600987738 0.818209895061 0.145835673225 0.037724122251 -0.484638612882
3.960555555000 0.108226083587 -0.494436835809 0.833802954616 0.137357674829 0.818137749898 0.144613513646 0.036661736735 -0.485111878289
3.960977777000 0.107864977961 -0.493307886219 0.833893913892 0.135800466401 0.818812947229 0.143366871801 0.035744087662 -0.485648209749
3.961400000000 0.106551696856 -0.494239441191 0.834069041548 0.133608743929 0.819193925702 0.142584178224 0.035384637556 -0.485381174630
3.961822222000 0.106234021859 -0.494674271541 0.835116941469 0.132561882796 0.819035759006 0.142194998617 0.034527538954 -0.484204876744
3.962244444000 0.105000716655 -0.495076128608 0.836129602500 0.131624966653 0.820971695606 0.139846071204 0.034380995668 -0.486118198061
3.962666666000 0.104101733527 -0.494777063255 0.836330416357 0.129947324103 0.819821416870 0.139113173242 0.034008559776 -0.485433951297
3.963088888000 0.104714641672 -0.495332175034 0.836459804720 0.128746836146 0.820793100462 0.138159850447 0.031644296631 -0.485008225755
3.963511111000 0.103104192703 -0.495199350748 0.836566946191 0.127525371776 0.821911483190 0.135927409800 0.031491551646 -0.485637935946
3.963933333000 0.103032352527 -0.495179875473 0.837703628467 0.126010809173 0.821320109070 0.134842660877 0.029516734086 -0.484778222549
3.964355555000 0.102678673780 -0.496462764096 0.838205501807 0.124467793054 0.823010470315 0.134772488830 0.029892515487 -0.485712521190
3.964777777000 0.101895851869 -0.497023419555 0.838999485671 0.124413478832 0.823129770255 0.133052266712 0.029171999731 -0.485609281648
3.965200000000 0.101708027205 -0.497633791638 0.839093149942 0.122251958750 0.823889345517 0.131463591774 0.027235144086 -0.485356040451
3.965622222000 0.100138935728 -0.495608436802 0.839423874612 0.120507933641 0.823593704189 0.130637203550 0.027496595070 -0.486769414489
3.966044444000 0.100429459238 -0.496014897495 0.839589244427 0.118830065464 0.823825108806 0.130911970188 0.027011048926 -0.485718801934
3.966466666000 0.100637757371 -0.496566818733 0.840147141876 0.117930212368 0.824678812169 0.129947985295 0.025862074250 -0.485758931472
3.966888888000 0.098212203476 -0.497703225586 0.840140340040 0.116564253412 0.825804171255 0.127509634912 0.025713301040 -0.485190549211
3.967311111000 0.098875855574 -0.496662714935 0.841127057465 0.115082267257 0.824633084011 0.126248522443 0.023891092662 -0.485920437096
3.967733333000 0.097266912831 -0.497912936151 0.841502320770 0.113768010764 0.825796383146 0.124416472229 0.023350683295 -0.485241371223
3.968155555000 0.095853033286 -0.497800185058 0.842022677840 0.112075443042 0.826077914253 0.123301147958 0.022704217256 -0.485274579322
3.968577777000 0.095877122356 -0.497850481885 0.842577652397 0.110742023025 0.825998943376 0.122947706077 0.022142454066 -0.485966182833
3.969000000000 0.095261327974 -0.497877723628 0.841971132548 0.110033675576 0.829395393988 0.118421101473 0.020692695882 -0.488622255609
3.969422222000 0.094520718023 -0.497505325521 0.842776852625 0.108260760106 0.827157532923 0.119950757946 0.020651621484 -0.485690776483
3.969844444000 0.094795915538 -0.498927926360 0.843161086327 0.106895259160 0.828630722667 0.120022235096 0.019495969259 -0.487062139264
3.970266666000 0.093253201645 -0.498336463981 0.843525808113 0.105818228218 0.828755616422 0.116813205652 0.018205999512 -0.486397533462
3.970688888000 0.092375962331 -0.499294312988 0.843774578038 0.104759292508 0.828857857949 0.115676808960 0.017850439944 -0.485994704154
3.971111111000 0.092549640227 -0.499515945887 0.844134981464 0.102909684912 0.830398639930 0.116000042741 0.017304443819 -0.486804712075
3.971533333000 0.091440127206 -0.498538998106 0.844719974579 0.101840632081 0.828491124100 0.113620033276 0.016504443329 -0.485974526937
3.971955555000 0.090407773209 -0.499477061608 0.844769562874 0.100308088663 0.830660927508 0.113635853302 0.015757413834 -0.486102783164
3.972377777000 0.089511762174 -0.498808831665 0.844865223801 0.098973360394 0.829584570262 0.111447362074 0.015220248355 -0.485992995211
3.972800000000 0.089797837538 -0.500209409493 0.845641406911 0.097857107677 0.831341952528 0.111931314385 0.015042262921 -0.486380173296
3.973222222000 0.088426910528 -0.499622413879 0.846276785096 0.096615656194 0.829592868326 0.110037812503 0.013267524513 -0.485283412804
3.973644444000 0.087295481562 -0.500136280114 0.846191971324 0.094829680481 0.831644390790 0.107937585407 0.012136697672 -0.486103560121
3.974066666000 0.085598626531 -0.499015007779 0.846691313829 0.093583508325 0.829889934405 0.105342871202 0.011385744107 -0.485641165913
3.974488888000 0.087184307182 -0.500547095283 0.846962697590 0.092075855571 0.832734850355 0.107031257239 0.011320922097 -0.486469447234
3.974911111000 0.085741565767 -0.501577973094 0.847414876544 0.090361807054 0.833239648375 0.106019791769 0.011030989490 -0.485616853184
3.975333333000 0.084757003646 -0.500157868799 0.847985186239 0.089076284816 0.832541592622 0.103729979037 0.010016298586 -0.485794514660
3.975755555000 0.083506550928 -0.502140974787 0.848112582912 0.087732236408 0.834431162372 0.102046831546 0.008584051496 -0.485761772678
3.976177777000 0.084228156386 -0.501055026928 0.848231806315 0.086898907392 0.833341281862 0.102391762931 0.008710217960 -0.485797339580
3.976600000000 0.083676018921 -0.501049730307 0.848483637318 0.085298083886 0.833979866874 0.100988151610 0.008265510162 -0.485518226064
3.977022222000 0.082330443855 -0.502644487341 0.849133334027 0.083931483546 0.835322851667 0.099650428329 0.006571399058 -0.486477212210
3.977444444000 0.082475530065 -0.500440121075 0.849399005971 0.082925378637 0.834170537695 0.099433924609 0.006949488081 -0.486835150196
3.977866666000 0.082308008303 -0.503044747951 0.849656913455 0.081117371301 0.836837127308 0.098604917076 0.005131366773 -0.486621799385
3.978288888000 0.079911749287 -0.502267025169 0.849858332397 0.079946723001 0.834888294375 0.095116739492 0.003802125242 -0.486022095762
3.978711111000 0.079697587002 -0.502047226187 0.850027876783 0.078382797150 0.834977703596 0.094635194342 0.003376191749 -0.485697179683
3.979133333000 0.078529315900 -0.503637084884 0.850678302808 0.077545132806 0.835831715530 0.094132235910 0.003172501819 -0.484907647681
3.979555555000 0.077804275947 -0.504189394852 0.850499185744 0.075839627763 0.838407735284 0.091951257065 0.001390632324 -0.486392880114
3.979977777000 0.076282511968 -0.502979789681 0.851106169508 0.074720878346 0.836271719567 0.089810230168 0.001139556276 -0.485280637168
3.980400000000 0.077066934595 -0.503580087148 0.851089225712 0.073527465441 0.838101866792 0.090539126824 0.000285323647 -0.486602378360
3.980822222000 0.075578533742 -0.504470966615 0.852211801318 0.072050264911 0.838229237283 0.088331411967 -0.000973746529 -0.485920085757
3.981244444000 0.074950086334 -0.505490088107 0.851766588523 0.070199412491 0.840502258077 0.087001034036 -0.001796037942 -0.486751840978
3.981666666000 0.072186893528 -0.504392799080 0.851147653518 0.068586793291 0.838865487509 0.083798976114 -0.002561460988 -0.483750298287
3.982088888000 0.072751401627 -0.503673079976 0.852133998842 0.068246954557 0.837810523708 0.084308910577 -0.002653564349 -0.484418943940
3.982511111000 0.073968007380 -0.505610382176 0.853248114322 0.066600722419 0.841174575887 0.085976642716 -0.002703603721 -0.486596069902
3.982933333000 0.071787163479 -0.505790879541 0.853658645763 0.065416872430 0.840930514589 0.082792791378 -0.004456764578 -0.486164688608
3.983355555000 0.070476191307 -0.504583096340 0.853077125414 0.063838873743 0.840087800938 0.080476975446 -0.005190657942 -0.485172463781
3.983777777000 0.069229557945 -0.506214934167 0.853383152021 0.061530720458 0.842083402497 0.079302505917 -0.006540210326 -0.485240072978
3.984200000000 0.067506676121 -0.504129643881 0.852527825187 0.061127995510 0.839789131344 0.075036876049 -0.009495018501 -0.484518846857
3.984622222000 0.068497316902 -0.505683766439 0.853894189171 0.059756224736 0.841780894934 0.076960755316 -0.007115105016 -0.485643849492
3.985044444000 0.067146962989 -0.506005997252 0.853962713979 0.058043899404 0.841500295625 0.074668175302 -0.008736844444 -0.484530305730
3.985466666000 0.067663486927 -0.506676440962 0.854450718578 0.056697169949 0.842002503156 0.075585942085 -0.008987322253 -0.485265822607
3.985888888000 0.064942428188 -0.506561078769 0.854517708097 0.055169382616 0.842931083907 0.072684651873 -0.010075971473 -0.484054141821
3.986311111000 0.065726781255 -0.506413933389 0.855136425469 0.054200074495 0.842227508395 0.072513313776 -0.010693718880 -0.484822899673
3.986733333000 0.061686478968 -0.507859200442 0.854477526388 0.051865345876 0.844468950204 0.066617210254 -0.014043395363 -0.484258286318
3.987155555000 0.063626940459 -0.506336294785 0.855143072961 0.051111166808 0.842811241636 0.070011010726 -0.012169544444 -0.484167310307
3.987577777000 0.063416579295 -0.509123596200 0.856599303811 0.049816963455 0.844948467649 0.068441932915 -0.013467924004 -0.484719990673
3.988000000000 0.061959603668 -0.509143271415 0.856793315004 0.047918306372 0.846834353028 0.067394818073 -0.014821387049 -0.485404470517
3.988422222000 0.061808587868 -0.509304496488 0.856580824478 0.047425354470 0.846535658852 0.066783675308 -0.014126378504 -0.485557035732
3.988844444000 0.059865144506 -0.508088575710 0.856253877588 0.046130014624 0.845737665354 0.063988875979 -0.015607634931 -0.484873833350
3.989266666000 0.059336268593 -0.510193682067 0.856547055175 0.041975980685 0.849965718371 0.063202139695 -0.018854237054 -0.486555819081
3.989688888000 0.057617071918 -0.509786413435 0.856497013566 0.041797243529 0.847386717746 0.060847669705 -0.018514761829 -0.483962511846
3.990111111000 0.058701759955 -0.509473194262 0.857517901496 0.042369538658 0.846108680567 0.062224098593 -0.017501514296 -0.483303717476
3.990533333000 0.057292901847 -0.509569763292 0.857969603657 0.040172006841 0.847500040856 0.060989883340 -0.018146933363 -0.484757727417
3.990955555000 0.055003319389 -0.510610418140 0.857934203598 0.038257007573 0.848563329638 0.057266886489 -0.020602470032 -0.483922109911
3.991377777000 0.054857366943 -0.510836596792 0.858403164172 0.036147926990 0.849474575302 0.056983277718 -0.021498502975 -0.484564689715
3.991800000000 0.053512295156 -0.510531433386 0.857881904077 0.035929888876 0.847921288383 0.054449217813 -0.022376612424 -0.482865524180
3.992222222000 0.053823850363 -0.509383243609 0.858535624365 0.034683997516 0.846646906795 0.054860929293 -0.022037113524 -0.483175470558
3.992644444000 0.052166073300 -0.509046764052 0.857726457210 0.032555564845 0.846854881366 0.051927199197 -0.023730537595 -0.482106082348
3.993066666000 0.051172784667 -0.511399252999 0.858401929754 0.031038977959 0.849797241029 0.050652311355 -0.025143579280 -0.483122945064
3.993488888000 0.049185788708 -0.510923128880 0.858353764245 0.029838629613 0.850675237495 0.048455009968 -0.025453160842 -0.483020735696
3.993911111000 0.049887776770 -0.510655989903 0.859606319036 0.029290389299 0.848460763007 0.048928316968 -0.024956535081 -0.482765376384
3.994333333000 0.048558863066 -0.513640473411 0.859747196575 0.026498247434 0.852806547262 0.047047162419 -0.028267603064 -0.483986307657
3.994755555000 0.047302666314 -0.510901920632 0.858536714154 0.026078750602 0.850565270144 0.045627605921 -0.026714289751 -0.482154707659
3.995177777000 0.047334068338 -0.512706938326 0.860322893405 0.025233463690 0.852430698292 0.046023156025 -0.027542441433 -0.483724383214
3.995600000000 0.045891598702 -0.512910830817 0.860710828371 0.023214608448 0.853116238729 0.043242899347 -0.029240308566 -0.483197256171
3.996022222000 0.043714862976 -0.510577583490 0.858886239016 0.021661428218 0.851709527941 0.041182146880 -0.028662550624 -0.482202022768
3.996444444000 0.045000519946 -0.512376865855 0.861630254712 0.019756357533 0.852829066611 0.042750748827 -0.029825671878 -0.483856103523
3.996866666000 0.043415481294 -0.512882699308 0.860926038086 0.018566691182 0.855098055047 0.040396009080 -0.030304701712 -0.484238866125
3.997288888000 0.042796721048 -0.511431820492 0.860270133069 0.017476866789 0.851056734384 0.038678834023 -0.031634866084 -0.481529751714
3.997711111000 0.040964789190 -0.513120300777 0.862500341312 0.015793405429 0.853998132872 0.036080658192 -0.033701725247 -0.483030168948
3.998133333000 0.040436644150 -0.511941563181 0.860666609589 0.015142850182 0.852809529745 0.035167909570 -0.032935473658 -0.481295147975
3.998555555000 0.037782647367 -0.512781885411 0.860868991223 0.012779898450 0.854520726166 0.031915001736 -0.035284641429 -0.481056613163
3.998977777000 0.039189742034 -0.511538914499 0.861456211863 0.012843917706 0.852468821692 0.033855772005 -0.033603389587 -0.481332138719
3.999400000000 0.034197351104 -0.512626843005 0.863952603387 0.006924795440 0.852240718299 0.028109849428 -0.038102422886 -0.480530013644
3.999822222000 0.036240615468 -0.513096735379 0.861764169539 0.008516435125 0.855031270980 0.030405027205 -0.036378573691 -0.481420873982
4.000244444000 0.033748577582 -0.513840250721 0.862965070544 0.006356340132 0.855696477254 0.025394246101 -0.039052989498 -0.481491931780
4.000666666000 0.034588329147 -0.513547986278 0.862194175269 0.006376334554 0.855736638166 0.027940639066 -0.037471826586 -0.480943299808
4.001088888000 0.033132463979 -0.514396882515 0.862987598264 0.006269607076 0.856891707075 0.024971880494 -0.038521098100 -0.481287349879
4.001511111000 0.032542668679 -0.514233283739 0.861792783116 0.003428677368 0.856761377879 0.024158906614 -0.039772572362 -0.480010087615
4.001933333000 0.032464516021 -0.513248746505 0.863096237838 0.001915828947 0.854830343325 0.023688754016 -0.040335260777 -0.480135015174
4.002355555000 0.030726004297 -0.514099527315 0.861797978996 0.000178655410 0.857254366321 0.023186007095 -0.039984056566 -0.480116021673
4.002777777000 0.028404267875 -0.514523639371 0.866216242489 -0.000422143596 0.858081605123 0.017628059211 -0.043779686915 -0.482040509573
4.003200000000 0.028045138471 -0.513814284409 0.863160598238 -0.003841166679 0.856993742769 0.017277143757 -0.044397426927 -0.480057436034
4.003622222000 0.027364792936 -0.515036209819 0.863633898738 -0.002941774296 0.858816611482 0.016338201955 -0.043848143361 -0.480451338532
4.004044444000 0.025949834048 -0.514135863385 0.862420130780 -0.004914017791 0.857551431476 0.016365396076 -0.043329482986 -0.479218050507
4.004466666000 0.025608656636 -0.514399428140 0.864453826570 -0.006541142012 0.858068129711 0.014399674679 -0.045170786128 -0.479636186133
4.004888888000 0.024625503385 -0.514230951935 0.863820505907 -0.007454152509 0.859284798118 0.012727675159 -0.045774230003 -0.480115514851
4.005311111000 0.023771698931 -0.514153370745 0.861679359381 -0.010261793743 0.858752253230 0.013253185226 -0.045310675640 -0.478360471784
4.005733333000 0.021738513251 -0.513972411383 0.863321586664 -0.010412554759 0.859121672887 0.010619860902 -0.045996879729 -0.479034736655
4.006155555000 0.022459224783 -0.514681496062 0.864381957499 -0.012504759619 0.859253582380 0.010735580107 -0.047312772126 -0.478870557231
4.006577777000 0.020108753067 -0.514283800584 0.864990400701 -0.014375182451 0.860643243351 0.007752406538 -0.049162833822 -0.479904660636
4.007000000000 0.018530910447 -0.513887504828 0.865717017874 -0.016970673065 0.859765781505 0.005263963730 -0.051097506719 -0.479732154814
4.007422222000 0.017654517020 -0.514908869486 0.864056008406 -0.015450315401 0.861656990244 0.004097250475 -0.049670154405 -0.479009875487
4.007844444000 0.017124335352 -0.514918006243 0.865520068980 -0.017200266599 0.861158433481 0.002788763761 -0.050678717845 -0.478633271609
4.008266666000 0.015021794941 -0.513967222704 0.864001936055 -0.021399003097 0.859604731399 0.000958325812 -0.052258455600 -0.476783155453
4.008688888000 0.014332319588 -0.514304298499 0.866098842658 -0.019095792557 0.860627756682 -0.001411832598 -0.052303483871 -0.477910090697
4.009111111000 0.012422995586 -0.514236871345 0.865744423149 -0.021290612998 0.861383778422 -0.003800782055 -0.053197229824 -0.477770503935
4.009533333000 0.012336727751 -0.513993403818 0.863965262373 -0.025426325502 0.862391728646 -0.002776738418 -0.054490828236 -0.477586039437
4.009955555000 0.010445207825 -0.513169578298 0.863600608602 -0.026714425765 0.860369633323 -0.005241958260 -0.054544598316 -0.475531552768
4.010377777000 0.009514832368 -0.514266061439 0.865899461355 -0.027939785962 0.863642712560 -0.006326575133 -0.055618139847 -0.478622733219
