# GHZ S RI R 50.000000000000
3.950000000000 -0.037009644130 0.003980932193 0.369568995634 0.908672324084 0.360263111137 0.909066557412 -0.041094130605 0.024718446772
3.950422222000 -0.037198056307 0.002773236774 0.373086019826 0.909721164502 0.361172405132 0.906779195170 -0.041613632104 0.024572887699
3.950844444000 -0.037070058272 0.002819941309 0.373268426764 0.909896587147 0.361022216475 0.908330817179 -0.042284701133 0.025428063714
3.951266666000 -0.036714142702 0.002244702808 0.378175923044 0.905999440397 0.365571871746 0.906512978039 -0.041332862644 0.025771244980
3.951688888000 -0.037988499384 0.002602239739 0.374699965388 0.906686717188 0.362529411587 0.905487683842 -0.042353928021 0.025176676587
3.952111111000 -0.038418610456 0.002784166943 0.374973729598 0.907513973414 0.364231348761 0.905090648096 -0.042755456651 0.025891543856
3.952533333000 -0.038992635048 0.004080714570 0.376358727095 0.909000993125 0.364434249402 0.907249795132 -0.042758868692 0.027107814904
3.952955555000 -0.038684915119 0.003244860034 0.379263040671 0.908161605930 0.365934109051 0.905212605616 -0.042375641170 0.026741396996
3.953377777000 -0.038442521691 0.002726703604 0.380361346893 0.905935621687 0.367397841516 0.904096882661 -0.042572069948 0.026249444439
3.953800000000 -0.037624928208 0.003588799606 0.381166924887 0.904308800539 0.366990809414 0.904549466048 -0.041502296479 0.025353818341
3.954222222000 -0.039071542630 0.003592285074 0.381007689812 0.905966492325 0.371063403180 0.904482781197 -0.042165322896 0.027122620909
3.954644444000 -0.038847518980 0.005156429648 0.386030378143 0.904764220588 0.371814423624 0.907038904086 -0.042148145591 0.027899812356
3.955066666000 -0.038209634216 0.005121762977 0.387998377978 0.905754631215 0.372679351944 0.904731236271 -0.040599571747 0.027633558970
3.955488888000 -0.039096355387 0.005576122119 0.384758008715 0.905580685557 0.375693623047 0.905036025435 -0.041365431681 0.028129599038
3.955911111000 -0.039809315653 0.005356107756 0.388888970792 0.904518796310 0.375819719603 0.903825065481 -0.041113222928 0.028529074042
3.956333333000 -0.038654751256 0.006170600091 0.392253652556 0.906766526001 0.379375190288 0.905844347906 -0.040176942060 0.029520857381
3.956755555000 -0.039108617858 0.006690753396 0.392642890650 0.907371782194 0.377883613975 0.905038746764 -0.040793460146 0.029632002790
3.957177777000 -0.039130880518 0.006031306365 0.392365120391 0.903993383416 0.379787167427 0.904551795103 -0.040844383707 0.028585874625
3.957600000000 -0.038462049890 0.007061297755 0.397431489937 0.903290038689 0.381568111273 0.904182017217 -0.039994118813 0.028995404294
3.958022222000 -0.039127885073 0.006213066456 0.394074078029 0.903854839759 0.382405163539 0.902813644041 -0.039948427157 0.028364806657
3.958444444000 -0.038068201337 0.007046365019 0.397700753352 0.905392220060 0.383387322651 0.902646580360 -0.039807172847 0.028504544495
3.958866666000 -0.039446512187 0.006856180865 0.397992883623 0.904412288047 0.385113673907 0.904442844981 -0.040597847543 0.029546114860
3.959288888000 -0.039244671470 0.007753904453 0.399069514912 0.901507480056 0.387683282037 0.904089424654 -0.039998813918 0.030369420083
3.959711111000 -0.037865465304 0.008157482885 0.403327277593 0.901043094796 0.389096420951 0.903826387841 -0.038609191355 0.028976861053
3.960133333000 -0.038703700792 0.008764411109 0.404223916780 0.903686915962 0.389561462489 0.904159013831 -0.039171954499 0.030964012776
3.960555555000 -0.038525510363 0.009011273389 0.404087721138 0.902520048707 0.389967648813 0.902299094828 -0.038618934561 0.029320105605
3.960977777000 -0.038371389481 0.009405098122 0.406198083415 0.902041808397 0.392919262167 0.902175396747 -0.038422175763 0.029935011444
3.961400000000 -0.036747794065 0.010026082916 0.413150172127 0.901911807923 0.395019333481 0.904915555738 -0.038793286592 0.030815631085
3.961822222000 -0.038830958635 0.009757122192 0.409215185222 0.901796078114 0.394132062869 0.902008770239 -0.038523666190 0.030896397564
3.962244444000 -0.038142435537 0.010767891615 0.411658942583 0.903376479252 0.397378393693 0.903219639979 -0.037600049193 0.031352376161
3.962666666000 -0.038507239385 0.010798041347 0.412543031400 0.900394615203 0.396819926510 0.901029979558 -0.037783269524 0.031186581492
3.963088888000 -0.037082225504 0.010873082268 0.415998471515 0.900705352817 0.400045704384 0.901898107845 -0.037088519570 0.030847045537
3.963511111000 -0.038044111982 0.011020482985 0.415604891738 0.900757269078 0.400980830893 0.901018748723 -0.037821339250 0.030887932853
3.963933333000 -0.038636019817 0.011319913674 0.417143153661 0.900167875766 0.401972222180 0.899851328210 -0.036713052453 0.030906269738
3.964355555000 -0.037083033533 0.011497214023 0.420096571830 0.899639968881 0.404558627264 0.901328505859 -0.036836110589 0.031267607414
3.964777777000 -0.036881365391 0.012321163717 0.420921500934 0.900774995540 0.405744386159 0.902058721844 -0.036158771494 0.030920556469
3.965200000000 -0.036865220275 0.012486256618 0.423295285452 0.900756564945 0.407202953178 0.901574023770 -0.036591697653 0.030826736866
3.965622222000 -0.036864149133 0.012986852131 0.424375443626 0.900586185668 0.408076603343 0.900001980666 -0.036415329026 0.031699727913
3.966044444000 -0.036491937020 0.013259527593 0.425800640053 0.897965577946 0.409467526023 0.900380425612 -0.035486023356 0.031717661302
3.966466666000 -0.035266331139 0.013085022839 0.429468870114 0.899241313239 0.410989560669 0.899932435619 -0.035851641957 0.030389581897
3.966888888000 -0.036288412614 0.013124121908 0.430244180227 0.897706976482 0.413926087803 0.899917720632 -0.035511180375 0.031807162302
3.967311111000 -0.035910609009 0.014042397977 0.432431079956 0.897802749841 0.414335387705 0.899047852859 -0.034711624732 0.031976361977
3.967733333000 -0.036306779212 0.013639787684 0.432266840047 0.895829500312 0.416718075283 0.898493714575 -0.035180095921 0.031808267435
3.968155555000 -0.036305130799 0.013500548729 0.434086956021 0.896271368531 0.417945941063 0.897563494174 -0.035297674679 0.031293097770
3.968577777000 -0.035796448503 0.013929697564 0.435280892365 0.895737876422 0.417791884902 0.897837036643 -0.034855817345 0.031405653417
3.969000000000 -0.034338950131 0.013406529394 0.442273368612 0.891976221817 0.425014014894 0.896671750828 -0.034497593012 0.032443379799
3.969422222000 -0.035715098861 0.014944523172 0.439608371113 0.894933063055 0.422426046638 0.896891962144 -0.034068632204 0.032006902875
3.969844444000 -0.034652141206 0.015350458095 0.440129860959 0.896452913961 0.422417381550 0.899002743717 -0.033952980857 0.031999750735
3.970266666000 -0.034928703503 0.015098411522 0.442331787678 0.894710113373 0.426799780705 0.895906965712 -0.033037304267 0.031355189239
3.970688888000 -0.034203012923 0.015458425292 0.444169879573 0.894215864850 0.427612532016 0.895945685413 -0.032948892685 0.031099645145
3.971111111000 -0.033823513754 0.015200073603 0.444465226376 0.893305784236 0.429000258913 0.896671448901 -0.033316767919 0.030824749315
3.971533333000 -0.033579412251 0.016510288910 0.448206473228 0.894605141208 0.430396273087 0.894162959504 -0.032458367232 0.031371226963
3.971955555000 -0.032813649873 0.015565081452 0.450804004729 0.890949537058 0.432760542209 0.895699775714 -0.032642991726 0.030430749810
3.972377777000 -0.032932506149 0.016205819804 0.451270917572 0.890924175993 0.434142102681 0.893380116432 -0.031325436145 0.031499020502
3.972800000000 -0.032864497668 0.015933989271 0.452179973914 0.891634391666 0.434455710380 0.894850661013 -0.032200769217 0.030900199243
3.973222222000 -0.032815230973 0.015890828197 0.452467860762 0.888257888282 0.436356112769 0.892858934303 -0.031560588350 0.030184023462
3.973644444000 -0.032230041915 0.016851240043 0.457144955443 0.889905092578 0.438879504394 0.893948946601 -0.031485308733 0.030981214226
3.974066666000 -0.032974562436 0.016713266178 0.457744802031 0.888989438917 0.440838987787 0.890459400253 -0.031378091662 0.031704726550
3.974488888000 -0.031661492939 0.017065668658 0.458724445110 0.888635012691 0.441425682080 0.893491953185 -0.030681806843 0.030855100529
3.974911111000 -0.030563230871 0.016922754177 0.462640839271 0.886708952998 0.444033782922 0.893352417756 -0.030890138882 0.030875480049
3.975333333000 -0.031262967180 0.017238596884 0.463799835138 0.886660303590 0.445104803906 0.891120187118 -0.031399096458 0.031266055415
3.975755555000 -0.030272509039 0.016753623328 0.466179078279 0.886039789896 0.448420659844 0.891585339249 -0.031069908540 0.030669210049
3.976177777000 -0.030162414757 0.017874744833 0.466626819976 0.885664707847 0.447040698718 0.891102750930 -0.029951610065 0.030519603323
3.976600000000 -0.029862782943 0.019482275687 0.470786760531 0.888430388052 0.449764797466 0.889149574718 -0.028544209316 0.029828683687
3.977022222000 -0.029398973213 0.017382047239 0.470120493558 0.884586379971 0.451697303429 0.890532130779 -0.030022524383 0.029170149253
3.977444444000 -0.029071028954 0.017864118499 0.471655866087 0.883144026978 0.451871813209 0.888507363038 -0.029141910519 0.029596502127
3.977866666000 -0.029513917501 0.017497310106 0.471995190027 0.883183456465 0.453748088214 0.890060092563 -0.030103120608 0.029406693348
3.978288888000 -0.028701812970 0.017862962927 0.475487664830 0.882539544262 0.456116395700 0.887913871991 -0.029187539486 0.029657375310
3.978711111000 -0.028648683713 0.018231004193 0.476337421399 0.882300339122 0.456878036698 0.887103463514 -0.028877689971 0.029636917463
3.979133333000 -0.027764657249 0.017696110656 0.477314617199 0.881365174560 0.459714354895 0.887282873345 -0.028807317530 0.028263027451
3.979555555000 -0.027306196409 0.017466103101 0.479510679983 0.879009499402 0.462214449939 0.888129943892 -0.029036370811 0.028947977789
3.979977777000 -0.027967999617 0.017599886817 0.480113355971 0.879216990759 0.463076165159 0.884510643190 -0.028471810992 0.028696529897
3.980400000000 -0.026808484579 0.018444723575 0.482476342716 0.879558412723 0.463948791232 0.886521706792 -0.027895308907 0.028306236805
3.980822222000 -0.026905481636 0.017074420323 0.484175310018 0.877074797695 0.466613774689 0.884918421779 -0.028778120137 0.027300809394
3.981244444000 -0.026275357280 0.017384929834 0.486098350981 0.876426334065 0.468316686418 0.885659690128 -0.027930308145 0.028467808144
3.981666666000 -0.027182593100 0.017179788759 0.487509910937 0.873334916338 0.471623271265 0.881362443735 -0.028665391052 0.028969743164
3.982088888000 -0.026586589125 0.017452382721 0.488303003978 0.873665912984 0.471158599582 0.881373298307 -0.027783347744 0.027772263677
3.982511111000 -0.024570859029 0.017763378352 0.492005821210 0.873996917185 0.473155376177 0.883899775846 -0.027387264821 0.027026517748
3.982933333000 -0.024961986639 0.016374084468 0.492503566889 0.871879481068 0.475499680313 0.882133867738 -0.027570532531 0.026157599390
3.983355555000 -0.025971661462 0.017775756374 0.492759914499 0.872417564540 0.476394078033 0.879786034180 -0.027885701854 0.027545237563
3.983777777000 -0.025413844597 0.016700927603 0.495992663184 0.869268083479 0.479112517520 0.880228009501 -0.028348384284 0.027185843147
3.984200000000 -0.025051545498 0.016967726259 0.497319922440 0.869170460458 0.481470182596 0.877867846631 -0.027838970061 0.026575254238
3.984622222000 -0.024219393242 0.017241509513 0.498733034961 0.869297566294 0.481228776657 0.877397876071 -0.026909507156 0.026444154942
3.985044444000 -0.025179825787 0.017312935608 0.499553169983 0.868219969599 0.482365563922 0.876511788386 -0.028128474754 0.026829953495
3.985466666000 -0.023597070457 0.017852662493 0.501923513151 0.868746769536 0.483478046277 0.877326441661 -0.026727782134 0.025866860333
3.985888888000 -0.024154625077 0.016182176312 0.502596834355 0.864404790582 0.487602179107 0.874911831873 -0.027668781439 0.026324828361
3.986311111000 -0.023253355710 0.017341681626 0.505095896161 0.865748873209 0.486457719173 0.874504581355 -0.027192366536 0.025313966628
3.986733333000 -0.023131571139 0.015844560321 0.507528902761 0.862656171926 0.492448672903 0.873006910890 -0.027744500639 0.025418761836
3.987155555000 -0.023326698474 0.017115910908 0.507960047051 0.862768567805 0.489319389775 0.872797980384 -0.027323411770 0.025446170763
3.987577777000 -0.022430250954 0.017643473553 0.509293465299 0.864264732698 0.492544433434 0.874516081129 -0.027752776166 0.025997142122
3.988000000000 -0.022989077559 0.015721502372 0.510742684627 0.862335640758 0.495521434034 0.873515457479 -0.028347775291 0.024283313744
3.988422222000 -0.021165686257 0.016714202712 0.513553830302 0.861433347730 0.495358336106 0.872186101386 -0.026521265933 0.024205738580
3.988844444000 -0.021835316896 0.016289346123 0.513835558918 0.859764740803 0.497675038533 0.870339715762 -0.027001135834 0.024352911012
3.989266666000 -0.021284015192 0.015104648292 0.516980765833 0.857535362459 0.500270533949 0.872548661944 -0.027919709699 0.023440954991
3.989688888000 -0.021620042177 0.015769707017 0.517905579154 0.857073550120 0.501595502844 0.869884594360 -0.027678111909 0.024264420616
3.990111111000 -0.020755831454 0.015663642086 0.518850003332 0.856022991341 0.501841915168 0.868875341033 -0.026405867715 0.024004362190
3.990533333000 -0.020655880014 0.015869921608 0.521347145469 0.856519303839 0.503723937934 0.868123667248 -0.026998849115 0.023228069643
3.990955555000 -0.021422344627 0.014984784521 0.522309802537 0.855056726311 0.507669689845 0.866763288761 -0.028303330758 0.023300598747
3.991377777000 -0.020902638177 0.015006355629 0.524255479138 0.853897270726 0.508427708064 0.866535401179 -0.027992669501 0.022810791454
3.991800000000 -0.020432997876 0.014879741459 0.526248883898 0.851540635964 0.509125717209 0.864518533412 -0.027780833105 0.022707097336
3.992222222000 -0.020899835977 0.015618547933 0.525634333293 0.853195277037 0.508708296735 0.863765968379 -0.026998910196 0.023230940003
3.992644444000 -0.020801671748 0.015080246736 0.527904245416 0.849824381187 0.511157799109 0.861304996101 -0.027809430600 0.023695669127
3.993066666000 -0.020061738174 0.014441264357 0.529658900854 0.849909414195 0.514403068430 0.862713179418 -0.027374864778 0.022807676629
3.993488888000 -0.020565133394 0.014278617061 0.530503789230 0.847857838462 0.516514438335 0.860092794716 -0.028623387190 0.023241234489
3.993911111000 -0.019408441968 0.015082091762 0.531848697256 0.848926437281 0.515378531481 0.860250509078 -0.027206913102 0.022889031840
3.994333333000 -0.018176067672 0.013096476033 0.536908838109 0.845345740458 0.517864360539 0.861466467938 -0.027974352787 0.019612165424
3.994755555000 -0.020043258152 0.014460720082 0.533944002982 0.845136668415 0.519208054179 0.857774758778 -0.027784421796 0.022409600705
3.995177777000 -0.018644076469 0.013698501375 0.537532301067 0.845085509570 0.520746773400 0.860032839381 -0.027515072778 0.021133069048
3.995600000000 -0.019279274117 0.013464997046 0.538349706339 0.843686417155 0.523449352067 0.857289532739 -0.028434107701 0.021182446623
3.996022222000 -0.019797007957 0.013257047845 0.538046116488 0.841530306308 0.524558035787 0.853541869958 -0.028036190183 0.021725955641
3.996444444000 -0.018668129165 0.014109068294 0.541132979049 0.842970763974 0.524687485399 0.855793294671 -0.027829071357 0.021459466407
3.996866666000 -0.019350083192 0.014238506042 0.541951105141 0.841548246700 0.526647389106 0.854748380512 -0.028577274401 0.021442732614
3.997288888000 -0.018950809453 0.014332034822 0.543076047441 0.840053919586 0.526166409496 0.852605013213 -0.027918554605 0.021609689292
3.997711111000 -0.018828437104 0.012520864643 0.545415808663 0.839206536306 0.531566002134 0.851846329813 -0.028595717819 0.020363931458
3.998133333000 -0.019092462858 0.013164875478 0.545019146742 0.837558053622 0.531455779573 0.849525574393 -0.028061511311 0.021230253409
3.998555555000 -0.019691867903 0.011892006485 0.547326395870 0.836085236972 0.536228012006 0.847300897862 -0.029686594189 0.020956001288
3.998977777000 -0.018814598093 0.013028922434 0.547481495481 0.835304844282 0.531576923702 0.847981397753 -0.028211904678 0.021354546219
3.999400000000 -0.020232402298 0.011407496373 0.553435138317 0.834459118683 0.538125243498 0.841015602634 -0.030527325992 0.020708230301
3.999822222000 -0.018778134809 0.012036236582 0.551887602235 0.833427207679 0.537002255625 0.846044506378 -0.028433742157 0.020186100241
4.000244444000 -0.018336598434 0.011627635024 0.552243430718 0.832854006523 0.540789152127 0.845812357080 -0.028718928980 0.020628274516
4.000666666000 -0.018966642224 0.011496830574 0.554027958625 0.830833253754 0.540067624858 0.843418546350 -0.029178683381 0.020070256907
4.001088888000 -0.018337486301 0.011146096913 0.554491450320 0.830188407941 0.541826664430 0.843069100385 -0.028568766341 0.020621023979
4.001511111000 -0.018417883846 0.011364745276 0.555303635495 0.828817003142 0.544317541078 0.843434973585 -0.029672603762 0.020441426875
4.001933333000 -0.018743332427 0.011539250478 0.556841682405 0.828607100848 0.544132376962 0.841449762597 -0.029573550112 0.020455286923
4.002355555000 -0.018584987938 0.011516566345 0.557949371511 0.826090356664 0.544278939164 0.840968415630 -0.029149434982 0.020620477042
4.002777777000 -0.018640012182 0.010459832321 0.561305850774 0.827383211389 0.550340805696 0.839766190097 -0.029735255796 0.018720441825
4.003200000000 -0.018516181484 0.011706946005 0.563106643238 0.824954873446 0.548888090618 0.837745421884 -0.030076311769 0.019753061481
4.003622222000 -0.018645089119 0.011047573883 0.562954007422 0.824289932093 0.550768487586 0.836700775777 -0.029941393031 0.020419218321
4.004044444000 -0.018326422257 0.010421431950 0.563598740924 0.822691129580 0.551400722766 0.836221160263 -0.029371347428 0.020220498457
4.004466666000 -0.018198375145 0.010720383052 0.564150676553 0.821215602441 0.553011216900 0.835550912267 -0.030148542584 0.020692894962
4.004888888000 -0.019324231990 0.010176322926 0.565766793322 0.821145356507 0.555185645689 0.832994209494 -0.030101914526 0.019283319015
4.005311111000 -0.018312948769 0.010505969452 0.566730392099 0.818219066186 0.554777640504 0.833092234533 -0.029871249048 0.020209812929
4.005733333000 -0.018839342032 0.009736296682 0.567654307400 0.818409847524 0.558011494566 0.831933682273 -0.029897455852 0.019829494036
4.006155555000 -0.018671312286 0.010292771603 0.568218238306 0.816949389636 0.557391131946 0.830883702887 -0.030362129925 0.020597833445
4.006577777000 -0.018667761771 0.009706526462 0.571411120083 0.815400123308 0.560252847630 0.830019946866 -0.030527142522 0.019609210082
4.007000000000 -0.017703857517 0.009866098096 0.577490878661 0.816722724908 0.564957254107 0.825621938209 -0.030854174961 0.020915050161
4.007422222000 -0.018527603661 0.009763747575 0.572933991742 0.813465323542 0.562931924908 0.827500059133 -0.030235382865 0.020438417156
4.007844444000 -0.019437132010 0.009633704472 0.573551553540 0.812879716644 0.564041347154 0.827336884325 -0.030234832251 0.019416018501
4.008266666000 -0.019367964738 0.009292492400 0.576653393361 0.809828051598 0.565208944305 0.823441851138 -0.030784059913 0.020493443409
4.008688888000 -0.019800947958 0.009407736793 0.575655161860 0.809284234758 0.565659674827 0.823380358049 -0.030661109157 0.020356954718
4.009111111000 -0.019641882862 0.008658992233 0.576839154558 0.809873922732 0.571019767812 0.821320261962 -0.031199631877 0.019683146231
4.009533333000 -0.019441676804 0.009005845459 0.578860811841 0.806077644270 0.568602153908 0.820247911788 -0.030759001919 0.020622214843
4.009955555000 -0.020208304512 0.008839346422 0.579509858251 0.804838032620 0.570877514919 0.816123350257 -0.031907232538 0.020977139039
4.010377777000 -0.019973291450 0.009199427984 0.581399022216 0.806173989127 0.570940127737 0.818746273485 -0.031413913034 0.020466867638
