# GHZ S RI R 50.000000000000
3.950000000000 -0.045658625085 0.020430046386 0.351846525037 0.941377515066 0.360004529786 0.932853922134 -0.035820853006 0.018151470518
3.950422222000 -0.045502851580 0.019803728254 0.352409799795 0.939874460100 0.360972112278 0.931066957419 -0.036591268115 0.017905517290
3.950844444000 -0.045765100233 0.019425994570 0.358385270616 0.939371589002 0.359765547860 0.929248007598 -0.036438843771 0.017914111490
3.951266666000 -0.045581098389 0.019404509117 0.354769477649 0.935654874242 0.363364755942 0.928571850188 -0.036917821628 0.018135306742
3.951688888000 -0.046158324107 0.021118738741 0.358524642893 0.938986589891 0.361661190206 0.929703151680 -0.035837952563 0.019589348313
3.952111111000 -0.045555258769 0.022395632447 0.360775718817 0.935665261779 0.363261299218 0.931030293508 -0.035109105544 0.020064338597
3.952533333000 -0.045712982853 0.021218345384 0.361606301287 0.934192736104 0.363930918388 0.928529006919 -0.035259444507 0.018326616240
3.952955555000 -0.044768562509 0.022125434298 0.363094261052 0.937233581529 0.368364066805 0.929490226100 -0.034926851478 0.019861168847
3.953377777000 -0.044765829468 0.021767188677 0.364962935223 0.934905362156 0.366860643665 0.926797126583 -0.034029889451 0.018823480198
3.953800000000 -0.045077995519 0.022580975327 0.364797773675 0.938899955309 0.366055350159 0.930483285060 -0.034213384337 0.019463346436
3.954222222000 -0.043891407831 0.023362864257 0.371348198589 0.936972099349 0.369762891263 0.929832058105 -0.033309027183 0.019323387434
3.954644444000 -0.045941957095 0.023169662113 0.370395897781 0.936469252458 0.369313992844 0.928961849431 -0.033664180469 0.020144979134
3.955066666000 -0.044864197562 0.023885163989 0.371748567040 0.932981865163 0.372070893494 0.929419920710 -0.032378581563 0.019960005074
3.955488888000 -0.044467864247 0.024083527853 0.372114649135 0.932628807891 0.375372476287 0.930419800097 -0.032969274210 0.021089759276
3.955911111000 -0.044491041481 0.024860521242 0.376375877808 0.936641917350 0.374284624780 0.929264603985 -0.032915326695 0.021099765561
3.956333333000 -0.044501596110 0.024800599391 0.378062899780 0.932456888015 0.379493267905 0.929148450140 -0.031257618456 0.021648287736
3.956755555000 -0.044678125304 0.023425498815 0.378336002224 0.933203951769 0.376846230722 0.925796548082 -0.031464419160 0.020082365740
3.957177777000 -0.044402395797 0.025118425912 0.378492583390 0.934996676126 0.378217191919 0.929584752852 -0.032478022622 0.021601429667
3.957600000000 -0.045190120751 0.025025398677 0.379515617515 0.933946596319 0.379936065842 0.927926600205 -0.031227907594 0.021656600300
3.958022222000 -0.043335223109 0.024939506641 0.380908330668 0.933060642801 0.382368053235 0.928036172335 -0.030910559522 0.020844352349
3.958444444000 -0.043325199800 0.025382098854 0.384195691632 0.932553990723 0.383175573472 0.927602733136 -0.029787351445 0.020531120470
3.958866666000 -0.043674003426 0.026158039065 0.385413896758 0.934095332268 0.385226035162 0.926139404310 -0.029582838626 0.021816565918
3.959288888000 -0.043924968511 0.026041218366 0.386132018882 0.931881295630 0.385143995645 0.926334730053 -0.029264056463 0.021425418904
3.959711111000 -0.043302947442 0.026545868181 0.388798944648 0.935322645674 0.387322695426 0.926840977272 -0.028054444141 0.022317686219
3.960133333000 -0.043325860492 0.026903636766 0.389249019960 0.932932732436 0.389602035873 0.926913060555 -0.028496753429 0.022717216455
3.960555555000 -0.043895235808 0.026807682656 0.390038170641 0.934813435128 0.389015682685 0.928210933595 -0.029383200943 0.022014281816
3.960977777000 -0.042666716649 0.027532390125 0.391577603644 0.932350736671 0.390392583768 0.927031743783 -0.027594013640 0.021610472859
3.961400000000 -0.042009619788 0.027444832454 0.395288787263 0.930818538929 0.395761065202 0.929031193149 -0.027497154962 0.021967174815
3.961822222000 -0.041073417007 0.027643588977 0.397034757582 0.931209057395 0.396129022316 0.927064944960 -0.026458224505 0.021607860126
3.962244444000 -0.042175404642 0.026988659115 0.395936525871 0.930198435352 0.395470684658 0.926639111073 -0.027481956478 0.021807742927
3.962666666000 -0.041200255444 0.028054141383 0.399021189322 0.930092074072 0.397387940011 0.926584972249 -0.026563803546 0.021398241338
3.963088888000 -0.041201320609 0.027629053676 0.400277035990 0.930656662692 0.400136754979 0.925720132964 -0.026139125959 0.021621608210
3.963511111000 -0.041204295439 0.029131568309 0.401915784557 0.932381997591 0.399815912323 0.927473848486 -0.025464601564 0.022038864412
3.963933333000 -0.040815147717 0.028569146827 0.403052908449 0.930386542974 0.403928599881 0.925608243686 -0.025021345862 0.022344554899
3.964355555000 -0.041100634531 0.028846723637 0.404161099299 0.930802887936 0.404147503518 0.924860717243 -0.025174786574 0.022021776137
3.964777777000 -0.040179184246 0.029759264120 0.409220944184 0.929751587791 0.406438022084 0.925523986663 -0.024788164807 0.022605211956
3.965200000000 -0.040488255404 0.029688329965 0.408608083972 0.929042149351 0.406409604789 0.925198716216 -0.024026126077 0.022138677569
3.965622222000 -0.041111962696 0.029863395385 0.408452691767 0.929833711391 0.407631081315 0.924909832003 -0.024355604390 0.022431354222
3.966044444000 -0.039977720840 0.030894805605 0.412166294314 0.931910554381 0.409694917790 0.926307416493 -0.022979123266 0.023097883824
3.966466666000 -0.040716524131 0.031616094997 0.412478567723 0.932853898076 0.408521472126 0.924404172422 -0.022671822390 0.022926525784
3.966888888000 -0.039122696771 0.030786348856 0.414555839008 0.928628944635 0.412292252194 0.923794305831 -0.021375350408 0.022027840639
3.967311111000 -0.038358790584 0.031307832608 0.418228454560 0.928946818667 0.414922399690 0.925492831751 -0.021025381575 0.022451841214
3.967733333000 -0.037630779941 0.031691728595 0.419843611528 0.928746462642 0.416363556559 0.925021877934 -0.021225043557 0.021569867228
3.968155555000 -0.037335461443 0.031631644798 0.422933873156 0.928896395801 0.418264909986 0.924953431833 -0.020338490006 0.022112567500
3.968577777000 -0.038569060896 0.031971538931 0.420802878780 0.929965860228 0.418189710290 0.924104739161 -0.021277801400 0.022606469563
3.969000000000 -0.039460001840 0.033577936001 0.422366826306 0.934200390606 0.415455417583 0.922426389127 -0.022477836233 0.022942737334
3.969422222000 -0.036782984976 0.031942797892 0.425507256845 0.928379245517 0.422143352755 0.923241283844 -0.019940604225 0.021243839525
3.969844444000 -0.036447215948 0.031235240160 0.426517387398 0.926278471728 0.423325286642 0.922850894957 -0.019636877523 0.021075731686
3.970266666000 -0.035689762253 0.031885762749 0.430792642625 0.925393966762 0.426028879446 0.921517077084 -0.018646921971 0.021477457125
3.970688888000 -0.035435959035 0.032759463644 0.431633494607 0.925868836769 0.427484474550 0.922775513531 -0.018287127042 0.021480542659
3.971111111000 -0.034653941024 0.033007772326 0.434429853175 0.926055947922 0.428531941106 0.922246871355 -0.017901063436 0.020844021857
3.971533333000 -0.033565870244 0.032550074867 0.437338670412 0.924870250138 0.433008373166 0.921301820778 -0.016580025293 0.020453588989
3.971955555000 -0.034028670828 0.033637845561 0.437861892144 0.923994336142 0.432487593606 0.921711980540 -0.016285070807 0.021197430301
3.972377777000 -0.033651255570 0.032712654506 0.437650557080 0.922999678455 0.435007464577 0.920699215673 -0.016146982300 0.021225053168
3.972800000000 -0.033435088850 0.032501296436 0.439102926528 0.922296637164 0.434872199426 0.919673842922 -0.015935741438 0.020681278005
3.973222222000 -0.032126496896 0.033684477241 0.442962820591 0.923826829423 0.436913810675 0.920169075784 -0.014889958508 0.020380856968
3.973644444000 -0.032393661245 0.031987819058 0.443562067083 0.920083518682 0.440335186192 0.919618877784 -0.015351503828 0.020076918252
3.974066666000 -0.032196663621 0.033336728062 0.445729497284 0.922446075156 0.439915742626 0.919865807195 -0.015446722727 0.019754186029
3.974488888000 -0.032327842244 0.033690776393 0.445237429409 0.921208383779 0.441878091432 0.918634414926 -0.014460779124 0.020374283450
3.974911111000 -0.031116885059 0.033272768622 0.448943830457 0.919181107516 0.444309438110 0.919443793790 -0.014173663096 0.020088973978
3.975333333000 -0.031126125178 0.032753271002 0.450095098675 0.918459184245 0.445829612472 0.918153944039 -0.014494713524 0.019700478579
3.975755555000 -0.030920307861 0.034066774710 0.451160008652 0.919660150557 0.445969950569 0.917837205971 -0.013265143756 0.018968066266
3.976177777000 -0.030284337159 0.033798894080 0.452414180273 0.919799586684 0.448334808853 0.917819766345 -0.013339821201 0.019159486782
3.976600000000 -0.029025908505 0.035579650939 0.459619480514 0.919898435848 0.449808189860 0.918773291657 -0.011703658171 0.021402050158
3.977022222000 -0.028675638384 0.033307155118 0.457181030226 0.915863744439 0.453505515333 0.917635322786 -0.012872211465 0.019487170334
3.977444444000 -0.027969081538 0.032587559485 0.459885290420 0.914318580489 0.456657997782 0.916232104505 -0.011788497871 0.017670263230
3.977866666000 -0.029012456158 0.033057609971 0.459510583491 0.914270735750 0.456789825140 0.914204390609 -0.013029915175 0.018948094730
3.978288888000 -0.027948424933 0.033625605200 0.462673675282 0.916279275650 0.458230038018 0.914779996710 -0.011863800759 0.018653872406
3.978711111000 -0.027473180850 0.033098755522 0.463200944041 0.914680706773 0.459280982080 0.914603006127 -0.011089567214 0.017341017563
3.979133333000 -0.027225780386 0.032935243513 0.466565789734 0.912002435383 0.462635672631 0.911359604894 -0.011652935371 0.018061417905
3.979555555000 -0.026779948221 0.033221574241 0.467874171594 0.911231422661 0.462800559659 0.911807079202 -0.010461609291 0.018034933138
3.979977777000 -0.025791795587 0.032693740928 0.470667337209 0.910747708089 0.466744122393 0.913630873152 -0.010855198532 0.018063778237
3.980400000000 -0.025964662540 0.032742223514 0.470579669482 0.911743323001 0.467106043026 0.912962805254 -0.010668690894 0.016313740026
3.980822222000 -0.025319589702 0.032851459121 0.471898789807 0.909156954904 0.467310109242 0.910690749794 -0.009511372132 0.017345983383
3.981244444000 -0.024959045911 0.032189468005 0.474188950847 0.908032593153 0.471389156338 0.909932615954 -0.009920866714 0.017311016408
3.981666666000 -0.024605319786 0.033191556203 0.474465687296 0.910224194807 0.471410087726 0.911809838354 -0.008502074257 0.017303692437
3.982088888000 -0.023272307285 0.033447210353 0.478959417145 0.908675370886 0.473164222357 0.911510920402 -0.008486664906 0.016090380177
3.982511111000 -0.023664402685 0.031892695272 0.478715279488 0.906880331221 0.475658480348 0.908666789200 -0.008480916571 0.015057570090
3.982933333000 -0.022218926653 0.033128689608 0.481997268179 0.906459175424 0.476077708468 0.909302500533 -0.008328340318 0.014745408254
3.983355555000 -0.023454228655 0.032738990113 0.482300500551 0.905614602145 0.478481827568 0.906955746473 -0.008370754051 0.015457917172
3.983777777000 -0.022206841877 0.031858905976 0.483152093237 0.903152116074 0.479893625124 0.905445088824 -0.007598904593 0.014826429683
3.984200000000 -0.022468977503 0.031217875873 0.484536309704 0.902095287265 0.483497824955 0.904851689001 -0.006797986251 0.014735331527
3.984622222000 -0.021596045080 0.031446048799 0.487794186018 0.903145185241 0.483777775673 0.905195999163 -0.007621801616 0.013957541906
3.985044444000 -0.020856341155 0.031038064103 0.490577632908 0.900604848706 0.485800991320 0.904527931520 -0.007554052428 0.013065553388
3.985466666000 -0.021221093875 0.030973245514 0.489768501427 0.900261338311 0.487930276894 0.902280856721 -0.007141461958 0.013742568575
3.985888888000 -0.020342192871 0.031851471657 0.491753247534 0.900906954257 0.487996597010 0.902775831829 -0.006896697965 0.013830716933
3.986311111000 -0.020043906569 0.030276695976 0.494275348733 0.898472305207 0.491215174810 0.902837162328 -0.007146901706 0.012979751383
3.986733333000 -0.019029042424 0.031348828543 0.497234079626 0.899122888973 0.492011264006 0.902558530687 -0.005950581413 0.012989847542
3.987155555000 -0.019389638222 0.031183341649 0.497866085596 0.898242434536 0.493233622618 0.899608728917 -0.005857960034 0.013661332967
3.987577777000 -0.018108633079 0.029997900599 0.499001530712 0.896658218298 0.496584834593 0.901937886799 -0.005359779434 0.011374169531
3.988000000000 -0.018615406225 0.030622940679 0.500849877088 0.895864302102 0.497284243653 0.898816462365 -0.006187370632 0.011605049582
3.988422222000 -0.018338134366 0.030269139875 0.502979097523 0.894832999950 0.498055124207 0.897493315835 -0.005270459206 0.011155542053
3.988844444000 -0.016857941269 0.030172093053 0.505382916530 0.894448869452 0.500095155354 0.899029356353 -0.004760650538 0.011057442053
3.989266666000 -0.017628911105 0.029086932934 0.506315837791 0.891736212564 0.503503788262 0.895600146752 -0.005896799113 0.011300536067
3.989688888000 -0.017225033011 0.028789848761 0.507255366556 0.891811526898 0.504120538885 0.897302570286 -0.005065658502 0.010705703868
3.990111111000 -0.016562721231 0.028497814028 0.509721391365 0.890278012980 0.506856338856 0.895485415116 -0.005743929585 0.009907667847
3.990533333000 -0.017007162174 0.028865029107 0.511366646779 0.890604060088 0.508086121677 0.894053663710 -0.005905551221 0.010788688522
3.990955555000 -0.016069369966 0.027554815536 0.511922197722 0.888620389324 0.510156242925 0.895596910603 -0.004634837004 0.009849352313
3.991377777000 -0.015875468953 0.027784429235 0.514840008530 0.888313006017 0.511700258905 0.893756618992 -0.004844631593 0.008919585378
3.991800000000 -0.016542585868 0.027367989368 0.513504550569 0.885328602039 0.514207877346 0.890898210917 -0.006071481862 0.012110393736
3.992222222000 -0.015353187311 0.026816697478 0.517479332365 0.885279972435 0.514533541654 0.891580024069 -0.004572397236 0.009014288468
3.992644444000 -0.015475795748 0.026347037616 0.518508490002 0.883816281691 0.516298734767 0.889982248595 -0.005443462077 0.009672307531
3.993066666000 -0.015096236256 0.026573930715 0.520518619327 0.884049081543 0.518694813549 0.889548840000 -0.005011305980 0.008995881338
3.993488888000 -0.015134759632 0.025971083948 0.521664013116 0.881089390509 0.519234234668 0.887522922591 -0.005202805729 0.008897198814
3.993911111000 -0.013569583544 0.026481762773 0.523365200216 0.882215117555 0.519578263177 0.888178273905 -0.003546205449 0.008624357942
3.994333333000 -0.015111504411 0.024417108773 0.524973929733 0.877697003183 0.525799656829 0.884084143574 -0.006465397527 0.008269676602
3.994755555000 -0.014566509603 0.025171025576 0.526450795669 0.878980470770 0.524604724718 0.884038227493 -0.004743457267 0.007747303684
3.995177777000 -0.013987919638 0.024970166382 0.527499980246 0.877469687380 0.525744079824 0.883121964552 -0.004997144484 0.008278105410
3.995600000000 -0.013081403667 0.024672933290 0.529157627459 0.877956831272 0.527305970027 0.883770130928 -0.003749528595 0.007300330139
3.996022222000 -0.012798387092 0.024806196143 0.531726050385 0.876929245983 0.527593576818 0.883292775209 -0.003797395500 0.006698022761
3.996444444000 -0.013347928368 0.023970625026 0.532010202000 0.875211710257 0.529752546342 0.883482317975 -0.004090447574 0.007059403941
3.996866666000 -0.012242804253 0.024298848775 0.534166748119 0.875025015521 0.531208144549 0.881532187997 -0.003574148126 0.007473604258
3.997288888000 -0.012783571427 0.023231532445 0.535988373694 0.873691694672 0.534194422662 0.879654581299 -0.003953680525 0.007134029536
3.997711111000 -0.012470850870 0.023307439697 0.535916770505 0.871959877093 0.534689099480 0.878125401896 -0.003591377704 0.006886971751
3.998133333000 -0.012787331102 0.023036854631 0.538089193986 0.870664011400 0.536947129971 0.877104184467 -0.004278925546 0.006876618234
3.998555555000 -0.011330807747 0.022343437175 0.541654956011 0.871618382807 0.538007864151 0.879234354860 -0.003402614720 0.005524460659
3.998977777000 -0.012556713306 0.021439636178 0.539941226018 0.868275920882 0.541392571100 0.875411941582 -0.004492315117 0.006695897517
3.999400000000 -0.012027745086 0.021679760978 0.541940433600 0.866962902599 0.540431604495 0.873387574840 -0.003941062261 0.006791365440
3.999822222000 -0.011646961468 0.021061244294 0.543268149493 0.866834995666 0.543642279541 0.874210884033 -0.003780873124 0.005980845596
4.000244444000 -0.012550817852 0.022016664864 0.543427837391 0.867265087037 0.543024751345 0.873548621960 -0.003855832191 0.006125773688
4.000666666000 -0.011308780619 0.020730491286 0.546647456479 0.865639137470 0.547470295170 0.871353070238 -0.003782805201 0.006169784799
4.001088888000 -0.011539702622 0.021093025944 0.547783436638 0.862888948937 0.545018608347 0.870555304672 -0.003947355365 0.006690733179
4.001511111000 -0.012223073271 0.020264042231 0.550640437266 0.861765416587 0.548881296566 0.866474709606 -0.005145843168 0.005658910538
4.001933333000 -0.011434004113 0.020417561097 0.550669226598 0.859037939033 0.548562998570 0.868868461750 -0.004690986582 0.005729018658
4.002355555000 -0.011221976802 0.019894229728 0.552658586656 0.860479666058 0.549633938559 0.869214974047 -0.003389522289 0.004468322214
4.002777777000 -0.011673529205 0.018628752709 0.552581833625 0.860076942652 0.553419942346 0.865942839325 -0.003188983758 0.004338785571
4.003200000000 -0.011765266901 0.019097479093 0.554915882233 0.857583333067 0.553660565789 0.864253938379 -0.004267263873 0.004939364782
4.003622222000 -0.011097151759 0.018838293664 0.556081026858 0.857398159531 0.556356960866 0.864466132769 -0.003912225908 0.005203594369
4.004044444000 -0.011448499506 0.017830486105 0.558700974928 0.855700380288 0.557566440472 0.862992866930 -0.003923311292 0.003905723698
4.004466666000 -0.011858547345 0.018741843873 0.556837637083 0.853733572305 0.555575475355 0.862066440166 -0.004027661275 0.005383529294
4.004888888000 -0.011719721888 0.018458987246 0.559971408397 0.854310192808 0.557395897134 0.859833477924 -0.003786871607 0.005338118973
4.005311111000 -0.011839779155 0.018303031602 0.561809427761 0.852698172476 0.558534518044 0.858681613390 -0.003693100093 0.005413185160
4.005733333000 -0.012607168235 0.017298470700 0.562017315151 0.850551116311 0.561812429609 0.857997001996 -0.004639696859 0.004095015865
4.006155555000 -0.011844163506 0.017431120497 0.563779406133 0.849470200506 0.563189274924 0.856410395877 -0.004334554967 0.005327679755
4.006577777000 -0.011815496015 0.016319166547 0.564880614662 0.849357786916 0.567641470859 0.855383628020 -0.004657735439 0.004519216631
4.007000000000 -0.009732722093 0.015028466183 0.561294311377 0.854388219688 0.572924468716 0.860952282297 -0.000811131143 0.004681885533
4.007422222000 -0.011496554475 0.016258121755 0.567872102578 0.847973773413 0.568737523782 0.855384654453 -0.004287598948 0.004348242703
4.007844444000 -0.011839909177 0.015808406858 0.568734743877 0.846632041792 0.571242600593 0.853859484954 -0.004635631361 0.004041425698
4.008266666000 -0.012777657719 0.015292386882 0.568690483324 0.844517402657 0.570933450744 0.851146055315 -0.003836081959 0.004295783928
4.008688888000 -0.011412420343 0.014168123512 0.570592013081 0.842392732319 0.572302273284 0.851549835863 -0.003313551877 0.004400093937
4.009111111000 -0.012211295395 0.014842731801 0.571803599890 0.845125664674 0.574165457307 0.850706227060 -0.003341697348 0.004242572019
4.009533333000 -0.011269761613 0.014786269821 0.572674438495 0.841352497605 0.575370436011 0.849445956984 -0.003463497099 0.005310543307
4.009955555000 -0.011719288310 0.015536345830 0.574628130577 0.839891001813 0.576159779601 0.849410966348 -0.004917088744 0.005125879970
4.010377777000 -0.012610847011 0.014381334571 0.576181863541 0.838237509175 0.577964476815 0.844438091519 -0.005012806749 0.004882791405
