# GHZ S RI R 50.000000000000
3.950000000000 -0.046492180247 0.020973074874 0.352552703202 0.940074145620 0.359100288107 0.933203296158 -0.036223535393 0.018479921991
3.950422222000 -0.046504493110 0.020666689787 0.354703887251 0.939567235119 0.360490729286 0.933826896262 -0.037193517104 0.018711329797
3.950844444000 -0.046581478323 0.020835741247 0.358026930228 0.939924773215 0.363019063637 0.932311438052 -0.037000957727 0.019845393424
3.951266666000 -0.047967025364 0.020592744304 0.354211583851 0.940183252483 0.359600617585 0.932494550025 -0.038682972807 0.019107507889
3.951688888000 -0.047183155412 0.022285093819 0.358894759075 0.938626864553 0.363860444935 0.933146049599 -0.036338878263 0.020707708865
3.952111111000 -0.046699157423 0.023460377630 0.362286414487 0.938734075331 0.363640606068 0.933238334490 -0.035081989345 0.021283082500
3.952533333000 -0.047438320212 0.022704421786 0.360494414443 0.940466394763 0.363701618536 0.930811588823 -0.035896732647 0.020259046467
3.952955555000 -0.046298759004 0.023250348183 0.362214098222 0.938574500203 0.369448659626 0.932569128068 -0.035555930695 0.021166935538
3.953377777000 -0.046600523501 0.023461781849 0.365371697983 0.939382622390 0.366133710035 0.931659483587 -0.035168506674 0.020471926055
3.953800000000 -0.046403740181 0.023130844497 0.362667419411 0.938133600671 0.367743391748 0.931907374301 -0.034844542455 0.019849772108
3.954222222000 -0.045713028963 0.024310783272 0.369958639513 0.939523415387 0.369489686945 0.932504038370 -0.034238364380 0.020393750777
3.954644444000 -0.047731499123 0.023549789306 0.365310014402 0.937173226668 0.370854533345 0.929433697128 -0.034616196184 0.020725878088
3.955066666000 -0.046909360246 0.025190362960 0.368685503334 0.938409861654 0.371933964909 0.931500748321 -0.033293138866 0.021314672313
3.955488888000 -0.046134133863 0.025639969651 0.372122160999 0.938461400205 0.374672702305 0.933295563473 -0.033580798224 0.022323231904
3.955911111000 -0.046257656322 0.026135386424 0.374682687351 0.939394605670 0.374882578558 0.932334769316 -0.033718877455 0.022113580288
3.956333333000 -0.047587690088 0.025285379760 0.371407988506 0.937756569118 0.376406136915 0.928652866588 -0.032815515017 0.021721300599
3.956755555000 -0.046907376415 0.025156799740 0.376585630947 0.937011877534 0.376281653544 0.931374386809 -0.033418936473 0.021527248949
3.957177777000 -0.045921896928 0.025216998887 0.375906305477 0.935337057170 0.379125402651 0.929188333049 -0.032440338307 0.021580647093
3.957600000000 -0.046607801623 0.026222835087 0.378273477566 0.937539490302 0.380851151710 0.929833909842 -0.031390399876 0.022842862644
3.958022222000 -0.044999332842 0.026034582678 0.381147388882 0.937598698933 0.381192562765 0.929347173995 -0.030935581769 0.021172302919
3.958444444000 -0.045162203340 0.026132155176 0.382245017086 0.936112225807 0.382383376969 0.928295913326 -0.030007746111 0.020964677246
3.958866666000 -0.045918589590 0.026787409444 0.382094963975 0.935886263266 0.383592299606 0.927635104415 -0.030842532470 0.021614188312
3.959288888000 -0.046109972036 0.027623681334 0.384366202837 0.936689831083 0.384214483960 0.929620342267 -0.030280024572 0.022566476336
3.959711111000 -0.045005294699 0.027061178387 0.387489924953 0.934271680504 0.387029229732 0.929648896703 -0.029166053209 0.021895075448
3.960133333000 -0.045173002130 0.027829316175 0.388187272302 0.935564012368 0.388914191398 0.929236220158 -0.029152620635 0.022938217299
3.960555555000 -0.045467117882 0.027602458594 0.388410064216 0.936558125553 0.389930910997 0.929942382637 -0.029609910490 0.022786622479
3.960977777000 -0.043945707878 0.028587428734 0.390480060043 0.935010979797 0.391816337366 0.929021002518 -0.027870237797 0.022638542607
3.961400000000 -0.045058475259 0.028324258594 0.389112930105 0.937530577549 0.393073881539 0.928488216531 -0.028239344510 0.022404864437
3.961822222000 -0.043528982414 0.028781111137 0.394075017145 0.935332141151 0.394652119226 0.929067768382 -0.027359173327 0.022028400451
3.962244444000 -0.043469941057 0.028369121472 0.396369048195 0.933484548437 0.395296577709 0.929784369653 -0.027812654729 0.022450975781
3.962666666000 -0.043124997762 0.029588574683 0.396452889053 0.934655818533 0.397709125998 0.929109326701 -0.027256045983 0.022630834895
3.963088888000 -0.043147907242 0.028990409133 0.396949197477 0.935196159734 0.400089063462 0.927714314923 -0.026858672837 0.022693609008
3.963511111000 -0.042230554270 0.029743061560 0.400958714417 0.934262045009 0.400817523659 0.928323681488 -0.025357538510 0.022614949899
3.963933333000 -0.042848149590 0.029478962433 0.400677457277 0.933371543073 0.403486943290 0.927258081547 -0.025427328979 0.022889452892
3.964355555000 -0.042714290010 0.030244838961 0.403827429808 0.933793144385 0.404103043236 0.927769811018 -0.025594843946 0.022638353590
3.964777777000 -0.042279147256 0.030812908581 0.406283186717 0.934479155573 0.405384585147 0.926000695092 -0.024833087240 0.023126931047
3.965200000000 -0.041711619280 0.031122097641 0.408160441679 0.932643298491 0.406948310580 0.927634296639 -0.024264700561 0.023104765099
3.965622222000 -0.041993558059 0.031067295958 0.409303490035 0.932660339591 0.408817606751 0.926598088857 -0.023890271210 0.023174910651
3.966044444000 -0.041451353899 0.031607184948 0.410093012899 0.933568083103 0.410780481359 0.927607809339 -0.023125888950 0.023889834129
3.966466666000 -0.041447534845 0.032234750687 0.412077812290 0.933072178483 0.410967975572 0.925889045882 -0.022523710710 0.023742091427
3.966888888000 -0.040376724494 0.032281928750 0.413354518130 0.932057818941 0.412854439291 0.926969795231 -0.022031025128 0.023191346886
3.967311111000 -0.039872847868 0.031919318781 0.415491633683 0.930726824744 0.415883108204 0.926601969314 -0.021357721901 0.023363256874
3.967733333000 -0.039318228690 0.032465951709 0.417227146107 0.931489064183 0.416697505800 0.926144694579 -0.021479372538 0.022179992165
3.968155555000 -0.039459228496 0.032531092617 0.418775055314 0.931707028633 0.418327694982 0.926622574600 -0.021091178123 0.022963119436
3.968577777000 -0.039634868530 0.032451173377 0.420004322170 0.930027510755 0.419460374239 0.925354928341 -0.021181612727 0.022877573113
3.969000000000 -0.039845725219 0.034564214894 0.423181523531 0.934494798191 0.418193778149 0.925308679024 -0.022668382532 0.023708603849
3.969422222000 -0.038027846370 0.032500716043 0.423859481118 0.929190402653 0.423492981445 0.924606987920 -0.020081731623 0.021816252990
3.969844444000 -0.037714407488 0.032567698149 0.424046901873 0.929371918964 0.425508601513 0.925513137467 -0.020362597093 0.022774733147
3.970266666000 -0.037763058423 0.032957919500 0.427390759701 0.928028279807 0.426094750765 0.923741901162 -0.019372477970 0.022240428382
3.970688888000 -0.036975440379 0.033436592935 0.429330982251 0.927310103587 0.428312542336 0.924094077802 -0.018563973969 0.022285512294
3.971111111000 -0.036459119966 0.033419159763 0.431272232823 0.927068152810 0.429247838666 0.922976746141 -0.017938331511 0.021426595061
3.971533333000 -0.035768786895 0.032775750133 0.432162810824 0.925299323082 0.432992353908 0.923138902808 -0.017634978760 0.021190336527
3.971955555000 -0.035927052157 0.034534926018 0.434282446521 0.927060687729 0.432599465579 0.923187609569 -0.016691176012 0.022194456781
3.972377777000 -0.035349571891 0.034049588050 0.436596782336 0.925635173049 0.434296498877 0.923252333859 -0.016468768349 0.021310776514
3.972800000000 -0.034797645907 0.034122345170 0.437946852917 0.925817585122 0.435361165399 0.922543961364 -0.016219305298 0.021343764666
3.973222222000 -0.033324714962 0.033981062071 0.441033692456 0.922983355234 0.438139279937 0.921646006771 -0.015428500046 0.020382277683
3.973644444000 -0.033964435828 0.033642022979 0.442279652593 0.924497014735 0.440416118859 0.921440889557 -0.015115483825 0.020775526496
3.974066666000 -0.033587656116 0.033833975872 0.443422029074 0.922812314828 0.441248739277 0.921192807131 -0.015612965395 0.020385867980
3.974488888000 -0.033299424636 0.035188030474 0.445532489194 0.924386857031 0.442183416228 0.921104990459 -0.014298263005 0.020942735897
3.974911111000 -0.032871158039 0.034885387189 0.446037266681 0.923481529661 0.444863140043 0.921820818999 -0.014472871174 0.021057675412
3.975333333000 -0.032533350709 0.034240128659 0.448652334690 0.922048138544 0.446606289940 0.920217114029 -0.014411371430 0.020486125379
3.975755555000 -0.031782144495 0.034801735313 0.450138351058 0.920977954735 0.447258194888 0.919703482583 -0.013340228465 0.019700535109
3.976177777000 -0.031153366149 0.034703705434 0.451698767772 0.921424423268 0.449318569065 0.919663370345 -0.013194757095 0.019623081766
3.976600000000 -0.032171539760 0.036341495930 0.452540561742 0.922872257886 0.448892605294 0.920821615490 -0.012981967574 0.022467915385
3.977022222000 -0.030242580799 0.034891555195 0.456171033222 0.920093046253 0.453240112184 0.919625377471 -0.012580625056 0.020062942104
3.977444444000 -0.029984363428 0.033982091343 0.456828769544 0.917925356481 0.456140443839 0.918802402680 -0.012216977025 0.018402812933
3.977866666000 -0.029928119207 0.034836245583 0.459607860936 0.918139455047 0.457408900498 0.916708830886 -0.012771559834 0.019784595733
3.978288888000 -0.029435843591 0.034121327629 0.459935568610 0.917153794339 0.458832489458 0.916454565144 -0.012299137879 0.019293143302
3.978711111000 -0.028736779934 0.034161570928 0.461555374120 0.916824649919 0.459889771165 0.916609676096 -0.011423493525 0.018315582851
3.979133333000 -0.029497103658 0.034313696091 0.462558469996 0.916973901431 0.462806605495 0.913026426908 -0.011333893100 0.019419938012
3.979555555000 -0.028496025981 0.034339672775 0.465096091686 0.914535558797 0.462980671607 0.914080517061 -0.010616385790 0.018906178198
3.979977777000 -0.027506881636 0.033784142894 0.468093122685 0.913871699057 0.466978126801 0.915543558109 -0.011055309111 0.018811592711
3.980400000000 -0.026983702818 0.033575660650 0.469635321521 0.913505191028 0.467929625405 0.914246429620 -0.010522932628 0.016739726520
3.980822222000 -0.026170151304 0.034568383944 0.471660580509 0.913089966454 0.468111263403 0.913099544732 -0.009325151399 0.018064123551
3.981244444000 -0.026086305844 0.033504443839 0.472834952579 0.911175758911 0.472274827551 0.911897730823 -0.009978632748 0.017877138849
3.981666666000 -0.024275283020 0.033768932561 0.476219517046 0.910367541557 0.472939530294 0.913299569402 -0.008314037253 0.017729488806
3.982088888000 -0.024835579806 0.034159198870 0.476098799245 0.911063541562 0.473700195186 0.912985169045 -0.008536498098 0.016793925652
3.982511111000 -0.024568995751 0.033588064016 0.478481367433 0.910695249643 0.476416183172 0.910744839946 -0.008339345119 0.015741173856
3.982933333000 -0.023881809744 0.034021874456 0.479278297828 0.909532771870 0.476356875408 0.910839073165 -0.008179013138 0.015568565337
3.983355555000 -0.024225641337 0.033605435631 0.481471609862 0.907373013878 0.479499795622 0.908916502716 -0.008099209161 0.016143935360
3.983777777000 -0.023625890978 0.033500787614 0.481492413670 0.907167637959 0.480431486775 0.907805369591 -0.007395991996 0.015748673095
3.984200000000 -0.022319968350 0.032120137201 0.486065046006 0.902704283166 0.484831359226 0.906868132842 -0.006938605090 0.014972577504
3.984622222000 -0.022835741836 0.032628504668 0.486221409035 0.905950788656 0.484363409218 0.907355707164 -0.007185001977 0.014888087892
3.985044444000 -0.022772308892 0.032311265054 0.487579525202 0.904578293895 0.486205794371 0.906421400567 -0.007235225152 0.014029863111
3.985466666000 -0.022278958275 0.032503824247 0.488799529896 0.904027412135 0.488373303886 0.904358753032 -0.006923202178 0.014701997249
3.985888888000 -0.022159344687 0.032790461602 0.488906440779 0.903822696681 0.488038876692 0.905031079459 -0.006512816803 0.014680649580
3.986311111000 -0.021007544578 0.031540307504 0.493237322706 0.901153680496 0.491556559895 0.905102946625 -0.007023423350 0.013702599263
3.986733333000 -0.020529915704 0.031940149926 0.494505088679 0.901060279621 0.492335949218 0.904539609206 -0.006241091481 0.013778398074
3.987155555000 -0.020246632672 0.032486169981 0.497171054962 0.900708704976 0.493383140633 0.901935910009 -0.005576650618 0.014288436830
3.987577777000 -0.019044134749 0.031255301860 0.498239401837 0.899780455822 0.497025307994 0.903860389408 -0.005150165250 0.012257934821
3.988000000000 -0.019824920594 0.031487732501 0.499138394938 0.898234619641 0.497398034608 0.900904211415 -0.006008192966 0.012286094495
3.988422222000 -0.019587538176 0.030817600054 0.500287041958 0.896601007149 0.498314594908 0.899529614208 -0.005554928919 0.011840165781
3.988844444000 -0.018148204259 0.030857302730 0.503171088044 0.896613541851 0.500676436277 0.900988135404 -0.004633184030 0.011693349841
3.989266666000 -0.019015303722 0.030090830948 0.504167755697 0.894563171858 0.503943195820 0.897601680977 -0.005705592386 0.012203761856
3.989688888000 -0.017818254363 0.029491924302 0.506244541791 0.893199344657 0.504908298244 0.898772099303 -0.005048087236 0.011031878596
3.990111111000 -0.018237589910 0.029984839371 0.507175575403 0.894202568482 0.507230315830 0.897981069486 -0.005300644345 0.011097684384
3.990533333000 -0.017818654511 0.029583924035 0.510428005497 0.892334508426 0.508357419652 0.896215607007 -0.005692145144 0.011396333730
3.990955555000 -0.016754049168 0.028366252035 0.510983710565 0.890734229451 0.510757371368 0.897028853704 -0.004624834819 0.010120994074
3.991377777000 -0.016857963689 0.028478990754 0.513065331806 0.890426708986 0.512270812948 0.895443349316 -0.004887928230 0.009501720760
3.991800000000 -0.016881390310 0.029479512940 0.514728824595 0.889797157990 0.515370085773 0.891911041868 -0.005506966258 0.012117884312
3.992222222000 -0.016415134807 0.027689412676 0.515952604155 0.887734587109 0.515305203031 0.893531296098 -0.004307252295 0.009535184700
3.992644444000 -0.016295929254 0.027738230301 0.518168670666 0.886884800077 0.517133495751 0.891562149661 -0.004914242743 0.010089548535
3.993066666000 -0.015977220259 0.027747387463 0.519734742645 0.886145661704 0.519205935818 0.891766840988 -0.004745074200 0.009526287682
3.993488888000 -0.015897859101 0.027412288404 0.521507510261 0.884458741174 0.520316203475 0.889046653161 -0.004684606356 0.009342627011
3.993911111000 -0.014910146483 0.027479253114 0.521725555488 0.885080690387 0.519681362980 0.890086965715 -0.003265151862 0.009550234053
3.994333333000 -0.015996881014 0.025285051546 0.523739061569 0.880221012847 0.526406225822 0.886117875437 -0.006210931514 0.009035941036
3.994755555000 -0.015590010379 0.025681637882 0.524542283083 0.881235665879 0.525499872786 0.886196528472 -0.004576538345 0.008680679902
3.995177777000 -0.015150542257 0.026077151146 0.526035637359 0.880486538255 0.526910078404 0.885209231495 -0.004449133102 0.008849057907
3.995600000000 -0.014273650887 0.025647668434 0.527433604866 0.880999310906 0.528233193022 0.886234288948 -0.003290008344 0.008072997177
3.996022222000 -0.014164500071 0.025574635121 0.529590388482 0.879984328819 0.528961679590 0.885113186403 -0.003541239655 0.007519002768
3.996444444000 -0.013733116977 0.025050972289 0.532033879019 0.877344810098 0.530502312070 0.884404380466 -0.003840587172 0.007180913300
3.996866666000 -0.013014239587 0.024787759260 0.532109911081 0.876815743945 0.532213758987 0.884431453152 -0.003358215408 0.008238545481
3.997288888000 -0.013543264720 0.024414985688 0.535437319439 0.876257338126 0.534605671972 0.881226438828 -0.003652965384 0.007610933914
3.997711111000 -0.013257870685 0.024481965631 0.535055129914 0.874632547391 0.535270649035 0.880161984890 -0.003135792429 0.007508594295
3.998133333000 -0.013640483645 0.023762303314 0.536422686541 0.872884303087 0.537984467180 0.879242935102 -0.003921004151 0.007568801699
3.998555555000 -0.011775111756 0.023450518830 0.540746619457 0.873505158426 0.538097487236 0.881738041696 -0.003157911204 0.006119915464
3.998977777000 -0.013458326928 0.022478515899 0.539201100188 0.870847587650 0.542377321665 0.876717281020 -0.004039140069 0.007197354082
3.999400000000 -0.012538140584 0.022997949889 0.541416780608 0.869515238990 0.540590010034 0.875891455473 -0.003539919217 0.007484523408
3.999822222000 -0.012848966713 0.022014147410 0.541898095281 0.869535839760 0.544239942070 0.876291660590 -0.003406691831 0.006702113071
4.000244444000 -0.013298899446 0.022682190629 0.542557769356 0.869501819543 0.544495789061 0.874693928538 -0.003518388612 0.006643174007
4.000666666000 -0.012452887149 0.021801370699 0.545681743328 0.868537525760 0.547837741393 0.872493460198 -0.003454203879 0.006832356909
4.001088888000 -0.011858708692 0.022288268442 0.547226733455 0.865372673569 0.546564741722 0.872704633776 -0.003354924191 0.007245721461
4.001511111000 -0.013249986820 0.021622828136 0.549675995747 0.864616857318 0.549698557809 0.868547904022 -0.004699096680 0.006316287153
4.001933333000 -0.012514641924 0.021478864288 0.549800207462 0.861364416922 0.548077438842 0.870462878025 -0.004467025603 0.006449520994
4.002355555000 -0.011944489187 0.021034859022 0.552024583786 0.863107055822 0.550930307482 0.871176030770 -0.002890805018 0.005112914170
4.002777777000 -0.012496020364 0.019539742751 0.552059735582 0.862516374161 0.554383469765 0.867438088439 -0.002733878330 0.004879818323
4.003200000000 -0.013047008366 0.020111038872 0.554070219829 0.860232532581 0.553906232335 0.865173914142 -0.003883444551 0.005635919434
4.003622222000 -0.011499440372 0.019969730856 0.555690342078 0.859783327373 0.557548106819 0.866392335203 -0.003478412431 0.005767553608
4.004044444000 -0.012401100504 0.018875519843 0.558372659482 0.858136784415 0.557656549955 0.864118643094 -0.003557322377 0.004525133836
4.004466666000 -0.012341374109 0.019443852717 0.556156932400 0.855803282254 0.557326538725 0.863952624437 -0.003768077046 0.005750212327
4.004888888000 -0.011928067764 0.019501442526 0.559751153198 0.856430820281 0.558716677313 0.861869016487 -0.003356158949 0.005770685159
4.005311111000 -0.012189635318 0.019134025661 0.561343051663 0.854900600816 0.560266738388 0.860410220170 -0.003315989655 0.005922016109
4.005733333000 -0.012875296781 0.017893729886 0.561498915699 0.852673984319 0.564208277766 0.858908552285 -0.004303681141 0.004521112390
4.006155555000 -0.012310635519 0.018015482433 0.563203770978 0.851872914850 0.564600111393 0.858129839946 -0.003825887988 0.005952564197
4.006577777000 -0.013231056687 0.017269575263 0.564206179617 0.851497399016 0.566619561893 0.856535950076 -0.004365665721 0.005175962013
4.007000000000 -0.010292154301 0.015274104142 0.560507888562 0.856503643116 0.574745673896 0.861470074747 -0.000458089445 0.005212352874
4.007422222000 -0.012082705517 0.017372146609 0.567309449150 0.850368192725 0.569996995252 0.857776142171 -0.003878320353 0.004956884091
4.007844444000 -0.012670579405 0.016277925943 0.567769366189 0.849257772942 0.573101522003 0.855176679730 -0.004341496948 0.004522772990
4.008266666000 -0.013312765176 0.016393258353 0.567727667880 0.846875298790 0.572749017834 0.852519099790 -0.003495952044 0.004952091866
4.008688888000 -0.011642184554 0.015521662202 0.569882544615 0.845125515702 0.573186397659 0.857229841631 -0.002719221590 0.004977858774
4.009111111000 -0.012475440484 0.015813224589 0.570929729527 0.847560238773 0.575643613588 0.852330979727 -0.002929075521 0.004902505604
4.009533333000 -0.013027275262 0.015610326813 0.571856349664 0.843375455019 0.574254894812 0.849631035289 -0.003200121933 0.005963669339
4.009955555000 -0.012616541781 0.015908559431 0.574160728749 0.842882809265 0.576365483997 0.849307492904 -0.004256876590 0.005800117126
4.010377777000 -0.013256291877 0.015455840575 0.575223915915 0.841051066082 0.578480864393 0.847076416099 -0.004365997939 0.005580586348
