# GHZ S RI R 50.000000000000
3.950000000000 0.313947711225 -0.219405614895 0.782963277528 -0.240230180184 0.797342951153 -0.242110127304 -0.376416488531 -0.134103436779
3.950422222000 0.311648941026 -0.219993321286 0.782444616432 -0.241455974165 0.795331595307 -0.243073499874 -0.377876722658 -0.130641907123
3.950844444000 0.311217301088 -0.220732253027 0.781424047771 -0.242360607374 0.794549851777 -0.245612990925 -0.378487707122 -0.129222808018
3.951266666000 0.310963107430 -0.221088663227 0.780876722365 -0.242420787219 0.795308511790 -0.246433671267 -0.377520114843 -0.128251907075
3.951688888000 0.309428321332 -0.220934885421 0.781090117147 -0.243178096319 0.794671896758 -0.247264731397 -0.377592958916 -0.126980281933
3.952111111000 0.307953772255 -0.221140553271 0.780220933565 -0.244690031394 0.793337454135 -0.247690765454 -0.378280550021 -0.125051945982
3.952533333000 0.307816558737 -0.221707189314 0.780762476271 -0.245323176607 0.792706750907 -0.250137875746 -0.378471229309 -0.124764144302
3.952955555000 0.307702166469 -0.221459323754 0.780651936771 -0.246257270877 0.792374438963 -0.251205594170 -0.377886259377 -0.123350952844
3.953377777000 0.306478322329 -0.221076312858 0.780046359437 -0.247422099689 0.791972236024 -0.251294209532 -0.377450341709 -0.122726650793
3.953800000000 0.305620193014 -0.221593003332 0.779860082628 -0.247268282709 0.791977263689 -0.254263581072 -0.377769985588 -0.121413909350
3.954222222000 0.306735346719 -0.222837437912 0.779825882150 -0.250306283136 0.792489314206 -0.255886515975 -0.377879279027 -0.121900136733
3.954644444000 0.305175052931 -0.222234598640 0.779554616180 -0.250949604590 0.791405867603 -0.257541376880 -0.378076568888 -0.120724563262
3.955066666000 0.304246727014 -0.221980758748 0.779124434656 -0.251658929349 0.790823987251 -0.258347172445 -0.378195236950 -0.120130558738
3.955488888000 0.304635746002 -0.223606221610 0.778606633779 -0.252994517593 0.790918223788 -0.259965503566 -0.376882936476 -0.119435129658
3.955911111000 0.303420246565 -0.222470595483 0.778732046101 -0.255479788023 0.789617685613 -0.260199495394 -0.376900920921 -0.118178666463
3.956333333000 0.303341312927 -0.223166023810 0.779599903368 -0.256257525786 0.790615335034 -0.262504027165 -0.376479545564 -0.118908156857
3.956755555000 0.303515409459 -0.223093340829 0.778729020836 -0.256870624929 0.789933261734 -0.264184195236 -0.376892764745 -0.117759301650
3.957177777000 0.301564886295 -0.224503458328 0.777771296713 -0.258280636044 0.788907045586 -0.266174286480 -0.377057290168 -0.116551270046
3.957600000000 0.301313191164 -0.224252042565 0.778169119922 -0.259376526838 0.789080066252 -0.267479472720 -0.376316266811 -0.116260769245
3.958022222000 0.301543386904 -0.223817596782 0.778005190705 -0.260313182712 0.789356173051 -0.268255012222 -0.376068286632 -0.115396074616
3.958444444000 0.300474700692 -0.224103587874 0.778001503208 -0.261678329285 0.789211603872 -0.269534949245 -0.376107310046 -0.115261015042
3.958866666000 0.300292299632 -0.223688885094 0.777888980535 -0.263838726212 0.787724516207 -0.270119895007 -0.375685834873 -0.113822670246
3.959288888000 0.298795761346 -0.224162189841 0.777421317850 -0.263892541938 0.786873899484 -0.272262952525 -0.376175650679 -0.112792605765
3.959711111000 0.298516501892 -0.224356135918 0.777425984527 -0.264912516227 0.788129879414 -0.273453912144 -0.375314988815 -0.112867949969
3.960133333000 0.297916632521 -0.224588571405 0.777277509549 -0.266717883796 0.787881990382 -0.275043853361 -0.375415109447 -0.112693655914
3.960555555000 0.297871739464 -0.224660859915 0.777996401493 -0.267539070275 0.787485255737 -0.275806402896 -0.374592226043 -0.111887659824
3.960977777000 0.296812804992 -0.225286693534 0.776676717833 -0.268985276978 0.786748048354 -0.277912105531 -0.375436105554 -0.110909864138
3.961400000000 0.297737084851 -0.224794959874 0.777686470725 -0.270018813658 0.788734431417 -0.279721161305 -0.375467687814 -0.110766717656
3.961822222000 0.296860857063 -0.225023250935 0.777151815764 -0.271323014475 0.786959128361 -0.280215051097 -0.374115268069 -0.109655948460
3.962244444000 0.295514581952 -0.226234853091 0.776327262191 -0.272026200859 0.786229601568 -0.281880172992 -0.374115951243 -0.109383750537
3.962666666000 0.295737993723 -0.225907348570 0.776335902012 -0.273572177722 0.785557074629 -0.282741033007 -0.373599242132 -0.108448309924
3.963088888000 0.295208852795 -0.226082224064 0.776439231306 -0.274655513974 0.785347406862 -0.285544781716 -0.373738258789 -0.107614571606
3.963511111000 0.294923864509 -0.225704117049 0.776293673796 -0.276111486013 0.785638419055 -0.284637709956 -0.372759992254 -0.107110156061
3.963933333000 0.294245918884 -0.226828260894 0.776375408659 -0.277408006544 0.785965359090 -0.288001210430 -0.372865288407 -0.107092716640
3.964355555000 0.293057750196 -0.226564673747 0.775890772067 -0.278515912030 0.783847478315 -0.289581500074 -0.373270973163 -0.105475902943
3.964777777000 0.293098552315 -0.226277669623 0.776399051364 -0.280419169949 0.783051236426 -0.288676616417 -0.371924877421 -0.105512115999
3.965200000000 0.291955708879 -0.226639115197 0.775385037007 -0.281169692700 0.782795181575 -0.291207071933 -0.372588955844 -0.104406004382
3.965622222000 0.291599520978 -0.226615996078 0.776018952154 -0.282481811600 0.782675754788 -0.292478251696 -0.371836077412 -0.104017787226
3.966044444000 0.291361619379 -0.226550075611 0.775754442199 -0.283804278307 0.783999878633 -0.294175341435 -0.372320519951 -0.103739829533
3.966466666000 0.289693314456 -0.225719782361 0.775228682339 -0.284567775553 0.780958253739 -0.295276358874 -0.372403080436 -0.101956779573
3.966888888000 0.289791182713 -0.227403611083 0.774652567837 -0.286293415255 0.782846546227 -0.297917693866 -0.372737655437 -0.102383753534
3.967311111000 0.290059858727 -0.226960682887 0.775259700258 -0.287558592642 0.782818407379 -0.298839160595 -0.372188260285 -0.101540640344
3.967733333000 0.289203532261 -0.227356614304 0.774629182233 -0.288284567516 0.781736672338 -0.300874098821 -0.371442989158 -0.100881603346
3.968155555000 0.288450208325 -0.228362049660 0.774485166695 -0.289732149285 0.781952602487 -0.301861661427 -0.371319233591 -0.101060227536
3.968577777000 0.288321377944 -0.228004564960 0.774593027178 -0.291358147446 0.781860947852 -0.302595215187 -0.371328323983 -0.100460410798
3.969000000000 0.289079025306 -0.227728039638 0.774969847966 -0.294074616261 0.782998093837 -0.302989680621 -0.371385577223 -0.101741029173
3.969422222000 0.288135542280 -0.228058343532 0.774648291013 -0.293414790799 0.780843471354 -0.304974796271 -0.369473439879 -0.098905458546
3.969844444000 0.287402005791 -0.227382749435 0.774690956227 -0.294450749009 0.781401649976 -0.306265535917 -0.370193663430 -0.098461509106
3.970266666000 0.286457767884 -0.228843337128 0.773750845418 -0.296686029621 0.779695808566 -0.308732243208 -0.370013015735 -0.097832383552
3.970688888000 0.284958901667 -0.228812038786 0.773306555239 -0.297424401265 0.779603266067 -0.310177641814 -0.370282831269 -0.097052292511
3.971111111000 0.284931365282 -0.228148702763 0.773456155495 -0.298035496238 0.778154955192 -0.310044405358 -0.368623808032 -0.096476957826
3.971533333000 0.284503425183 -0.228589423061 0.773592734796 -0.299542318830 0.779045040132 -0.311971181889 -0.368529382117 -0.095673529083
3.971955555000 0.283814010117 -0.229234772422 0.772711845228 -0.300961499367 0.777982909629 -0.314069040898 -0.368768643420 -0.095345549452
3.972377777000 0.283392466268 -0.228935620719 0.772623144085 -0.302507471938 0.776585234611 -0.315425356499 -0.368590770419 -0.093804240947
3.972800000000 0.283682759787 -0.228934239699 0.772941491151 -0.303134601586 0.777322272881 -0.314623605419 -0.367244764293 -0.094289393761
3.973222222000 0.283257350601 -0.229272892765 0.772002471098 -0.305472713661 0.776866131262 -0.318573225599 -0.368227545763 -0.092759173937
3.973644444000 0.282117207105 -0.229317052643 0.772140824016 -0.306174771134 0.776423469734 -0.319716452622 -0.367778336445 -0.092242571535
3.974066666000 0.282141111548 -0.230071345433 0.772056425329 -0.308875894621 0.777547963598 -0.321675794093 -0.368417515771 -0.092842806373
3.974488888000 0.281668634812 -0.229084535057 0.772440884288 -0.308672462018 0.776641059087 -0.320762419882 -0.367071655278 -0.091930335495
3.974911111000 0.281171076143 -0.229607108983 0.772019209290 -0.309934287478 0.776507672990 -0.322412802723 -0.367042755292 -0.091178517123
3.975333333000 0.280927615638 -0.230940592228 0.771891882383 -0.312564101387 0.777006627547 -0.324547605981 -0.366589311497 -0.091355055808
3.975755555000 0.280445156298 -0.230025476907 0.771819370074 -0.312708542577 0.776383395548 -0.325130094623 -0.366156219260 -0.090592462024
3.976177777000 0.280480607240 -0.230933718989 0.771487496486 -0.315381317809 0.776066407065 -0.327389687029 -0.366164387707 -0.089822467250
3.976600000000 0.278149463192 -0.229687111707 0.771493116860 -0.314866305562 0.772197369034 -0.326546274508 -0.366104529259 -0.088742745169
3.977022222000 0.278076742405 -0.230730765287 0.770484961055 -0.316452937836 0.774522422310 -0.329862404554 -0.366365961782 -0.088156807909
3.977444444000 0.278079842257 -0.231599960934 0.769592621931 -0.319632799832 0.774276960181 -0.334264358319 -0.366336252928 -0.086722110735
3.977866666000 0.276576441205 -0.231350228475 0.769725012353 -0.319750232239 0.771517469622 -0.334268437767 -0.365441844666 -0.087023064824
3.978288888000 0.276822410985 -0.231564474216 0.770662000323 -0.320725670912 0.772253689311 -0.333759951607 -0.364707149006 -0.086957429663
3.978711111000 0.276498364093 -0.231336780723 0.769919302507 -0.322210655045 0.773144874105 -0.337239533745 -0.365560319288 -0.086094560330
3.979133333000 0.275185009759 -0.231911287375 0.769667291456 -0.324052772917 0.770189648997 -0.339626864862 -0.364266730009 -0.085503135730
3.979555555000 0.275103499684 -0.231351110849 0.768748957592 -0.324937519960 0.770305152938 -0.339377936460 -0.364021177168 -0.084423576732
3.979977777000 0.275007267451 -0.232274156129 0.769505759622 -0.326931607300 0.771161295356 -0.341172219264 -0.364541338230 -0.084012476753
3.980400000000 0.274751168796 -0.232164334578 0.769490191121 -0.328567150327 0.771867880540 -0.342664696055 -0.364466144655 -0.083874138949
3.980822222000 0.273566266039 -0.231738667039 0.767909393417 -0.328731894555 0.768587795948 -0.341617605554 -0.363264745522 -0.083103468523
3.981244444000 0.273146703751 -0.231900614687 0.769207350661 -0.330351346372 0.768698272129 -0.344936396261 -0.363341159941 -0.082227679169
3.981666666000 0.273088843631 -0.232806474704 0.767711876710 -0.333465407955 0.771305346150 -0.347953701855 -0.365072522257 -0.081078636315
3.982088888000 0.272925253939 -0.233152418806 0.768411105852 -0.334491966436 0.770812525338 -0.347846623096 -0.364141830339 -0.081919261204
3.982511111000 0.271686177787 -0.232765980190 0.768113297802 -0.334645152599 0.768273478397 -0.349534147638 -0.362345854792 -0.080932245856
3.982933333000 0.272215994200 -0.232859426917 0.767993791063 -0.336056741536 0.768696149945 -0.349203140509 -0.361926077688 -0.081315846479
3.983355555000 0.270542928773 -0.232619933670 0.767044795189 -0.337042834832 0.766979040190 -0.351271293177 -0.361695813873 -0.079873882208
3.983777777000 0.270620764614 -0.232532984634 0.766898423493 -0.338156365293 0.765634927519 -0.352396633988 -0.360954609705 -0.079024816639
3.984200000000 0.270737502888 -0.232713977210 0.768869614667 -0.339909351312 0.765944992214 -0.353189620787 -0.359882095221 -0.078045200345
3.984622222000 0.270274717998 -0.234133537836 0.768559042951 -0.342297756480 0.767930814250 -0.354735870316 -0.361184986881 -0.079434112786
3.985044444000 0.269713350664 -0.233357449930 0.767613985179 -0.343752406677 0.767433438847 -0.356408835487 -0.361142785887 -0.078190437886
3.985466666000 0.268360384821 -0.233549691689 0.766693817830 -0.343919809209 0.764029734346 -0.358900424746 -0.359756220660 -0.076893750699
3.985888888000 0.269104897950 -0.234124054610 0.767400243930 -0.346650239914 0.766776922652 -0.359333268071 -0.360307641587 -0.078037573389
3.986311111000 0.268279706080 -0.235226529219 0.766237421917 -0.349595915373 0.766410374566 -0.362518950962 -0.360958498765 -0.076182789324
3.986733333000 0.267907550553 -0.234518622629 0.766212895362 -0.349753296989 0.765363416571 -0.361699406500 -0.360046015959 -0.076225089114
3.987155555000 0.266580312278 -0.234163951849 0.765054294638 -0.350761273072 0.761593634543 -0.362936991600 -0.358914719977 -0.074876245239
3.987577777000 0.266482160449 -0.234402766532 0.766259425325 -0.350654063352 0.766107979961 -0.365199270144 -0.359861520152 -0.075339257212
3.988000000000 0.266289021626 -0.234989194554 0.764356820477 -0.353254062094 0.762230859882 -0.367305253117 -0.358170892487 -0.073996896809
3.988422222000 0.265925981063 -0.234094785129 0.765073571112 -0.353976989182 0.761706119051 -0.366124181770 -0.357387678183 -0.074028965998
3.988844444000 0.265264882060 -0.234907234623 0.764303335532 -0.356148663025 0.762578299688 -0.370421359241 -0.358774113497 -0.073001840205
3.989266666000 0.263868770568 -0.234492827924 0.765381743699 -0.357272310246 0.761020293531 -0.370709569687 -0.358030529881 -0.073223039414
3.989688888000 0.264209340716 -0.235064050087 0.762991193738 -0.359739836311 0.760757207185 -0.372569709654 -0.357827820668 -0.071140470988
3.990111111000 0.263260468100 -0.235933913262 0.763902944485 -0.360547488277 0.760934656656 -0.374918212786 -0.357752514369 -0.071845541109
3.990533333000 0.262571880844 -0.236168403987 0.763357804590 -0.362687001521 0.758718854492 -0.375171283544 -0.357077586509 -0.070946845083
3.990955555000 0.262464265332 -0.236684897965 0.761967423177 -0.364462770875 0.761520762949 -0.377820695208 -0.357585511917 -0.070058066984
3.991377777000 0.261586970986 -0.236634037684 0.761261536075 -0.365523923815 0.760796454406 -0.379206236201 -0.357004949640 -0.069484667749
3.991800000000 0.260696201218 -0.235913704168 0.761177524276 -0.367024494650 0.755593543277 -0.380630341953 -0.356919535365 -0.068159495651
3.992222222000 0.260700409894 -0.236844349515 0.761345179441 -0.368312290582 0.758198151198 -0.382712230526 -0.355995821949 -0.068222520139
3.992644444000 0.259919231239 -0.236633332096 0.760798696784 -0.371033322043 0.756549098005 -0.384409317192 -0.356627865840 -0.067172740286
3.993066666000 0.259354372400 -0.236510045849 0.762305380367 -0.370235131744 0.757626373705 -0.384147430749 -0.356168187560 -0.068092657350
3.993488888000 0.259847813238 -0.236644859439 0.761667693011 -0.374499466446 0.756237141041 -0.385803797960 -0.355615661198 -0.066482545322
3.993911111000 0.259465860160 -0.237054975414 0.760878565324 -0.374501903866 0.756612513332 -0.387201100557 -0.355334551165 -0.066634129649
3.994333333000 0.257402569887 -0.238098982875 0.760403980410 -0.378284254650 0.756430495812 -0.391813935451 -0.355607067442 -0.064663886303
3.994755555000 0.257794794470 -0.236753767480 0.760276347304 -0.376583082942 0.753447596157 -0.390485519735 -0.354204619912 -0.064770066304
3.995177777000 0.257232150967 -0.237335013009 0.759522664023 -0.379775119740 0.753897496832 -0.392844673159 -0.354387518366 -0.063886073755
3.995600000000 0.257097225007 -0.237533143034 0.758470184166 -0.380990923551 0.753707740198 -0.393751224201 -0.354447372377 -0.063549826153
3.996022222000 0.256820661280 -0.237648633986 0.759852391757 -0.381027041783 0.754051296826 -0.393066768516 -0.353531063186 -0.064449366886
3.996444444000 0.256309816552 -0.237854842082 0.759080529327 -0.383570531117 0.753899154884 -0.393953827514 -0.353643720137 -0.063836203765
3.996866666000 0.255633122469 -0.238275297722 0.759522247374 -0.383961859533 0.755350780778 -0.394292871638 -0.354086494831 -0.064443147022
3.997288888000 0.254553407572 -0.238699154989 0.757217316279 -0.388244322175 0.751584399824 -0.400035368249 -0.353815342868 -0.061245084965
3.997711111000 0.254690929594 -0.238021763506 0.757620937002 -0.387776122225 0.750677026564 -0.399412470552 -0.352451757076 -0.061448149317
3.998133333000 0.253453446506 -0.238448956453 0.755343053265 -0.389408747604 0.750103703440 -0.402842065853 -0.352311732198 -0.060099970279
3.998555555000 0.254174734054 -0.239471967081 0.758933781318 -0.393286547035 0.753436796958 -0.401577821245 -0.354376485991 -0.061389550981
3.998977777000 0.251947450423 -0.238902685431 0.755235291730 -0.391906640480 0.748751883071 -0.406278910034 -0.352085256458 -0.059023405564
3.999400000000 0.251876784124 -0.239124702137 0.754996369831 -0.395714009595 0.747537909435 -0.406566582580 -0.351632930309 -0.059138341249
3.999822222000 0.251405978110 -0.239394429124 0.755532308813 -0.395121439854 0.749150477212 -0.408338596818 -0.351579079571 -0.058929640814
4.000244444000 0.251019096822 -0.239177680162 0.755157429907 -0.395377914875 0.747395260739 -0.409320828670 -0.350812676684 -0.059191990832
4.000666666000 0.250047177527 -0.239401354883 0.756422850343 -0.397885869740 0.747342967079 -0.412556373325 -0.351548025857 -0.057501900686
4.001088888000 0.249806382311 -0.239085737137 0.753967591643 -0.400920816817 0.747129516931 -0.412955506529 -0.351269169822 -0.056545691196
4.001511111000 0.248152353992 -0.240416373303 0.752016033619 -0.403034609997 0.744743060925 -0.413408617439 -0.350051283467 -0.056115691347
4.001933333000 0.248176996033 -0.239745164487 0.749996834929 -0.403728987382 0.745725553630 -0.412848265863 -0.349757287635 -0.056094863459
4.002355555000 0.248646768307 -0.239960162459 0.752319124215 -0.405790045223 0.746084771766 -0.415665943527 -0.350341825096 -0.055347764699
4.002777777000 0.247260724066 -0.240583831926 0.752783159305 -0.405594391011 0.746110067743 -0.417927849776 -0.349812368635 -0.055287023154
4.003200000000 0.246818666402 -0.239865911168 0.751816427433 -0.409313636181 0.741199433100 -0.419318530490 -0.348829286720 -0.053745231394
4.003622222000 0.246589507856 -0.240489748877 0.752124758520 -0.410640261708 0.743863514713 -0.422007175834 -0.350049888874 -0.053218094844
4.004044444000 0.246765523753 -0.241366676064 0.749422832270 -0.414535042325 0.741444290074 -0.421239477504 -0.348505663415 -0.051976288614
4.004466666000 0.245863609142 -0.240361812627 0.749312828030 -0.411303727312 0.741347927539 -0.421077001175 -0.346773004803 -0.053179772338
4.004888888000 0.244730437412 -0.240142378578 0.750348635199 -0.414525845995 0.740939895705 -0.424571288253 -0.348425936927 -0.052111636271
4.005311111000 0.244026624756 -0.241240098428 0.748203248891 -0.416190224816 0.740381925682 -0.423195408802 -0.347455026959 -0.051842823235
4.005733333000 0.243195644816 -0.241379084822 0.747840265328 -0.417674970428 0.740080054924 -0.427348196728 -0.346987196079 -0.050955416174
4.006155555000 0.243071822085 -0.241384989557 0.745765555866 -0.421176097380 0.737554841350 -0.427515310193 -0.346778408856 -0.049757193965
4.006577777000 0.242518927813 -0.241735035470 0.746603965148 -0.421944792335 0.736368014798 -0.432257844817 -0.346338015107 -0.048463054520
4.007000000000 0.244320976052 -0.242737538286 0.747852837790 -0.418206054546 0.740970327652 -0.433108971120 -0.347619261399 -0.049901808871
4.007422222000 0.241553511530 -0.242454737977 0.746354601098 -0.424252710695 0.737706910556 -0.433459298487 -0.346674766417 -0.048738619292
4.007844444000 0.241190079400 -0.242677743254 0.745701312670 -0.427013090485 0.735509632301 -0.436924631109 -0.346021440301 -0.047561719590
4.008266666000 0.239533955930 -0.241942655630 0.745277118640 -0.425184566001 0.735942004890 -0.435896409400 -0.345177878260 -0.047584960331
4.008688888000 0.239820481663 -0.242309234276 0.743745994009 -0.428743243101 0.736496882499 -0.437702073389 -0.345689816472 -0.046496719099
4.009111111000 0.239862198580 -0.242558381066 0.745270950421 -0.429924254594 0.733467960577 -0.440206770291 -0.345379915786 -0.046231535087
