# GHZ S RI R 50.000000000000
3.950000000000 0.061261561029 -0.531714043124 0.800317307559 -0.017133683470 0.789325306893 -0.036000970424 -0.089508012558 -0.526791007104
3.950422222000 0.059656740396 -0.532052996607 0.799822662693 -0.019571862030 0.788339122391 -0.037452265252 -0.094720793306 -0.525021675408
3.950844444000 0.057949418830 -0.530712737453 0.799519636207 -0.020124483611 0.787940373190 -0.038051957378 -0.097488048849 -0.524577358838
3.951266666000 0.057385533506 -0.531709630247 0.799897469521 -0.020922309219 0.787396858058 -0.038795936213 -0.099294277049 -0.524874714213
3.951688888000 0.055879365870 -0.530983595485 0.799025950499 -0.021693146478 0.787446629504 -0.039499689073 -0.100790787239 -0.523750511377
3.952111111000 0.054141275608 -0.529589863677 0.798078830964 -0.021593144459 0.788190596972 -0.040764880658 -0.099885033306 -0.524330101116
3.952533333000 0.054657250342 -0.530039557915 0.799101174530 -0.022617077049 0.787127087410 -0.041662156769 -0.102494645679 -0.522586049788
3.952955555000 0.054410155719 -0.530822686758 0.798675270301 -0.024289929704 0.787249994764 -0.042456438782 -0.103916458099 -0.521915364379
3.953377777000 0.052644413231 -0.530155053576 0.798989209390 -0.026767221883 0.786890758899 -0.043631301967 -0.105421404512 -0.522199215408
3.953800000000 0.052381244133 -0.530336487124 0.797198091415 -0.026281152371 0.787720785213 -0.043051100756 -0.102824700593 -0.520305941084
3.954222222000 0.052631939420 -0.530102153831 0.798847175184 -0.027864038256 0.788263517386 -0.045959443115 -0.106276531893 -0.522444961217
3.954644444000 0.051265002278 -0.530644262909 0.799815775707 -0.029132927343 0.788380926205 -0.047418846868 -0.106569407920 -0.522570702435
3.955066666000 0.051568593173 -0.530092275411 0.799800292254 -0.029303754270 0.787805050422 -0.047764233838 -0.106529591804 -0.521299948192
3.955488888000 0.050865602525 -0.530782269205 0.799378878522 -0.030845910501 0.788299976616 -0.049203190635 -0.107722842330 -0.521005032650
3.955911111000 0.048938780980 -0.530897265901 0.799403860159 -0.032745289931 0.788209157026 -0.050771319722 -0.108557420806 -0.520046591006
3.956333333000 0.049127029461 -0.530017459443 0.800331954683 -0.033576209139 0.789162905471 -0.051686548492 -0.110003243103 -0.521237449838
3.956755555000 0.048580063647 -0.530454523675 0.800233783477 -0.035671558101 0.788504295801 -0.053096985693 -0.111234902201 -0.520255575451
3.957177777000 0.046784638529 -0.531584050833 0.800453997325 -0.036619547762 0.789040774579 -0.053640546357 -0.109697490523 -0.519929288702
3.957600000000 0.047247321826 -0.530419335569 0.800876480158 -0.038275821306 0.788241711887 -0.054777071413 -0.112402231588 -0.519231114618
3.958022222000 0.046152806668 -0.531171885465 0.800496553060 -0.040338568672 0.789176623303 -0.056399573165 -0.112805545796 -0.520109002129
3.958444444000 0.045950680051 -0.531618000951 0.800852785682 -0.040706898222 0.788551204489 -0.057744491576 -0.114631390576 -0.519169359714
3.958866666000 0.044970423297 -0.531707501647 0.801002332852 -0.043157102136 0.788108828961 -0.058350116841 -0.115564116122 -0.516550505114
3.959288888000 0.044328185934 -0.532250466787 0.802161788150 -0.043514407160 0.789011736104 -0.060026025609 -0.115214170792 -0.518360506256
3.959711111000 0.043033567396 -0.531685057700 0.802163730217 -0.044105802664 0.788760900553 -0.060635088976 -0.115096122079 -0.517271085936
3.960133333000 0.043376335499 -0.532316127218 0.801755205672 -0.046248312803 0.789599548749 -0.062509503113 -0.117554989085 -0.517930015165
3.960555555000 0.043791840201 -0.531768759178 0.802031249708 -0.047182843225 0.790043061346 -0.062901249197 -0.118039823254 -0.518414767647
3.960977777000 0.042229514585 -0.532378885050 0.801935287064 -0.048875222245 0.789461471592 -0.065021337622 -0.120033379990 -0.517213752607
3.961400000000 0.042317835785 -0.531295392476 0.802087936604 -0.050965264307 0.788839495493 -0.063671142972 -0.119601400046 -0.515266871899
3.961822222000 0.040499333835 -0.532173645735 0.802324479333 -0.051621634318 0.789583991982 -0.067298319163 -0.120511931315 -0.516982780545
3.962244444000 0.040799685711 -0.533125370016 0.802937176171 -0.052365553158 0.790593820999 -0.067630336518 -0.120978256062 -0.516567581547
3.962666666000 0.039656966547 -0.532600376863 0.802721013075 -0.054462222974 0.789818776594 -0.069516639255 -0.122827329653 -0.516111404286
3.963088888000 0.039270337327 -0.533101261544 0.803055369682 -0.055618903486 0.790555061995 -0.069901702055 -0.122246749121 -0.515722414155
3.963511111000 0.037762750634 -0.533292394264 0.803016357086 -0.057412228671 0.790898921538 -0.070609127102 -0.122444109802 -0.515281251862
3.963933333000 0.037564060555 -0.533788339860 0.803297389605 -0.058371874407 0.791637816532 -0.073279475710 -0.124306282131 -0.516355254346
3.964355555000 0.036630504984 -0.533625815706 0.803349806228 -0.059527062144 0.790670180538 -0.073898993375 -0.125044780534 -0.515472256292
3.964777777000 0.036244733897 -0.534210881308 0.803831919539 -0.060492240829 0.791576063332 -0.075560309162 -0.125943591403 -0.515762898449
3.965200000000 0.035270900910 -0.534420159851 0.803881551270 -0.062737479441 0.792522766694 -0.076251782345 -0.126520774635 -0.515643544798
3.965622222000 0.034601248033 -0.534413154340 0.804014248800 -0.063249505234 0.790902985767 -0.076696650115 -0.127183154834 -0.513330519932
3.966044444000 0.033968669328 -0.534859238222 0.804273743227 -0.065023958426 0.791198324846 -0.077950432974 -0.128019932362 -0.513229007534
3.966466666000 0.033629698161 -0.533989091745 0.804006383646 -0.066767301562 0.790381035737 -0.078772076404 -0.128370498597 -0.512377150218
3.966888888000 0.032806614693 -0.533977576752 0.803826621080 -0.067679740045 0.791563984895 -0.080929680121 -0.130429986648 -0.513184244903
3.967311111000 0.032378723850 -0.535210529954 0.804654200362 -0.069253204752 0.791941232562 -0.081942791251 -0.131012569492 -0.512404379311
3.967733333000 0.031698868287 -0.534429316539 0.804477659212 -0.070791335894 0.792202512557 -0.082747342408 -0.131582589726 -0.512443444488
3.968155555000 0.030450187379 -0.535516506356 0.804132152493 -0.071723081337 0.791966737639 -0.084318926487 -0.132194433907 -0.512364110088
3.968577777000 0.029743110701 -0.534965183749 0.804278400119 -0.073217526739 0.792125167896 -0.084587810040 -0.132254815726 -0.511766216554
3.969000000000 0.030316352326 -0.537152397206 0.803234374972 -0.074357802168 0.795855101452 -0.087575704610 -0.134067737881 -0.515410236371
3.969422222000 0.028272979741 -0.535661076109 0.804708476131 -0.076067631443 0.793734564542 -0.087407342242 -0.134100931906 -0.512205186701
3.969844444000 0.027270380439 -0.535281673476 0.804975006736 -0.077124765891 0.791452981005 -0.087317883241 -0.133745322966 -0.509672132848
3.970266666000 0.026937752824 -0.535939980610 0.804630133575 -0.078400520301 0.792821001036 -0.090014577564 -0.136010093247 -0.510962548960
3.970688888000 0.026131386669 -0.536139157057 0.805350050146 -0.080008235073 0.793082339705 -0.091758966336 -0.137041891320 -0.510584714077
3.971111111000 0.025831437812 -0.536730046003 0.804465759513 -0.081115145814 0.793630069226 -0.091873586518 -0.137373784284 -0.509943344364
3.971533333000 0.025843003894 -0.535748374141 0.805270035147 -0.082751796268 0.794034732004 -0.091400779548 -0.136799930601 -0.510256917259
3.971955555000 0.024381606009 -0.536245509184 0.805327648316 -0.084036351585 0.793034211423 -0.094452903471 -0.139009572481 -0.509749123203
3.972377777000 0.023156428492 -0.537075458513 0.805033428669 -0.085538411821 0.793912154483 -0.095897379101 -0.139656351822 -0.509201162675
3.972800000000 0.022917269436 -0.536851378891 0.805232433784 -0.086454324771 0.792556898063 -0.096517520129 -0.140585644440 -0.507742761453
3.973222222000 0.022867198029 -0.537384419215 0.805312896350 -0.087790248307 0.794165100701 -0.097662364117 -0.141183357030 -0.508248443647
3.973644444000 0.020800977946 -0.538099850016 0.805717560715 -0.089200591043 0.794281819131 -0.098989534188 -0.141485280929 -0.507499406898
3.974066666000 0.020380845556 -0.537800572579 0.805138033454 -0.091432505260 0.794698136034 -0.100167006107 -0.142606650925 -0.507999883178
3.974488888000 0.019596067851 -0.537771494443 0.806024675912 -0.092444868144 0.793707943180 -0.100598752694 -0.142719680430 -0.506542434171
3.974911111000 0.019013943230 -0.537638218971 0.805467010104 -0.093891445674 0.794242633468 -0.102335827282 -0.144475553624 -0.506534488281
3.975333333000 0.017541375281 -0.537596325763 0.805638897598 -0.094987055313 0.793873792347 -0.103776259608 -0.144904833944 -0.506681237101
3.975755555000 0.017035003288 -0.538900228313 0.806045265121 -0.096325876781 0.795322623762 -0.104553430372 -0.145039505754 -0.506420030896
3.976177777000 0.016020498726 -0.537540658039 0.805501451145 -0.097689189098 0.793671924047 -0.106025065811 -0.146713485300 -0.505224763849
3.976600000000 0.015127674472 -0.540187268054 0.805090407332 -0.100111843645 0.797061185557 -0.108400081151 -0.148337130622 -0.506508406127
3.977022222000 0.015333238261 -0.539406446909 0.806238332853 -0.099925090803 0.795123253921 -0.107170742816 -0.146935453981 -0.504403919830
3.977444444000 0.013432494084 -0.539182209802 0.805536340331 -0.101565843483 0.794445930077 -0.110642794462 -0.149351013075 -0.503605149318
3.977866666000 0.013259090877 -0.539838861703 0.805792673260 -0.103319864497 0.795310534552 -0.111223105750 -0.149581458748 -0.503818382411
3.978288888000 0.012893786273 -0.537858959185 0.805660757590 -0.104339275786 0.794534623977 -0.111689391788 -0.150581603579 -0.503983277052
3.978711111000 0.012299853848 -0.539991779621 0.806220864451 -0.106496618382 0.796521302092 -0.113126676958 -0.151456082188 -0.504287819796
3.979133333000 0.011930543974 -0.540794539133 0.806740848711 -0.107095488909 0.796670189400 -0.113350706062 -0.151398122866 -0.502888719798
3.979555555000 0.009747678022 -0.540585712780 0.806406708136 -0.108801958541 0.796891859286 -0.116600888328 -0.153009923346 -0.503153927724
3.979977777000 0.009989608853 -0.541318041790 0.806933262661 -0.110011311036 0.796815252941 -0.116769668716 -0.153482266437 -0.501789389621
3.980400000000 0.008993011139 -0.540494882552 0.806290282095 -0.111720640022 0.796191750183 -0.117724790716 -0.154420121552 -0.502001339798
3.980822222000 0.007951084569 -0.540339231889 0.807047807256 -0.112026474989 0.795007627257 -0.118677184809 -0.153874200801 -0.500641046842
3.981244444000 0.006394061305 -0.540086647582 0.806897292212 -0.113955038365 0.795643521145 -0.120619176723 -0.155472193061 -0.500918862177
3.981666666000 0.007259349850 -0.543044653904 0.807578827891 -0.116527271963 0.799987833203 -0.121424441476 -0.157111174609 -0.501962359067
3.982088888000 0.005572443887 -0.540893006026 0.805658822831 -0.117147075071 0.797359200837 -0.122638885528 -0.157150343475 -0.500356437735
3.982511111000 0.004797892920 -0.540781320750 0.806579519929 -0.118459748045 0.795970531295 -0.123774879882 -0.157624096877 -0.498927890936
3.982933333000 0.003615140834 -0.541569430891 0.806359701399 -0.119426532640 0.796836248273 -0.123925106263 -0.157081997690 -0.499147327821
3.983355555000 0.002147889757 -0.540681700956 0.805713984886 -0.121127045879 0.796170925656 -0.126104409319 -0.158435107361 -0.498596288380
3.983777777000 0.002273655024 -0.541760558870 0.806696211494 -0.122156253106 0.797692408840 -0.126378153316 -0.158873635050 -0.498671235378
3.984200000000 0.001209450542 -0.540579690726 0.807780554440 -0.123931902455 0.797288022184 -0.126705410053 -0.158930535579 -0.500352288272
3.984622222000 -0.000550362596 -0.541814227126 0.806491002682 -0.125063457722 0.798158860795 -0.130286895299 -0.160363570581 -0.498774121349
3.985044444000 -0.001572562154 -0.541730366005 0.807492015992 -0.126645515811 0.796845423237 -0.131510092071 -0.161593060697 -0.497363151817
3.985466666000 -0.001503480812 -0.541013950673 0.806840725639 -0.126850479127 0.796780652145 -0.132251641682 -0.161809882938 -0.497450947089
3.985888888000 -0.002155388192 -0.541664875036 0.806178383702 -0.128598814597 0.798143444243 -0.134195043233 -0.163627707473 -0.496989143307
3.986311111000 -0.003498562690 -0.542908327383 0.806907874266 -0.130558359603 0.799497816675 -0.135616602482 -0.164684131369 -0.496846350223
3.986733333000 -0.006113963901 -0.542439256465 0.806013472238 -0.132185492560 0.797519333817 -0.138421667972 -0.165174443679 -0.494850619482
3.987155555000 -0.004977891231 -0.544581649838 0.807194421690 -0.133284209026 0.799747291967 -0.136973560256 -0.165096540863 -0.495410004391
3.987577777000 -0.007015762741 -0.543673620360 0.807122934472 -0.135328719955 0.797706656827 -0.139530763645 -0.166909161673 -0.494497860657
3.988000000000 -0.007211706405 -0.543173407952 0.807034554732 -0.136221316344 0.798095020383 -0.140834829213 -0.167487247281 -0.494585523042
3.988422222000 -0.007334803005 -0.543301941872 0.806968494648 -0.136872449537 0.798581394221 -0.140260278012 -0.167175731286 -0.494216775107
3.988844444000 -0.008728015772 -0.544447604516 0.806966953620 -0.138918892424 0.799448825024 -0.141729371435 -0.167709656322 -0.493398691221
3.989266666000 -0.009607202305 -0.544972821073 0.807050819436 -0.140802791903 0.799968271170 -0.143279428922 -0.169629830554 -0.493401437533
3.989688888000 -0.010418588805 -0.543312540849 0.807285495361 -0.140757306132 0.797674989219 -0.145565586121 -0.169747451031 -0.492370442091
3.990111111000 -0.010708606360 -0.543550797661 0.805941693282 -0.143398244932 0.800666168265 -0.145764718747 -0.171363543795 -0.494154756104
3.990533333000 -0.012289067180 -0.544099651027 0.807065364583 -0.144297668209 0.800352113444 -0.146994715788 -0.170713534151 -0.492877397698
3.990955555000 -0.013980177986 -0.543031274962 0.806606469166 -0.146077178428 0.798524924025 -0.148782136211 -0.171295519068 -0.491497746830
3.991377777000 -0.014997722657 -0.545008849327 0.806920978901 -0.147636587321 0.800527090901 -0.151430843223 -0.173448394924 -0.491135800545
3.991800000000 -0.014106270833 -0.545545831612 0.806068405075 -0.149419689610 0.801989229789 -0.151809266979 -0.175426718437 -0.491696373533
3.992222222000 -0.016850442730 -0.543762284055 0.806365723819 -0.150152996105 0.798707944542 -0.151780033331 -0.173029880526 -0.489793348287
3.992644444000 -0.018320835119 -0.544194254684 0.806256289242 -0.151258986737 0.799341834184 -0.155348675174 -0.174643308804 -0.488992203733
3.993066666000 -0.019443185207 -0.544331373394 0.806806543963 -0.151939036185 0.800055833270 -0.155291426473 -0.174084509989 -0.489269597239
3.993488888000 -0.019627279304 -0.544081252782 0.806379372241 -0.153320038427 0.799338510091 -0.156613041471 -0.175054344819 -0.488687269007
3.993911111000 -0.021103210822 -0.544913704020 0.807237005020 -0.154986355155 0.799707372007 -0.158324314678 -0.175870408915 -0.487882064500
3.994333333000 -0.023395402419 -0.544477723635 0.804711201022 -0.157202004962 0.799809328396 -0.161511861825 -0.178348892556 -0.487119036559
3.994755555000 -0.023215171688 -0.545680428074 0.807481505983 -0.158779446089 0.800330036022 -0.160667985677 -0.177034328836 -0.487461519352
3.995177777000 -0.024874371884 -0.545841713534 0.806204757812 -0.161235039132 0.801135985931 -0.163142711486 -0.179030922938 -0.485951194698
3.995600000000 -0.025516071568 -0.545360684083 0.806506407560 -0.162025015069 0.800357611527 -0.163918046713 -0.178548985347 -0.485806796072
3.996022222000 -0.025393092888 -0.546755950357 0.806963540789 -0.163118452005 0.802751370921 -0.163846267770 -0.179476759717 -0.485944409987
3.996444444000 -0.027310541417 -0.544864746133 0.806812718959 -0.164032060486 0.799363556266 -0.164927233823 -0.178856739959 -0.484569323468
3.996866666000 -0.027589647300 -0.544559469986 0.807226434159 -0.165400372891 0.798722309031 -0.167081175471 -0.180395628183 -0.484149376665
3.997288888000 -0.030704394518 -0.545527298610 0.805751556484 -0.168321370212 0.800903321305 -0.171654019802 -0.182748035147 -0.483234107494
3.997711111000 -0.029505632212 -0.545756006427 0.806669588441 -0.168067737521 0.800105891074 -0.169822193064 -0.182570289505 -0.482920352377
3.998133333000 -0.031435068996 -0.544880994044 0.806348220638 -0.171301997974 0.800421327621 -0.171771512752 -0.183564501200 -0.482616925806
3.998555555000 -0.032875270749 -0.545518862610 0.806181026048 -0.170796129393 0.800542108137 -0.173080189106 -0.182940705330 -0.482124372703
3.998977777000 -0.033622636924 -0.544694528353 0.804718307198 -0.172684908174 0.800668207171 -0.175050958644 -0.184327613869 -0.481734360889
3.999400000000 -0.034699586308 -0.546006814559 0.805337480711 -0.176471047740 0.800414857311 -0.177229121816 -0.186814951270 -0.479952624680
3.999822222000 -0.036211787802 -0.546503127025 0.806990100929 -0.175807648891 0.802268882615 -0.179439729630 -0.186888406551 -0.481253057831
4.000244444000 -0.036024171284 -0.546008633269 0.807668732832 -0.178889090960 0.802187704273 -0.178057583981 -0.188273357531 -0.481898450566
4.000666666000 -0.038588403113 -0.545838146356 0.806255932767 -0.177798183476 0.802233494066 -0.182330704387 -0.187685915236 -0.480596365843
4.001088888000 -0.039472400380 -0.544345324489 0.804674827011 -0.182070293050 0.799077009790 -0.182158594647 -0.188391531942 -0.477603947632
4.001511111000 -0.040945001945 -0.544450507795 0.805504986155 -0.182887639833 0.800135814254 -0.184295271047 -0.188813728849 -0.478365557286
4.001933333000 -0.042433657054 -0.545347790965 0.806989790687 -0.183023382222 0.801053500099 -0.187226407274 -0.190318327536 -0.478296460132
4.002355555000 -0.043237599073 -0.545568000121 0.805613425087 -0.185235021681 0.801307657212 -0.187850297663 -0.190554459991 -0.477790092213
4.002777777000 -0.043899774927 -0.544165033377 0.804032968267 -0.187225072185 0.799314124535 -0.186847761118 -0.189430649886 -0.475765250143
4.003200000000 -0.045441280595 -0.544385603000 0.804375171881 -0.187494637688 0.800261268389 -0.190310868786 -0.191541932450 -0.475791302423
4.003622222000 -0.046984695608 -0.545500606849 0.806063438090 -0.190947188456 0.800912113075 -0.192472544464 -0.193634695483 -0.475322438806
4.004044444000 -0.047637651904 -0.544312562629 0.805169156489 -0.191646588086 0.799923507308 -0.191504731502 -0.192511001420 -0.475397191137
4.004466666000 -0.047581795276 -0.542687813942 0.801405372192 -0.193409946601 0.799456426378 -0.191936260158 -0.192451426630 -0.473174542473
4.004888888000 -0.050366791038 -0.544274801237 0.804000027635 -0.194102037340 0.800407838462 -0.196323866655 -0.194137063184 -0.473198743167
4.005311111000 -0.051557516879 -0.544674218664 0.804142643160 -0.196497103251 0.800217041836 -0.197165120488 -0.194910146926 -0.472588337952
4.005733333000 -0.051383798960 -0.546087463332 0.804735614503 -0.196242814554 0.803928444982 -0.197732094405 -0.196083085389 -0.474268360754
4.006155555000 -0.052289707637 -0.544755825607 0.804247657874 -0.198762247791 0.801275053461 -0.199558825288 -0.195969041332 -0.471835230923
4.006577777000 -0.054987263789 -0.542819267308 0.803059390814 -0.201323488335 0.800213900073 -0.201643544266 -0.196287681489 -0.471253107081
4.007000000000 -0.051614560371 -0.544767880017 0.800531750901 -0.195934285299 0.805108601217 -0.199598888066 -0.195553102451 -0.473653737073
4.007422222000 -0.058288886710 -0.542586188438 0.803097748162 -0.204833380322 0.800054233495 -0.206329077015 -0.198949074681 -0.470049835563
4.007844444000 -0.058466183405 -0.544196554424 0.803507596987 -0.203434101578 0.801086090115 -0.206229413217 -0.198496688562 -0.470238817489
4.008266666000 -0.061727966019 -0.543495423572 0.801639860914 -0.210478569406 0.802400023865 -0.209522648114 -0.202436880196 -0.467860019565
4.008688888000 -0.061486449128 -0.542705630337 0.801858634729 -0.211715806558 0.799849030846 -0.210724116297 -0.203415109402 -0.466615872586
4.009111111000 -0.063724325341 -0.543000709760 0.804411491621 -0.212547718967 0.801220253907 -0.213558658182 -0.204195362526 -0.468074532649
4.009533333000 -0.062402169877 -0.540331430672 0.800767201399 -0.212679543646 0.798367872017 -0.211857958439 -0.202715029652 -0.466113405054
