# GHZ S RI R 50.000000000000
3.950000000000 -0.039046484244 0.011467144517 0.353140565437 0.937771921545 0.366187028078 0.926088304232 -0.042039517816 0.014457607791
3.950422222000 -0.038761859537 0.011968812841 0.356219704876 0.935309883817 0.369222134412 0.923566765668 -0.041180906314 0.014785467184
3.950844444000 -0.039434876212 0.012906114761 0.357643905800 0.934371675561 0.371107237443 0.924066974757 -0.040397138778 0.015760064825
3.951266666000 -0.038331767582 0.013069190055 0.359376636352 0.934860650718 0.371583981329 0.922734463422 -0.040404183544 0.014615268035
3.951688888000 -0.039458069260 0.013504808636 0.358210001725 0.934124221854 0.372088193149 0.923349620443 -0.040531022735 0.014851074828
3.952111111000 -0.040244110134 0.014006900821 0.357881213416 0.935243738743 0.372644137149 0.923199849337 -0.040370524633 0.015535219293
3.952533333000 -0.040132457139 0.013351195895 0.359871421264 0.932695459000 0.374791536780 0.921791914786 -0.040532130125 0.015089729784
3.952955555000 -0.039643464322 0.014496117285 0.361716829320 0.932850488876 0.375876680148 0.922185138653 -0.039896802818 0.015159785347
3.953377777000 -0.039515761124 0.014454315979 0.364061510690 0.933352695876 0.377388714328 0.920694790062 -0.039246908380 0.015399451741
3.953800000000 -0.038490429175 0.015524174784 0.363708700392 0.931742277463 0.378434178060 0.922113913847 -0.038695590083 0.015603012108
3.954222222000 -0.040134666912 0.015443384071 0.364953903372 0.932327257910 0.379296845750 0.922060414070 -0.039061119594 0.015537410670
3.954644444000 -0.040345982572 0.016186822247 0.366992796171 0.934331743094 0.380945799578 0.922048460101 -0.039042612123 0.016081554410
3.955066666000 -0.039765080852 0.016406217096 0.367294262363 0.932737181764 0.382565661531 0.921234757599 -0.038598560833 0.016616445162
3.955488888000 -0.039741198290 0.016906846063 0.369354971374 0.932281637895 0.383430335416 0.921915422066 -0.038404229162 0.016256858796
3.955911111000 -0.040088404559 0.016079862792 0.369661654777 0.931435914512 0.384333848135 0.919803152049 -0.039081100029 0.016014152698
3.956333333000 -0.040252276785 0.016259640981 0.369478343886 0.932392719235 0.386581987565 0.919932548368 -0.038107917635 0.016481510212
3.956755555000 -0.040184781774 0.018474207827 0.374439231894 0.931624451765 0.387506248896 0.921518023914 -0.037427588035 0.016942395243
3.957177777000 -0.039386038536 0.017558256074 0.374563766751 0.930945544905 0.389633874895 0.920056432310 -0.037191503690 0.016652788696
3.957600000000 -0.040157701489 0.018454670661 0.376741414159 0.932361616644 0.389748983118 0.919796565122 -0.037103275681 0.016983330081
3.958022222000 -0.039410729753 0.019138912795 0.379039050590 0.930795478662 0.392238716777 0.920533061010 -0.037087673388 0.017908523816
3.958444444000 -0.039541151666 0.019389742099 0.377427970608 0.931898295941 0.394259148482 0.918888226000 -0.035825793340 0.016762870830
3.958866666000 -0.040040538036 0.019583430931 0.379172141696 0.930387004488 0.395646123065 0.920450803863 -0.036543668984 0.017104000574
3.959288888000 -0.040459388698 0.019742107971 0.378132499777 0.932637108560 0.396197036538 0.918182813755 -0.035951302685 0.016984440740
3.959711111000 -0.039702242899 0.019435996079 0.380135656706 0.932699593661 0.398547362902 0.918148881677 -0.035860971116 0.017088257973
3.960133333000 -0.039563771909 0.020982972143 0.384122574891 0.933280148397 0.399884281551 0.919798794900 -0.035398326593 0.018272919286
3.960555555000 -0.039149899435 0.022085334013 0.384635379274 0.933626353966 0.399724862897 0.920014695125 -0.034900569429 0.017140910740
3.960977777000 -0.039488564993 0.021220975220 0.384719019447 0.930995743020 0.401958900649 0.918967027645 -0.035448952520 0.017345834162
3.961400000000 -0.039118634831 0.021003147904 0.386563954929 0.928964423886 0.401688712958 0.915037870420 -0.032952372123 0.016186323805
3.961822222000 -0.038729034485 0.022203844939 0.391533536235 0.930191339685 0.405034577967 0.917650967135 -0.033673616151 0.017591842634
3.962244444000 -0.039092979348 0.021593077768 0.390331112907 0.930111549498 0.404572896712 0.917345959902 -0.033872436011 0.016730403314
3.962666666000 -0.039089751093 0.022835726782 0.391895112001 0.930749796366 0.407747003754 0.917465377469 -0.034234597459 0.018122291710
3.963088888000 -0.038535806803 0.023230762740 0.394908525673 0.929701467205 0.408481884585 0.917803434743 -0.033310489022 0.017443930572
3.963511111000 -0.038445106101 0.023265981950 0.394567823242 0.927955292078 0.410709834180 0.918942448209 -0.034079692728 0.018119123665
3.963933333000 -0.039334443520 0.024087620560 0.396544150746 0.931268737533 0.411056560057 0.918497751887 -0.033734129751 0.018487140213
3.964355555000 -0.038035427682 0.023914011639 0.398788063185 0.928740740041 0.413059774175 0.916439580756 -0.032294650394 0.017478334931
3.964777777000 -0.037754346278 0.023826557984 0.399450171994 0.930983549892 0.414840697347 0.916415265488 -0.033703593415 0.017453253394
3.965200000000 -0.037824763058 0.023978997005 0.402347275435 0.926821127089 0.415701643908 0.916887234123 -0.032512832162 0.017301065159
3.965622222000 -0.037302647315 0.024569680158 0.402964915339 0.927562521402 0.418147108800 0.916258810772 -0.031607978813 0.017569944554
3.966044444000 -0.037065495646 0.025235643482 0.405518703302 0.928727854261 0.419560473321 0.917612095953 -0.032689555607 0.017761175582
3.966466666000 -0.038013944364 0.025887707644 0.406835807173 0.928664344554 0.418033606885 0.914118672309 -0.031194870063 0.017687934027
3.966888888000 -0.036574020798 0.025475823839 0.410141460173 0.926416814958 0.422279173408 0.915241620235 -0.030254632980 0.017726420117
3.967311111000 -0.036560675255 0.025587838394 0.411691125018 0.925590241410 0.424102679918 0.915384998878 -0.031164588224 0.016981064606
3.967733333000 -0.035998613717 0.026255008800 0.413212244243 0.926547867838 0.425357650675 0.914230479944 -0.030252350592 0.017633015649
3.968155555000 -0.034989851398 0.026856371900 0.415369297084 0.924407769282 0.427586063130 0.913899013547 -0.028679859776 0.017618656767
3.968577777000 -0.035454419650 0.027229038462 0.415144589415 0.924586913759 0.428519912062 0.914712621369 -0.029177891029 0.018150901408
3.969000000000 -0.034704995192 0.028142775570 0.416692082389 0.927132121506 0.428460251050 0.915732461058 -0.028882336321 0.017875347721
3.969422222000 -0.035279955657 0.027415681728 0.419545663637 0.924851942110 0.432076072718 0.914357221811 -0.029062171844 0.017879261872
3.969844444000 -0.034915072741 0.027235780531 0.420008039114 0.922512471217 0.432985481168 0.912456217919 -0.028852992006 0.017400297007
3.970266666000 -0.033981494387 0.028182424956 0.422951614270 0.923622070583 0.434751753622 0.913569862343 -0.027790394652 0.017422516861
3.970688888000 -0.033841365552 0.027569155055 0.426049786575 0.922570411423 0.436414729935 0.912293022374 -0.028571301648 0.016557326457
3.971111111000 -0.033123239063 0.029031591341 0.426535645871 0.922655601563 0.437839475172 0.913547883048 -0.027319227408 0.017636292430
3.971533333000 -0.032371514025 0.029266556138 0.429834295861 0.922352609223 0.439509615297 0.912925600153 -0.027191287577 0.017480430443
3.971955555000 -0.032660419464 0.029144829594 0.431207271520 0.921890542480 0.440520936756 0.911610883912 -0.026964062315 0.016750277118
3.972377777000 -0.032809336346 0.028715670788 0.430996305724 0.920630569671 0.442833191554 0.911532366184 -0.028341419683 0.017224101354
3.972800000000 -0.031979320013 0.029651562837 0.433738607041 0.920840556312 0.444067781997 0.910555410369 -0.026392040164 0.017125063288
3.973222222000 -0.030994682079 0.028743692259 0.435575176475 0.918416569699 0.445870676857 0.909559481923 -0.025778818881 0.015141412136
3.973644444000 -0.030972073477 0.029210625021 0.437855542873 0.918795918622 0.448389290166 0.910754264912 -0.026554891516 0.016055690183
3.974066666000 -0.031618287766 0.030172739891 0.438781224151 0.919310230105 0.447822005265 0.910208712429 -0.026433448539 0.016611114197
3.974488888000 -0.031222802553 0.029577669968 0.441023940573 0.918094195757 0.449839579572 0.908662669975 -0.026428794675 0.016069478608
3.974911111000 -0.030237279811 0.029807448311 0.442692092761 0.917218386851 0.452718337120 0.908590238400 -0.025329858652 0.016059360734
3.975333333000 -0.029813588709 0.030404184759 0.445149915781 0.916997114360 0.453669571338 0.908304924129 -0.025486797638 0.016630876649
3.975755555000 -0.029141370562 0.030032797641 0.446476018607 0.916315093735 0.455437845122 0.908646079869 -0.025813687383 0.015431885647
3.976177777000 -0.029010088157 0.030450641190 0.447636532717 0.915134511961 0.457454596532 0.907470227081 -0.024407508100 0.016285916186
3.976600000000 -0.029286403881 0.031136401832 0.449782889793 0.917181834068 0.459212923345 0.908840024872 -0.024177418192 0.017955020011
3.977022222000 -0.027666479681 0.030478680930 0.451942292903 0.913646128152 0.460621459717 0.906905966587 -0.023727044910 0.015180970707
3.977444444000 -0.027784184897 0.030651168940 0.453422201301 0.913317210097 0.463485565059 0.905674481123 -0.023707149100 0.015268791473
3.977866666000 -0.027216637142 0.030792158406 0.455062941743 0.912689877894 0.464264606889 0.905643833950 -0.023937471700 0.015755998944
3.978288888000 -0.027369899639 0.031115938633 0.456038728378 0.911803394011 0.464497089620 0.905040333346 -0.023279199548 0.014952288684
3.978711111000 -0.026884566024 0.030930118241 0.458104208395 0.911854424402 0.467127880407 0.904311692414 -0.023998497859 0.014354133810
3.979133333000 -0.025284033205 0.031088910256 0.461726186504 0.911635428856 0.468662049799 0.904660608382 -0.022819540036 0.013227665230
3.979555555000 -0.025301752869 0.030367456367 0.462534996702 0.909774094726 0.471653416352 0.903096909986 -0.023922637739 0.013890970767
3.979977777000 -0.025136044312 0.030892173443 0.463980825760 0.909408249716 0.472429233761 0.903287800420 -0.022990023212 0.013208463945
3.980400000000 -0.024938383623 0.030505838952 0.465433884531 0.907779690023 0.473379898440 0.902232146599 -0.023274136821 0.013369019762
3.980822222000 -0.025039652093 0.030631440225 0.465987491183 0.907425521987 0.474764054063 0.900852297319 -0.022717153973 0.013370020593
3.981244444000 -0.024514796920 0.030371329873 0.468939545592 0.905459392214 0.478011617294 0.899983479759 -0.022966840639 0.013804954641
3.981666666000 -0.024191903334 0.030402932441 0.470737394281 0.906525396764 0.479519630993 0.900974430286 -0.023000761622 0.012697093500
3.982088888000 -0.023364812087 0.031328641303 0.472587205647 0.905126669091 0.480858750406 0.899421583467 -0.021492220667 0.013533886627
3.982511111000 -0.023073050815 0.031161350027 0.474023072799 0.904465072924 0.482355494756 0.898225705306 -0.021736748423 0.012632915669
3.982933333000 -0.022441091010 0.030953677528 0.474894927538 0.902496993101 0.483208552656 0.898567756184 -0.021810041096 0.012371140094
3.983355555000 -0.022686391268 0.031068875820 0.477124695607 0.901861894528 0.484829418346 0.897400549892 -0.022064270365 0.012800395913
3.983777777000 -0.021590676842 0.030374443357 0.478682675715 0.901091802289 0.487031379950 0.897246155384 -0.020750209906 0.011782759830
3.984200000000 -0.022251489590 0.031880444643 0.478657080881 0.904198504202 0.487316483086 0.896951603105 -0.021136308548 0.012663102751
3.984622222000 -0.021243636091 0.030335099162 0.481898387171 0.899260152786 0.490754737210 0.894559884377 -0.021577786265 0.011556343437
3.985044444000 -0.020858701451 0.029686551412 0.483737427126 0.897456843176 0.493055435777 0.893263583773 -0.022137264541 0.011810768456
3.985466666000 -0.020180884532 0.030802805780 0.484925794634 0.897675247660 0.493549826581 0.893315218287 -0.020551312425 0.011555275626
3.985888888000 -0.019763500170 0.030316108076 0.486170397579 0.896229032567 0.495321742340 0.893009283596 -0.020121373526 0.011371623232
3.986311111000 -0.019186012556 0.029204764487 0.488781317095 0.894991606377 0.498731344091 0.892376833051 -0.020965875813 0.010489112857
3.986733333000 -0.019301779965 0.030608285640 0.490852182569 0.894153333754 0.500602262607 0.889767670645 -0.020769227593 0.012672719118
3.987155555000 -0.018451793931 0.029769857486 0.492924551647 0.893395733419 0.500796034925 0.892329086137 -0.021634122441 0.010389866953
3.987577777000 -0.018044928384 0.030831521599 0.494608687717 0.893648954186 0.502228535741 0.890998730482 -0.021180586285 0.011707974095
3.988000000000 -0.018096135724 0.029412105566 0.495678351840 0.891538356108 0.503784518768 0.889582374689 -0.021119027180 0.009713465867
3.988422222000 -0.017975281701 0.029910091851 0.496961640101 0.890665687965 0.504213303871 0.888183461016 -0.020699084243 0.010661635669
3.988844444000 -0.017502363232 0.029012521318 0.498595488893 0.889682760997 0.507229239844 0.887822010439 -0.021279498136 0.009881846246
3.989266666000 -0.017059021304 0.029385393827 0.501132138791 0.889872017805 0.508316265942 0.888811686848 -0.021048563298 0.009366045681
3.989688888000 -0.017479814541 0.028666451393 0.501883476706 0.888466561212 0.510507322616 0.885025846114 -0.021055673778 0.008668480324
3.990111111000 -0.015024453557 0.028785467216 0.504990093528 0.886635083833 0.510698984899 0.887499892659 -0.020138903249 0.008675285385
3.990533333000 -0.016245517694 0.028775875490 0.504690509982 0.886788338735 0.512726098598 0.885197707662 -0.019827340567 0.008921240638
3.990955555000 -0.015906512510 0.028335836526 0.506706077436 0.884733889386 0.514568229374 0.882655835084 -0.020378143614 0.008670018128
3.991377777000 -0.015475284258 0.027833680189 0.509316850685 0.883708541564 0.517603874220 0.883196300338 -0.021432020857 0.008014715222
3.991800000000 -0.014509605083 0.029440875174 0.512343642518 0.886458109145 0.518789118064 0.884056461692 -0.020171632136 0.008156004311
3.992222222000 -0.014980420290 0.027841139389 0.512100145231 0.882160978075 0.519408386412 0.880829623754 -0.019978838698 0.008610098308
3.992644444000 -0.014450602673 0.027814724175 0.513065509660 0.880785844421 0.522350638136 0.879471588733 -0.021232831066 0.008259743197
3.993066666000 -0.013886674383 0.027756659543 0.514026777963 0.879351823769 0.523923510740 0.879276635236 -0.020423335262 0.009020635322
3.993488888000 -0.013794637187 0.026866979621 0.516243179109 0.878902753550 0.524595915063 0.878187280246 -0.020127309773 0.007554124477
3.993911111000 -0.013848260914 0.026712606962 0.517825646359 0.877820124774 0.527312036852 0.876405774277 -0.020779357208 0.007313662189
3.994333333000 -0.013143986606 0.026456433199 0.520664450311 0.876603176005 0.529870527124 0.877097090393 -0.020875759712 0.007198975818
3.994755555000 -0.013562121915 0.026489168802 0.521581617037 0.875180975375 0.528959543125 0.874808882929 -0.021335941729 0.006543151579
3.995177777000 -0.013340999833 0.026026162219 0.522416188482 0.873205796074 0.532350591876 0.874285643471 -0.021824557234 0.007415975497
3.995600000000 -0.013086867230 0.026191023885 0.523559788988 0.873342053550 0.532203819764 0.872208743352 -0.021078689710 0.007165576081
3.996022222000 -0.012103304913 0.025807966274 0.525454601430 0.872186117512 0.534474712626 0.874136394493 -0.020795833595 0.006336325274
3.996444444000 -0.012555459703 0.025817561223 0.526797274960 0.871427736960 0.535453313121 0.869154616365 -0.020833223616 0.007130735960
3.996866666000 -0.012923811218 0.025788578112 0.527646095649 0.871376919202 0.536030933738 0.868277409785 -0.020701534585 0.006668887349
3.997288888000 -0.012314204487 0.025001572993 0.529561636379 0.868496534679 0.540419124777 0.868265677157 -0.022064393387 0.006730268889
3.997711111000 -0.011654053749 0.025255851896 0.531414018141 0.868324142288 0.540363143582 0.868031182764 -0.021630507729 0.006674201773
3.998133333000 -0.011660444193 0.024371037910 0.532761917173 0.866796606289 0.542015370080 0.866047924521 -0.021286741188 0.006802215183
3.998555555000 -0.010569921211 0.024152382596 0.534573553726 0.865793463483 0.543879506735 0.865754079914 -0.020972782646 0.006346497738
3.998977777000 -0.011366967166 0.024624360257 0.535252725954 0.865179653838 0.544374957336 0.864725427547 -0.021482360187 0.006703275243
3.999400000000 -0.009978563922 0.024325396059 0.537202066937 0.862487694309 0.548338840733 0.865444397386 -0.022613727935 0.006883531955
3.999822222000 -0.010958499466 0.023539665045 0.538358529347 0.862747924324 0.549605825832 0.863712804868 -0.022413881490 0.005476712270
4.000244444000 -0.010545253431 0.024587817017 0.541907425054 0.863060907600 0.547606703351 0.862849740835 -0.021671505333 0.005828752367
4.000666666000 -0.010068949289 0.023103553299 0.541743733259 0.861125222836 0.552883647630 0.860897456899 -0.021811046713 0.005502350852
4.001088888000 -0.011047466387 0.023267945887 0.543370070539 0.858529060843 0.552106102919 0.858471542744 -0.023006173615 0.006056924235
4.001511111000 -0.011507960228 0.022460930494 0.544268490620 0.858706481748 0.553229614028 0.856632741756 -0.022305557181 0.005124903817
4.001933333000 -0.010730608114 0.022819592186 0.546289289857 0.858266452965 0.556043924704 0.854850615601 -0.022269816513 0.006244551510
4.002355555000 -0.010431716962 0.023289856781 0.546330752507 0.857377826493 0.556588926492 0.856857318287 -0.022938672196 0.005911921174
4.002777777000 -0.009943918524 0.022415650751 0.548738317346 0.855106553617 0.556732077131 0.854510241057 -0.021749122878 0.005767736965
4.003200000000 -0.009751377514 0.021727092180 0.549447475853 0.853953124832 0.560564638910 0.854281416900 -0.022274079669 0.005984706474
4.003622222000 -0.009881055026 0.021613401892 0.552403224770 0.853931878017 0.562427436717 0.852873979239 -0.022682387133 0.005592778513
4.004044444000 -0.010199492617 0.022544875815 0.553785391956 0.851421716804 0.560316072109 0.850957078735 -0.023675805798 0.006005189974
4.004466666000 -0.009590828411 0.021623335277 0.552853006655 0.847969509385 0.560109474126 0.851030792281 -0.022276230267 0.006743614152
4.004888888000 -0.009988975349 0.020301514972 0.554913699091 0.848724726056 0.566350722660 0.849242022155 -0.022953436307 0.005442831022
4.005311111000 -0.010575486252 0.021075256419 0.557140375780 0.847914982746 0.567965611886 0.848233851156 -0.024053967324 0.005226847659
4.005733333000 -0.009477695962 0.020821340365 0.557718441615 0.846462734597 0.567921595865 0.850256281898 -0.023726070174 0.005269600494
4.006155555000 -0.009882610862 0.019974853534 0.557971388113 0.847003399193 0.570088636927 0.846549403295 -0.022983827689 0.005031088074
4.006577777000 -0.009889895629 0.019881159956 0.559369533043 0.844234647760 0.570811877697 0.844414940434 -0.023357602258 0.005830955783
4.007000000000 -0.008869196796 0.020361769240 0.558934755004 0.843314882840 0.571064947479 0.848994176524 -0.022859580659 0.005480282595
4.007422222000 -0.009779622228 0.020225299271 0.563361592324 0.840827894616 0.573774898963 0.842558777576 -0.024538991046 0.005796594068
4.007844444000 -0.009633728208 0.019529200931 0.565015187826 0.840535079647 0.574372961781 0.841207377653 -0.023937919870 0.005586114759
4.008266666000 -0.010356346274 0.019113128385 0.564721008463 0.839693977733 0.578159804649 0.840334435583 -0.024759882243 0.005728935925
4.008688888000 -0.010030920637 0.019570724633 0.567418071440 0.839478662951 0.577425636614 0.838546591208 -0.024654036850 0.006244504444
4.009111111000 -0.009973616829 0.018989552447 0.566559899392 0.840611122774 0.580933776051 0.839751183137 -0.024601756301 0.006032662324
4.009533333000 -0.010151228228 0.018943181332 0.567269350656 0.837798142803 0.579372351916 0.835587690552 -0.023869388042 0.006606771868
4.009955555000 -0.009945301695 0.019447347784 0.569665218557 0.835410427049 0.579028383006 0.836780503150 -0.023950417501 0.006281445851
4.010377777000 -0.010663528889 0.018119448398 0.571925027680 0.835311516493 0.582549676018 0.832835655802 -0.024395922229 0.006234033624
4.010800000000 -0.010697804288 0.018965467136 0.573180329722 0.833725030761 0.581699558771 0.833054707737 -0.025413619808 0.006065083193
