# GHZ S RI R 50.000000000000
3.950000000000 -0.042349346566 0.007753202994 0.343929103690 0.940888668761 0.368281765646 0.924177626642 -0.039926740903 0.010292668755
3.950422222000 -0.042151834932 0.008553329906 0.348451027874 0.938387884680 0.370365652904 0.923153649604 -0.039447145735 0.011081038232
3.950844444000 -0.042161107438 0.009612202533 0.351281937716 0.937155131607 0.372219477342 0.923101896221 -0.038369018955 0.012194224754
3.951266666000 -0.041021531703 0.010234916821 0.355663815647 0.936800699099 0.372772805688 0.924647018334 -0.038659148619 0.011733028928
3.951688888000 -0.041503205135 0.010440882137 0.354113545308 0.935627556634 0.374097661459 0.922416957595 -0.037942192069 0.011674077543
3.952111111000 -0.041896302066 0.010856336726 0.353889516893 0.935414470957 0.375782208235 0.922143584616 -0.037638978384 0.012470646812
3.952533333000 -0.041787609158 0.010662714419 0.355902473675 0.935908115619 0.377579526445 0.921003442742 -0.037817668377 0.012767110728
3.952955555000 -0.041654437243 0.011818149775 0.358904637807 0.936542874318 0.376606788628 0.922461025154 -0.037655721020 0.012753454844
3.953377777000 -0.041672064292 0.011579344387 0.360954188039 0.934910572470 0.377905033016 0.921485452144 -0.037228728799 0.012357365176
3.953800000000 -0.040833289918 0.012586350073 0.359172945018 0.931912983817 0.379289275031 0.923214668639 -0.037068454075 0.012422020293
3.954222222000 -0.041247878189 0.012788940026 0.364249545296 0.935021666319 0.381992991799 0.922056435523 -0.035867720705 0.013063241908
3.954644444000 -0.042209291283 0.013403509077 0.364137343193 0.936912756848 0.381975911879 0.921819442180 -0.036503662357 0.012991722201
3.955066666000 -0.041405148587 0.013206182120 0.365257202313 0.934295333091 0.383915765406 0.920035238077 -0.035543900891 0.013313302428
3.955488888000 -0.041210482966 0.013980949034 0.365988543800 0.934916993364 0.385689622655 0.920265037900 -0.035262560146 0.013327850163
3.955911111000 -0.041389643113 0.013632947660 0.368318163921 0.933390046852 0.387586861520 0.920838792294 -0.036179609336 0.013746786870
3.956333333000 -0.042010846898 0.013823679116 0.367487653475 0.935276334375 0.387954622357 0.921373422252 -0.035698507648 0.013867255797
3.956755555000 -0.041843789565 0.016089395907 0.372697546133 0.935512260926 0.389144050950 0.921968827900 -0.034765465426 0.014328138863
3.957177777000 -0.041415182854 0.015184972773 0.372050925725 0.934888749802 0.390219897370 0.920947786024 -0.034902847515 0.013904918564
3.957600000000 -0.041793823312 0.015474528581 0.373851161567 0.933754767166 0.391441277095 0.919463596815 -0.034459283414 0.013791013608
3.958022222000 -0.041014245399 0.016784172496 0.377683665523 0.933762862074 0.394009784301 0.921739988365 -0.034411511180 0.015275021091
3.958444444000 -0.042232832770 0.016952861419 0.371829765157 0.934388134881 0.394238074290 0.920911122675 -0.034794050189 0.013720556272
3.958866666000 -0.041888760394 0.016204853434 0.375596182919 0.933264931656 0.395674793512 0.917779458311 -0.033314165964 0.013294706854
3.959288888000 -0.041910627967 0.017524157098 0.377066315240 0.935438418164 0.398170976149 0.920236664138 -0.033493170904 0.014505443623
3.959711111000 -0.041574610451 0.017326508552 0.377474033353 0.935916832187 0.399824740169 0.920328269381 -0.033941160384 0.014514927312
3.960133333000 -0.041440739139 0.018159067844 0.382387370859 0.935334030266 0.399595071664 0.920462009947 -0.033076386994 0.014442910471
3.960555555000 -0.040627382267 0.018251590641 0.382234585960 0.933219180835 0.400980407052 0.917935154528 -0.031702449066 0.012981833948
3.960977777000 -0.040735725533 0.018741221018 0.384017961026 0.932615898280 0.404059256417 0.920281921324 -0.032669017596 0.014313224464
3.961400000000 -0.040989078721 0.020400921463 0.386117339002 0.937449213304 0.401270547664 0.919192088485 -0.031141938219 0.014278359680
3.961822222000 -0.041059677429 0.019874218836 0.386355583810 0.934535969233 0.405486154280 0.917743912665 -0.031467814888 0.014632775947
3.962244444000 -0.040730100189 0.019278487529 0.387094222923 0.933466689015 0.406968350148 0.918314916329 -0.031532621682 0.014276960562
3.962666666000 -0.040505241277 0.019909470757 0.391778575196 0.933119072742 0.407397604194 0.916909746937 -0.030976837123 0.013919356853
3.963088888000 -0.040169621646 0.021207269707 0.393170962170 0.933701512928 0.409248700320 0.919302507483 -0.030873805121 0.014224814496
3.963511111000 -0.039348140143 0.021456616891 0.395310059873 0.934028410422 0.412463840062 0.919099501018 -0.030329831298 0.015713787118
3.963933333000 -0.039642788989 0.021578869148 0.397746155240 0.933768666704 0.413873785774 0.918515571553 -0.030051910759 0.015413913767
3.964355555000 -0.039382405044 0.022117161578 0.397391212635 0.933624619284 0.414479974534 0.917987138624 -0.029622580473 0.014940111073
3.964777777000 -0.039715530806 0.020910198396 0.396846245813 0.932344307025 0.414366763665 0.916468910941 -0.031367560223 0.013302178829
3.965200000000 -0.038891204966 0.021822160296 0.401829180247 0.930240607411 0.417927774020 0.917740654079 -0.029540383407 0.014261633231
3.965622222000 -0.038393537319 0.021473378167 0.402007997497 0.928036111199 0.419875236497 0.916161090010 -0.028597105197 0.013677672599
3.966044444000 -0.038510761474 0.022463317300 0.402932782279 0.931566502079 0.421246214187 0.916793106729 -0.029360693492 0.014768384258
3.966466666000 -0.038541616379 0.023087387909 0.406909576137 0.928941657039 0.420520061937 0.915173425538 -0.028333921851 0.014205882386
3.966888888000 -0.038056697526 0.024266542990 0.408766172571 0.932006429476 0.423087689190 0.917920356922 -0.028136910923 0.015073070781
3.967311111000 -0.037526375343 0.023116663433 0.410689180157 0.928314908315 0.425927395351 0.915410686601 -0.028049567692 0.013528927127
3.967733333000 -0.038179968249 0.023815753618 0.407476814531 0.929453544569 0.426763209810 0.915024282323 -0.028580396967 0.014732945472
3.968155555000 -0.037234550339 0.025179148553 0.412213568601 0.930109858415 0.427047021808 0.915452663662 -0.026572642362 0.014510626404
3.968577777000 -0.036821583899 0.025167285686 0.412549555864 0.929552833799 0.429871487266 0.914743123712 -0.025953082056 0.015493560168
3.969000000000 -0.036296501400 0.023416119038 0.411964667475 0.924187844685 0.429702970100 0.912917863834 -0.025640460437 0.013329292172
3.969422222000 -0.036781542485 0.025450362647 0.417609369859 0.928669845785 0.432272412863 0.915598548643 -0.026782656856 0.014228930263
3.969844444000 -0.036250764819 0.025853438408 0.419168620255 0.928536847512 0.433702767011 0.913656913677 -0.025737709685 0.014536260902
3.970266666000 -0.035409312763 0.025827889218 0.420053645193 0.927185752282 0.436077922908 0.913891945814 -0.025012454174 0.014523435200
3.970688888000 -0.035297713255 0.025123318435 0.422692515950 0.926165791153 0.437863430032 0.912541252398 -0.025860185070 0.013497088495
3.971111111000 -0.034147504356 0.026463420888 0.424489271189 0.924858214584 0.439683816632 0.913898779533 -0.024558104010 0.014154253024
3.971533333000 -0.033611232654 0.027263890671 0.427447459533 0.926681622481 0.441102719205 0.913753999780 -0.024467034361 0.014496891916
3.971955555000 -0.034047261626 0.026684952152 0.428228101480 0.924597953603 0.441773581491 0.912195152386 -0.024539162137 0.013114044810
3.972377777000 -0.033699565854 0.026877123766 0.430027549938 0.924652267754 0.444311430916 0.912900563431 -0.025544367174 0.014009806019
3.972800000000 -0.032489046103 0.026966549448 0.433243321624 0.922615813832 0.446004758054 0.911035944045 -0.023142671149 0.013676840343
3.973222222000 -0.031650941649 0.027268432481 0.435428747218 0.922435194201 0.447405902418 0.911629066725 -0.023423664771 0.011753365870
3.973644444000 -0.032015512840 0.027284296956 0.436431375976 0.923340319855 0.449507475124 0.911403150524 -0.023591261958 0.012733532316
3.974066666000 -0.032153857821 0.027541937764 0.437157558795 0.921456484476 0.450347487197 0.910401388773 -0.023507846379 0.013539988889
3.974488888000 -0.032197327493 0.027894550862 0.439510198854 0.922919265065 0.451535429869 0.909698215263 -0.023512163816 0.012854253903
3.974911111000 -0.031215032197 0.027536258606 0.440836388695 0.920724154372 0.454186027588 0.909182858829 -0.022520315688 0.012542013868
3.975333333000 -0.031065563124 0.028145558614 0.442223618474 0.920630081084 0.455114714375 0.908602834434 -0.022743506813 0.013117489419
3.975755555000 -0.029822850869 0.027884582269 0.445197148885 0.919935304595 0.457348248223 0.909499279442 -0.022954829510 0.012137943464
3.976177777000 -0.029301609904 0.028091477769 0.447290185052 0.917677658869 0.459365410945 0.907827340564 -0.021330496804 0.012723687412
3.976600000000 -0.028967518999 0.028588374662 0.451398022451 0.918374302917 0.461369263401 0.909638290007 -0.021216638977 0.013948693750
3.977022222000 -0.028714460846 0.028484780465 0.450020527695 0.917448969461 0.461696657567 0.907667800748 -0.020759112934 0.011593421416
3.977444444000 -0.027884676043 0.028193816972 0.453050016280 0.915434170910 0.465975334556 0.906307140056 -0.020935531544 0.011605047891
3.977866666000 -0.028131844162 0.028074969665 0.452513874378 0.914697150820 0.465953314181 0.905778447726 -0.021152625232 0.011970663977
3.978288888000 -0.028116399942 0.028756436961 0.454183282000 0.915336272838 0.466149973023 0.905376799840 -0.020166495022 0.011416199648
3.978711111000 -0.027709565746 0.028193306328 0.455993096961 0.913413107893 0.468479436735 0.905023113107 -0.021414771850 0.010417466741
3.979133333000 -0.026501394050 0.028057719527 0.457575560909 0.913099674831 0.470393430952 0.905112308364 -0.020546440027 0.009554729634
3.979555555000 -0.026009360386 0.028315110183 0.460950357494 0.913357634144 0.473426653767 0.904024411918 -0.020897142210 0.010252919013
3.979977777000 -0.025769851292 0.028337742342 0.461776598203 0.912112275493 0.474343705753 0.903764335959 -0.020219159545 0.009617203104
3.980400000000 -0.025659318918 0.028283580450 0.463646227384 0.911632203801 0.475401833803 0.902792564567 -0.019986457468 0.010017835850
3.980822222000 -0.025851186942 0.028407108411 0.463589354279 0.911110628980 0.476716067673 0.901320090824 -0.019708373382 0.009817615891
3.981244444000 -0.024691613532 0.028379400472 0.468450568148 0.909176129796 0.479959722747 0.900774080449 -0.020095686447 0.010167951951
3.981666666000 -0.023948971569 0.027422834744 0.470156653718 0.907218310545 0.481680071504 0.901518980241 -0.020331468422 0.009055569502
3.982088888000 -0.023971945458 0.028570287476 0.470380201983 0.907005116693 0.482415591043 0.900031833388 -0.019078621063 0.009714739350
3.982511111000 -0.023259312830 0.028997055936 0.473592670695 0.907513849982 0.483856974348 0.899069574559 -0.018843538847 0.008874808382
3.982933333000 -0.023109066158 0.028790301079 0.473031485271 0.906536791212 0.484885709218 0.899072342053 -0.018840348707 0.008735548214
3.983355555000 -0.023197301844 0.028451907927 0.475016100034 0.904424510774 0.486428593375 0.897973119768 -0.019318188485 0.009068740719
3.983777777000 -0.021713917479 0.028369848249 0.478058538044 0.904455456459 0.488819383829 0.897802474685 -0.017759125816 0.007965725381
3.984200000000 -0.021807184702 0.029351654630 0.478811015146 0.905376953614 0.489097120236 0.897541273830 -0.018380222136 0.008759525269
3.984622222000 -0.021271743172 0.028202197951 0.481049247443 0.902408185854 0.492538053982 0.895058234223 -0.018802063744 0.007596500362
3.985044444000 -0.021783208056 0.027713748982 0.481450204721 0.901969734811 0.494550426589 0.893890276591 -0.019168333119 0.007954219316
3.985466666000 -0.020280208244 0.028574729078 0.483867776718 0.901018669988 0.495478945382 0.893454742336 -0.017636177639 0.007499124612
3.985888888000 -0.019967758223 0.028308419316 0.485292954325 0.899758917852 0.497042880012 0.893315156779 -0.016905852874 0.007609202390
3.986311111000 -0.019388711204 0.026960984143 0.487189942012 0.897854469162 0.500163026456 0.893149511729 -0.018268925369 0.006655978581
3.986733333000 -0.019746209728 0.028636179548 0.489196252584 0.898487414281 0.502242411463 0.890233943461 -0.018055120989 0.008979541342
3.987155555000 -0.018711317410 0.027510157068 0.491378662598 0.896389193602 0.502617425781 0.892459869488 -0.018938281353 0.006263946156
3.987577777000 -0.018377544985 0.028061664177 0.492262941172 0.896518504588 0.504482844504 0.891388481110 -0.018372890421 0.007696787927
3.988000000000 -0.018361458227 0.027444498631 0.494550260101 0.895843266742 0.505462118253 0.890111546582 -0.018350449846 0.005919004145
3.988422222000 -0.018432447171 0.027862761121 0.494999651160 0.894799135520 0.506475567136 0.888709018863 -0.017711547242 0.006694221072
3.988844444000 -0.017511828606 0.026881616327 0.497190358002 0.893389959847 0.509629949027 0.888415244858 -0.018089284271 0.006047849130
3.989266666000 -0.016836369890 0.026261802151 0.499655423666 0.891178782291 0.509885097141 0.889277284666 -0.018686817394 0.005331170885
3.989688888000 -0.017569661305 0.026459548372 0.500594694685 0.892227315502 0.512514253375 0.885231503921 -0.018088832561 0.004759716341
3.990111111000 -0.015628957955 0.026602216654 0.502681643443 0.890826455562 0.512834024682 0.887763789085 -0.017249014053 0.004906568299
3.990533333000 -0.015816295649 0.026580228056 0.504231536147 0.889774102546 0.514906693395 0.885219505811 -0.017046323155 0.004553538148
3.990955555000 -0.015251655505 0.025991337107 0.506904051899 0.887176428280 0.516102421823 0.883036833404 -0.017524828474 0.004463854635
3.991377777000 -0.015243257704 0.025058399066 0.507808157102 0.886082356154 0.519580276407 0.883711482890 -0.018726580157 0.003965099811
3.991800000000 -0.014110687078 0.025773930931 0.509802606777 0.886388027565 0.519557582921 0.885137622230 -0.018070492401 0.004376643902
3.992222222000 -0.014867729546 0.024974600655 0.510359776861 0.884800981848 0.521774201316 0.880815065173 -0.017337452280 0.004437838297
3.992644444000 -0.014001375718 0.024912380188 0.511498730148 0.882749960516 0.524465119175 0.880021898988 -0.018523612490 0.004256846805
3.993066666000 -0.014031650933 0.025045112071 0.512729035588 0.882506382444 0.525924012171 0.879022672611 -0.017811768523 0.004817109977
3.993488888000 -0.013142226117 0.024351805954 0.515465974793 0.880959284472 0.526557708351 0.878715674378 -0.017353005604 0.003238950380
3.993911111000 -0.013513663218 0.024149650308 0.516823245920 0.880787704446 0.529519865729 0.876130213956 -0.018280126958 0.003081139681
3.994333333000 -0.012702437189 0.023408105430 0.519299489963 0.878405505860 0.531551316364 0.877783400930 -0.018363141469 0.003056102533
3.994755555000 -0.013611321767 0.024336532359 0.520273012995 0.879151122657 0.531335312147 0.875063405672 -0.018501254963 0.002633224708
3.995177777000 -0.012716410746 0.023506649803 0.521731342389 0.875927561708 0.534277880225 0.874747400745 -0.019194289278 0.003176039180
3.995600000000 -0.012511006744 0.023487425143 0.522795143879 0.875789925994 0.534168399242 0.872350134376 -0.018480163175 0.002837902331
3.996022222000 -0.011692898745 0.023592832387 0.524864006786 0.875639863547 0.536199759712 0.873969507155 -0.017985805426 0.002257755471
3.996444444000 -0.012060619653 0.023248764144 0.525827618025 0.873934747364 0.536644610150 0.869974931349 -0.018247292101 0.002990886290
3.996866666000 -0.012338646320 0.023146935236 0.526290932125 0.873530619385 0.537020253484 0.869640143352 -0.018139204356 0.002632651131
3.997288888000 -0.012284619651 0.022241341881 0.528013037415 0.871344911411 0.541904355185 0.868741359004 -0.019505992252 0.002629604260
3.997711111000 -0.011305570311 0.022755347940 0.530540114924 0.871274826025 0.541456709371 0.868449299649 -0.018955637741 0.002570487880
3.998133333000 -0.011215020757 0.021750658412 0.531696908142 0.869279908705 0.543379075501 0.866282356457 -0.018786434686 0.002558417827
3.998555555000 -0.010609614283 0.021929540996 0.533525667515 0.869503390091 0.545439568183 0.865623801164 -0.018322427038 0.002410273836
3.998977777000 -0.010491804918 0.021751186844 0.534097605594 0.867371295125 0.546116328861 0.865581609402 -0.019026343463 0.002482189077
3.999400000000 -0.010528168289 0.021563422718 0.535361351797 0.866324431315 0.549240984415 0.864368411415 -0.020078770767 0.002684159549
3.999822222000 -0.010293895701 0.021027309628 0.537314847170 0.865880681671 0.551942171543 0.864524350941 -0.019761885738 0.001236457748
4.000244444000 -0.009394444347 0.020582562667 0.540226245226 0.864769943587 0.550200062880 0.863074706516 -0.019320859256 0.001559669557
4.000666666000 -0.010035692609 0.020355379375 0.540095098889 0.864289729336 0.554056021733 0.861436214563 -0.019347869189 0.001404819846
4.001088888000 -0.010599801882 0.020207273969 0.542147545730 0.861465420469 0.554847403615 0.858338275494 -0.020460547036 0.001795842849
4.001511111000 -0.009770997077 0.019763758878 0.543610595534 0.861075270504 0.556270623965 0.858043246007 -0.019677864336 0.000769182620
4.001933333000 -0.010205029142 0.019623167676 0.545317383971 0.860726344729 0.557188579303 0.854414861795 -0.019914537685 0.001890410200
4.002355555000 -0.009657685056 0.020089099223 0.545365752953 0.859881019790 0.558280582569 0.856862511661 -0.020606858515 0.001666543019
4.002777777000 -0.009045977140 0.020110398889 0.547856426068 0.857862791162 0.557843137765 0.855950646722 -0.019283880752 0.001519789784
4.003200000000 -0.008860864468 0.018289159118 0.548464183763 0.856647244415 0.563970546786 0.853831079343 -0.019823416623 0.001544309128
4.003622222000 -0.008352242002 0.018502004883 0.551329202373 0.856665654860 0.565804812110 0.853253776689 -0.020193346572 0.001233703903
4.004044444000 -0.009237805718 0.019577952736 0.552678747636 0.854456767831 0.563170956580 0.851442245961 -0.021134632547 0.001827913454
4.004466666000 -0.008665930189 0.019696461944 0.552278715955 0.850791091429 0.561296486472 0.852371815669 -0.019762333197 0.002488926961
4.004888888000 -0.009555282064 0.017371585917 0.554107334610 0.851729385828 0.567687106530 0.849411346509 -0.020489372298 0.001152728803
4.005311111000 -0.009660950804 0.018115743838 0.556617549391 0.850363849169 0.568946348320 0.848621253209 -0.021745857313 0.000960204745
4.005733333000 -0.008618540248 0.018019446373 0.557355161142 0.849170159679 0.569308167568 0.850088024607 -0.021313327730 0.000942655946
4.006155555000 -0.008866544869 0.017480672961 0.557348812467 0.849609312537 0.571301036328 0.848057336133 -0.020554906172 0.000762026508
4.006577777000 -0.009406236164 0.017286820173 0.558831375529 0.846725909054 0.571738835250 0.844115841257 -0.021068407522 0.001537925644
4.007000000000 -0.008850969029 0.016478959250 0.558006525294 0.845757237116 0.573217823402 0.846895917807 -0.020551448450 0.001088700759
4.007422222000 -0.009596022555 0.016861625056 0.562608091834 0.843503642060 0.575242966066 0.841229551853 -0.022273604044 0.001496649841
4.007844444000 -0.009153094841 0.016676244095 0.563997488812 0.843275030156 0.575876304563 0.842017686767 -0.021696122449 0.001238275885
4.008266666000 -0.008745960125 0.015950424409 0.563916829560 0.842049382317 0.581214198264 0.841883484726 -0.022592115873 0.001392797704
4.008688888000 -0.009042125311 0.016634335900 0.566762419850 0.841869844079 0.578921245797 0.838699669286 -0.022424194020 0.001993765954
4.009111111000 -0.009171331666 0.015747262444 0.566119286470 0.843342896588 0.583383183076 0.838922531630 -0.022298432700 0.001749696594
4.009533333000 -0.009642036330 0.015538857140 0.566975318030 0.839792942923 0.580516835819 0.835104787538 -0.021710180923 0.002198228980
4.009955555000 -0.008550856092 0.015940930446 0.569754189704 0.837871327226 0.581706841489 0.837016838579 -0.021743685058 0.001972836034
4.010377777000 -0.008739714384 0.014959076484 0.571183903876 0.837511592350 0.587458925499 0.835175485057 -0.022354837114 0.001819921605
4.010800000000 -0.008919092040 0.015713288968 0.572974235634 0.836682467280 0.585384711478 0.834699436747 -0.023246237260 0.001632434825
